! Mini-Circuits  
! S2P DATA File Format
! Type: MMIC Amplifier
! Model: ERA-2SM     Reference Data:RDF-874AA
! Note: All S Parameters are in dB deg format
! TEST CONDITIONS: INPUT POWER = -20dBm, Icc = 40mA, Vd = 3.59V @Temperature = -45degC
! 401 Frequency points
!
# MHz S DB R 50
!    FREQ       dB(S11)   PHS(S11)  dB(S21)   PHS(S21)  dB(S12)   PHS(S12)  dB(S22)   PHS(S22) 
   50.000000   -31.195    -1.292    16.405   174.504   -19.693    -4.240   -32.955   172.701 
   70.000000   -31.418    -2.340    16.403   172.623   -19.823    -5.318   -32.932   165.417 
   90.000000   -31.067     1.812    16.403   170.517   -19.718    -6.879   -32.178   159.738 
  110.000000   -31.739     1.242    16.385   168.494   -19.767    -7.725   -32.274   152.073 
  130.000000   -31.927     3.554    16.378   166.589   -19.787    -9.294   -32.054   147.796 
  150.000000   -31.879    -1.716    16.375   164.483   -19.726   -10.748   -31.799   140.585 
  170.000000   -31.973    -3.957    16.371   162.420   -19.756   -12.036   -31.716   135.928 
  190.000000   -31.733    -3.001    16.366   160.444   -19.749   -13.690   -31.368   132.137 
  210.000000   -31.349    -4.099    16.360   158.383   -19.735   -14.934   -30.826   130.817 
  230.000000   -31.671    -5.384    16.342   156.354   -19.731   -16.316   -30.398   129.453 
  250.000000   -31.348    -4.853    16.341   154.307   -19.739   -17.941   -30.355   126.452 
  270.000000   -31.272    -1.395    16.335   152.296   -19.723   -19.096   -29.962   123.707 
  290.000000   -31.350    -3.686    16.322   150.232   -19.756   -20.727   -29.903   122.431 
  310.000000   -31.479    -5.133    16.307   148.201   -19.747   -22.074   -29.617   119.036 
  330.000000   -31.491    -2.308    16.301   146.202   -19.740   -23.405   -29.381   116.644 
  350.000000   -31.247    -1.887    16.293   144.176   -19.729   -24.894   -29.178   114.493 
  370.000000   -30.986    -2.135    16.279   142.170   -19.734   -26.292   -29.197   111.220 
  390.000000   -31.211    -5.161    16.265   140.131   -19.728   -27.725   -28.925   106.496 
  410.000000   -31.000    -5.527    16.248   138.133   -19.736   -29.135   -28.494   103.706 
  430.000000   -30.912    -4.293    16.246   136.131   -19.732   -30.485   -28.140   100.626 
  450.000000   -31.066    -4.751    16.238   134.122   -19.720   -31.964   -27.742    98.561 
  470.000000   -31.179    -5.608    16.220   132.106   -19.716   -33.489   -27.521    96.478 
  490.000000   -31.187    -4.909    16.200   130.091   -19.718   -34.898   -27.359    92.424 
  510.000000   -31.137    -6.922    16.197   128.034   -19.709   -36.251   -27.139    89.708 
  530.000000   -30.971    -6.922    16.182   126.054   -19.711   -37.703   -26.689    87.150 
  550.000000   -30.974    -5.398    16.166   124.030   -19.714   -39.118   -26.352    85.240 
  570.000000   -30.702    -4.380    16.148   122.065   -19.710   -40.566   -26.202    83.645 
  590.000000   -30.365    -3.567    16.141   120.070   -19.700   -42.075   -26.084    81.090 
  610.000000   -30.196    -4.788    16.128   118.047   -19.702   -43.450   -25.906    78.332 
  630.000000   -30.146    -7.088    16.107   116.047   -19.701   -44.878   -25.843    75.908 
  650.000000   -30.126    -7.423    16.099   114.046   -19.709   -46.324   -25.632    73.189 
  670.000000   -29.863    -7.997    16.082   112.061   -19.692   -47.726   -25.439    70.895 
  690.000000   -29.815    -8.417    16.067   110.092   -19.696   -49.224   -25.205    68.629 
  710.000000   -29.611    -7.617    16.049   108.110   -19.690   -50.656   -25.007    66.100 
  730.000000   -29.447    -8.159    16.040   106.129   -19.685   -52.029   -24.865    63.119 
  750.000000   -29.409    -9.061    16.024   104.121   -19.677   -53.552   -24.494    60.627 
  770.000000   -29.348    -8.628    16.008   102.169   -19.695   -54.990   -24.154    58.468 
  790.000000   -29.302    -8.686    15.993   100.184   -19.683   -56.443   -23.896    56.466 
  810.000000   -29.330    -9.716    15.979    98.210   -19.688   -57.865   -23.705    55.148 
  830.000000   -29.403    -8.921    15.972    96.191   -19.706   -59.406   -23.423    53.481 
  850.000000   -29.142    -9.993    15.948    94.253   -19.677   -60.752   -23.237    50.864 
  870.000000   -29.199   -10.207    15.927    92.283   -19.680   -62.260   -23.005    48.664 
  890.000000   -29.007    -8.665    15.912    90.254   -19.699   -63.606   -22.559    46.931 
  910.000000   -28.950   -10.115    15.899    88.339   -19.684   -65.041   -22.386    45.086 
  930.000000   -28.845    -8.476    15.879    86.393   -19.688   -66.483   -22.190    44.050 
  950.000000   -28.719    -8.918    15.864    84.433   -19.679   -67.929   -22.058    42.095 
  970.000000   -28.886   -11.172    15.846    82.467   -19.683   -69.396   -21.901    39.878 
  990.000000   -28.861   -11.511    15.832    80.506   -19.677   -70.881   -21.753    38.404 
 1010.000000   -28.847   -10.983    15.821    78.545   -19.687   -72.335   -21.535    36.934 
 1030.000000   -28.543   -11.516    15.798    76.583   -19.683   -73.705   -21.341    35.033 
 1050.000000   -28.466   -12.878    15.783    74.606   -19.681   -75.139   -21.223    33.644 
 1070.000000   -28.412   -12.815    15.773    72.675   -19.692   -76.700   -21.123    32.358 
 1090.000000   -27.993   -13.200    15.753    70.714   -19.694   -77.989   -20.967    29.481 
 1110.000000   -27.979   -15.163    15.732    68.752   -19.668   -79.476   -20.890    27.535 
 1130.000000   -28.014   -17.430    15.719    66.815   -19.671   -80.967   -20.838    25.142 
 1150.000000   -27.960   -18.527    15.708    64.886   -19.676   -82.381   -20.807    23.245 
 1170.000000   -27.858   -19.630    15.688    62.926   -19.684   -83.876   -20.670    21.329 
 1190.000000   -27.518   -21.704    15.664    60.941   -19.680   -85.255   -20.550    19.010 
 1210.000000   -27.364   -25.045    15.647    59.032   -19.676   -86.681   -20.492    16.265 
 1230.000000   -27.360   -26.815    15.636    57.080   -19.678   -88.147   -20.409    13.920 
 1250.000000   -27.228   -29.086    15.621    55.129   -19.677   -89.628   -20.253    11.698 
 1270.000000   -27.204   -30.869    15.597    53.185   -19.679   -91.062   -20.145     9.417 
 1290.000000   -27.204   -32.727    15.582    51.261   -19.662   -92.538   -20.062     7.006 
 1310.000000   -27.125   -34.084    15.569    49.327   -19.674   -94.063   -19.938     5.079 
 1330.000000   -27.007   -36.013    15.551    47.378   -19.683   -95.465   -19.812     2.912 
 1350.000000   -27.025   -36.639    15.529    45.453   -19.671   -96.924   -19.662     0.998 
 1370.000000   -26.940   -36.779    15.517    43.497   -19.685   -98.406   -19.545    -0.421 
 1390.000000   -26.669   -40.021    15.484    41.554   -19.686   -99.733   -19.349    -2.810 
 1410.000000   -26.632   -40.367    15.478    39.648   -19.683  -101.242   -19.312    -3.818 
 1430.000000   -26.546   -40.434    15.459    37.736   -19.681  -102.734   -19.252    -5.048 
 1450.000000   -26.370   -41.357    15.439    35.785   -19.680  -104.157   -19.184    -6.271 
 1470.000000   -26.204   -41.842    15.423    33.817   -19.700  -105.669   -19.116    -7.307 
 1490.000000   -25.870   -44.033    15.402    31.915   -19.695  -106.971   -19.074    -9.814 
 1510.000000   -25.761   -45.676    15.383    30.029   -19.688  -108.421   -19.096   -11.538 
 1530.000000   -25.641   -46.521    15.371    28.076   -19.687  -109.988   -19.058   -13.246 
 1550.000000   -25.563   -48.894    15.352    26.167   -19.700  -111.356   -19.002   -15.563 
 1570.000000   -25.547   -49.187    15.335    24.251   -19.695  -112.892   -18.998   -17.539 
 1590.000000   -25.566   -49.722    15.318    22.271   -19.702  -114.408   -18.924   -19.355 
 1610.000000   -25.440   -54.716    15.292    20.387   -19.696  -115.637   -18.823   -22.704 
 1630.000000   -25.646   -55.940    15.280    18.459   -19.705  -117.210   -18.754   -24.265 
 1650.000000   -25.557   -57.373    15.261    16.485   -19.705  -118.663   -18.589   -26.216 
 1670.000000   -25.479   -60.892    15.231    14.623   -19.706  -119.954   -18.445   -28.988 
 1690.000000   -25.663   -61.543    15.214    12.738   -19.696  -121.437   -18.371   -30.642 
 1710.000000   -25.631   -62.444    15.201    10.819   -19.704  -123.002   -18.214   -32.246 
 1730.000000   -25.703   -63.526    15.179     8.920   -19.697  -124.427   -18.102   -34.114 
 1750.000000   -25.807   -64.626    15.156     7.010   -19.704  -125.887   -18.018   -35.623 
 1770.000000   -25.802   -66.080    15.137     5.102   -19.705  -127.304   -17.982   -37.133 
 1790.000000   -25.683   -66.800    15.126     3.208   -19.717  -128.727   -17.926   -38.393 
 1810.000000   -25.508   -68.627    15.102     1.308   -19.714  -130.183   -17.900   -39.802 
 1830.000000   -25.412   -70.288    15.083    -0.572   -19.713  -131.673   -17.919   -41.270 
 1850.000000   -25.336   -72.190    15.068    -2.484   -19.702  -133.104   -17.979   -42.805 
 1870.000000   -25.072   -73.885    15.049    -4.379   -19.717  -134.562   -18.014   -44.486 
 1890.000000   -24.966   -75.801    15.035    -6.287   -19.718  -136.032   -18.014   -46.135 
 1910.000000   -24.848   -77.840    15.015    -8.179   -19.715  -137.501   -18.075   -48.290 
 1930.000000   -24.779   -79.665    15.000   -10.101   -19.713  -138.961   -18.117   -50.534 
 1950.000000   -24.711   -82.064    14.978   -12.006   -19.713  -140.435   -18.111   -52.700 
 1970.000000   -24.641   -83.963    14.962   -13.912   -19.709  -141.863   -18.112   -55.010 
 1990.000000   -24.619   -86.278    14.950   -15.847   -19.716  -143.339   -18.010   -57.148 
 2010.000000   -24.633   -87.636    14.923   -17.756   -19.714  -144.855   -17.909   -59.394 
 2030.000000   -24.666   -89.723    14.896   -19.665   -19.731  -146.324   -17.796   -61.618 
 2050.000000   -24.869   -90.942    14.887   -21.541   -19.712  -147.775   -17.710   -63.650 
 2070.000000   -24.883   -91.857    14.863   -23.474   -19.745  -149.224   -17.563   -65.330 
 2090.000000   -25.043   -93.981    14.840   -25.355   -19.732  -150.665   -17.481   -67.300 
 2110.000000   -25.080   -95.411    14.825   -27.224   -19.746  -152.060   -17.428   -68.969 
 2130.000000   -25.193   -96.953    14.812   -29.117   -19.745  -153.613   -17.331   -70.544 
 2150.000000   -25.187   -98.160    14.784   -31.047   -19.762  -155.082   -17.251   -72.074 
 2170.000000   -25.161  -100.023    14.763   -32.903   -19.761  -156.437   -17.167   -73.872 
 2190.000000   -25.166  -101.128    14.739   -34.790   -19.772  -157.913   -17.117   -75.580 
 2210.000000   -25.381  -104.104    14.719   -36.674   -19.767  -159.312   -17.128   -77.349 
 2230.000000   -25.364  -105.995    14.709   -38.522   -19.745  -160.808   -17.093   -79.028 
 2250.000000   -25.311  -106.885    14.688   -40.455   -19.762  -162.352   -17.085   -80.436 
 2270.000000   -25.115  -107.979    14.663   -42.396   -19.770  -163.779   -17.031   -81.779 
 2290.000000   -25.013  -112.672    14.631   -44.220   -19.785  -165.087   -16.993   -84.461 
 2310.000000   -25.202  -114.559    14.620   -46.051   -19.780  -166.527   -17.068   -86.364 
 2330.000000   -25.078  -117.053    14.599   -47.930   -19.784  -168.037   -17.050   -88.117 
 2350.000000   -25.055  -118.860    14.582   -49.797   -19.786  -169.529   -17.052   -89.885 
 2370.000000   -25.165  -120.692    14.562   -51.670   -19.781  -170.984   -17.086   -91.826 
 2390.000000   -25.194  -122.011    14.550   -53.615   -19.786  -172.566   -17.064   -93.198 
 2410.000000   -25.106  -124.234    14.520   -55.489   -19.802  -173.986   -16.996   -95.035 
 2430.000000   -25.118  -127.162    14.503   -57.350   -19.786  -175.358   -17.031   -97.057 
 2450.000000   -25.103  -128.126    14.481   -59.257   -19.799  -176.937   -17.016   -98.949 
 2470.000000   -24.933  -131.288    14.460   -61.080   -19.816  -178.286   -17.063  -101.077 
 2490.000000   -24.854  -133.579    14.444   -62.944   -19.804  -179.750   -17.097  -102.866 
 2510.000000   -24.866  -135.283    14.424   -64.781   -19.812   178.836   -17.124  -104.722 
 2530.000000   -24.957  -137.743    14.410   -66.666   -19.796   177.352   -17.149  -106.465 
 2550.000000   -24.972  -140.119    14.386   -68.580   -19.811   175.810   -17.131  -108.539 
 2570.000000   -24.936  -143.302    14.370   -70.410   -19.818   174.398   -17.144  -110.837 
 2590.000000   -25.019  -145.536    14.356   -72.264   -19.816   172.904   -17.163  -112.652 
 2610.000000   -24.809  -147.539    14.330   -74.188   -19.822   171.493   -17.087  -114.439 
 2630.000000   -24.865  -149.667    14.309   -76.065   -19.823   170.021   -17.090  -116.431 
 2650.000000   -24.850  -152.291    14.285   -77.904   -19.836   168.518   -17.034  -118.563 
 2670.000000   -25.028  -156.214    14.278   -79.715   -19.830   167.117   -17.020  -120.591 
 2690.000000   -25.080  -157.215    14.252   -81.611   -19.822   165.548   -17.025  -122.303 
 2710.000000   -25.026  -159.603    14.228   -83.486   -19.837   164.141   -16.994  -124.062 
 2730.000000   -25.091  -161.240    14.215   -85.341   -19.832   162.618   -17.024  -125.607 
 2750.000000   -25.155  -162.361    14.199   -87.253   -19.846   161.078   -16.991  -126.870 
 2770.000000   -25.041  -162.938    14.177   -89.113   -19.856   159.591   -16.958  -128.235 
 2790.000000   -24.750  -163.717    14.131   -91.034   -19.900   158.259   -16.827  -129.884 
 2810.000000   -24.782  -167.408    14.122   -92.764   -19.877   156.888   -16.906  -132.040 
 2830.000000   -24.812  -168.579    14.114   -94.688   -19.873   155.375   -16.961  -133.166 
 2850.000000   -24.709  -169.485    14.096   -96.534   -19.874   153.829   -16.989  -134.541 
 2870.000000   -24.490  -171.305    14.060   -98.370   -19.899   152.449   -16.996  -136.454 
 2890.000000   -24.547  -172.684    14.034  -100.214   -19.910   150.940   -17.050  -138.358 
 2910.000000   -24.616  -175.609    14.021  -102.008   -19.904   149.599   -17.091  -140.605 
 2930.000000   -24.609  -178.706    14.013  -103.847   -19.898   148.183   -17.184  -142.646 
 2950.000000   -24.688   179.695    13.989  -105.716   -19.896   146.617   -17.240  -144.451 
 2970.000000   -24.562   178.687    13.964  -107.646   -19.908   145.110   -17.186  -146.472 
 2990.000000   -24.557   174.756    13.947  -109.424   -19.905   143.735   -17.205  -149.122 
 3010.000000   -24.641   172.958    13.932  -111.317   -19.914   142.164   -17.151  -151.016 
 3030.000000   -24.813   169.933    13.915  -113.187   -19.911   140.712   -17.122  -153.097 
 3050.000000   -24.880   167.725    13.886  -115.058   -19.939   139.239   -16.997  -154.824 
 3070.000000   -24.903   164.346    13.864  -116.855   -19.957   137.829   -16.957  -157.028 
 3090.000000   -24.873   161.754    13.848  -118.657   -19.948   136.440   -16.964  -158.966 
 3110.000000   -24.946   159.546    13.830  -120.482   -19.949   134.922   -16.955  -160.904 
 3130.000000   -24.959   156.546    13.814  -122.295   -19.948   133.553   -16.974  -162.743 
 3150.000000   -25.311   154.475    13.802  -124.194   -19.942   132.061   -16.948  -163.672 
 3170.000000   -25.248   154.676    13.782  -126.052   -19.962   130.527   -16.967  -164.935 
 3190.000000   -25.103   153.347    13.756  -127.912   -19.960   129.012   -16.974  -166.108 
 3210.000000   -25.027   151.785    13.744  -129.756   -19.979   127.563   -17.074  -167.572 
 3230.000000   -24.924   150.632    13.721  -131.601   -19.979   126.080   -17.133  -168.888 
 3250.000000   -24.771   148.633    13.703  -133.426   -19.989   124.645   -17.192  -170.427 
 3270.000000   -24.837   148.483    13.684  -135.340   -19.998   122.999   -17.228  -171.590 
 3290.000000   -24.354   146.203    13.641  -137.125   -20.032   121.602   -17.225  -173.993 
 3310.000000   -24.372   142.884    13.639  -138.880   -20.010   120.339   -17.382  -176.277 
 3330.000000   -24.302   141.492    13.625  -140.764   -20.011   118.767   -17.476  -178.195 
 3350.000000   -24.336   139.369    13.609  -142.593   -20.015   117.292   -17.512   179.464 
 3370.000000   -24.460   137.617    13.593  -144.449   -20.015   115.866   -17.494   177.295 
 3390.000000   -24.660   134.702    13.579  -146.310   -20.027   114.377   -17.471   175.436 
 3410.000000   -24.556   134.263    13.544  -148.167   -20.055   112.844   -17.298   173.936 
 3430.000000   -24.814   131.043    13.539  -149.983   -20.030   111.310   -17.372   171.886 
 3450.000000   -24.765   129.557    13.509  -151.855   -20.062   109.886   -17.280   169.995 
 3470.000000   -25.068   127.295    13.493  -153.728   -20.040   108.468   -17.244   168.189 
 3490.000000   -25.017   126.804    13.463  -155.636   -20.084   106.760   -17.098   166.930 
 3510.000000   -25.030   123.953    13.440  -157.378   -20.087   105.361   -17.013   164.960 
 3530.000000   -25.202   121.115    13.425  -159.256   -20.093   103.875   -17.057   163.806 
 3550.000000   -25.172   120.894    13.388  -161.158   -20.109   102.350   -16.942   162.702 
 3570.000000   -24.492   121.057    13.324  -162.925   -20.185   100.787   -16.745   160.272 
 3590.000000   -24.197   115.007    13.326  -164.485   -20.185    99.777   -16.892   157.499 
 3610.000000   -24.245   111.260    13.327  -166.232   -20.175    98.465   -17.022   155.789 
 3630.000000   -24.284   109.130    13.321  -168.056   -20.160    97.071   -17.134   154.002 
 3650.000000   -24.324   106.969    13.311  -169.933   -20.152    95.538   -17.268   152.762 
 3670.000000   -24.269   105.431    13.295  -171.781   -20.154    94.103   -17.364   151.330 
 3690.000000   -24.033   103.941    13.282  -173.564   -20.162    92.533   -17.417   149.068 
 3710.000000   -24.121   102.507    13.267  -175.403   -20.157    91.191   -17.514   147.270 
 3730.000000   -24.164   101.870    13.238  -177.390   -20.172    89.484   -17.513   146.309 
 3750.000000   -24.091   100.616    13.226  -179.113   -20.172    88.154   -17.515   144.383 
 3770.000000   -23.834   101.047    13.186   179.041   -20.203    86.556   -17.420   143.099 
 3790.000000   -23.741    96.774    13.181   177.385   -20.211    85.393   -17.537   140.448 
 3810.000000   -23.897    95.229    13.174   175.507   -20.198    83.832   -17.635   138.856 
 3830.000000   -23.913    93.121    13.157   173.697   -20.206    82.417   -17.613   137.178 
 3850.000000   -24.085    91.138    13.147   171.891   -20.213    80.977   -17.637   135.270 
 3870.000000   -24.349    89.445    13.143   170.001   -20.181    79.502   -17.743   133.997 
 3890.000000   -24.548    90.070    13.114   168.026   -20.192    77.845   -17.699   133.167 
 3910.000000   -24.310    88.826    13.077   166.293   -20.236    76.315   -17.639   131.241 
 3930.000000   -24.404    86.265    13.074   164.495   -20.226    74.935   -17.703   129.493 
 3950.000000   -24.463    86.770    13.041   162.534   -20.238    73.214   -17.591   128.618 
 3970.000000   -24.207    84.533    13.014   160.741   -20.250    71.853   -17.634   126.857 
 3990.000000   -23.510    81.502    12.973   159.230   -20.332    70.509   -17.423   123.825 
 4020.000000   -23.750    76.626    12.988   156.560   -20.306    68.674   -17.752   120.575 
 4060.000000   -24.150    73.484    12.963   152.773   -20.275    65.589   -17.917   117.469 
 4100.000000   -24.241    70.718    12.929   149.047   -20.296    62.616   -17.940   114.220 
 4140.000000   -24.172    67.435    12.899   145.536   -20.303    59.840   -17.952   110.583 
 4180.000000   -24.325    65.961    12.865   141.840   -20.312    56.817   -17.978   108.195 
 4220.000000   -24.337    65.280    12.818   138.239   -20.339    53.811   -17.863   105.526 
 4260.000000   -24.209    66.386    12.735   134.659   -20.408    50.557   -17.675   102.741 
 4300.000000   -24.433    57.980    12.753   131.248   -20.415    48.306   -17.956    98.079 
