! Mini-Circuits  
! S2P DATA File Format
! Type: MMIC Amplifier
! Model: ERA-2SM     Reference Data:RDF-874AA
! Note: All S Parameters are in dB deg format
! TEST CONDITIONS: INPUT POWER = -20dBm, Icc = 32mA, Vd = 3.53V @Temperature = -45degC
! 401 Frequency points
!
# MHz S DB R 50
!    FREQ       dB(S11)   PHS(S11)  dB(S21)   PHS(S21)  dB(S12)   PHS(S12)  dB(S22)   PHS(S22) 
   50.000000   -27.312    -1.346    16.203   174.528   -19.568    -4.105   -49.302   167.490 
   70.000000   -27.347    -3.472    16.199   172.635   -19.514    -5.407   -44.208   143.254 
   90.000000   -27.150    -1.914    16.201   170.515   -19.568    -6.459   -41.562   134.350 
  110.000000   -27.580    -3.624    16.187   168.519   -19.621    -8.065   -40.845   114.477 
  130.000000   -27.623    -3.595    16.175   166.593   -19.618    -9.437   -39.462   108.343 
  150.000000   -27.651    -7.091    16.172   164.500   -19.602   -10.838   -38.061   104.097 
  170.000000   -27.812    -9.518    16.173   162.452   -19.570   -12.297   -37.661   100.083 
  190.000000   -27.594    -8.637    16.168   160.462   -19.577   -13.499   -36.749    94.842 
  210.000000   -27.357   -11.066    16.160   158.403   -19.578   -14.900   -36.335    96.147 
  230.000000   -27.460   -12.546    16.141   156.375   -19.597   -16.547   -35.373   100.166 
  250.000000   -27.554   -12.401    16.144   154.336   -19.576   -17.767   -35.169    97.879 
  270.000000   -27.539   -11.896    16.137   152.326   -19.567   -19.282   -34.700    95.628 
  290.000000   -27.373   -13.756    16.123   150.264   -19.580   -20.653   -34.706    94.697 
  310.000000   -27.509   -14.957    16.110   148.247   -19.593   -21.972   -33.964    91.869 
  330.000000   -27.771   -14.318    16.100   146.238   -19.589   -23.451   -33.529    91.582 
  350.000000   -27.623   -14.404    16.095   144.206   -19.574   -24.978   -33.257    89.994 
  370.000000   -27.470   -15.029    16.081   142.203   -19.569   -26.382   -33.192    85.098 
  390.000000   -27.556   -18.006    16.068   140.176   -19.576   -27.700   -32.567    80.176 
  410.000000   -27.496   -18.785    16.053   138.175   -19.572   -29.196   -31.758    80.293 
  430.000000   -27.531   -18.225    16.047   136.172   -19.559   -30.608   -31.133    78.657 
  450.000000   -27.729   -19.363    16.040   134.156   -19.577   -32.079   -30.751    76.486 
  470.000000   -27.763   -21.210    16.024   132.130   -19.547   -33.554   -30.479    74.703 
  490.000000   -27.806   -21.601    16.003   130.127   -19.575   -34.947   -30.017    72.249 
  510.000000   -27.875   -23.115    16.006   128.091   -19.540   -36.475   -29.614    69.854 
  530.000000   -27.871   -23.334    15.987   126.103   -19.550   -37.919   -29.100    67.624 
  550.000000   -27.807   -23.851    15.970   124.072   -19.551   -39.357   -28.724    66.235 
  570.000000   -27.759   -23.345    15.953   122.109   -19.553   -40.787   -28.429    66.472 
  590.000000   -27.785   -22.010    15.947   120.124   -19.537   -42.178   -28.262    64.461 
  610.000000   -27.638   -23.627    15.938   118.096   -19.556   -43.651   -28.060    61.162 
  630.000000   -27.508   -25.867    15.915   116.097   -19.543   -45.112   -27.954    58.600 
  650.000000   -27.533   -26.986    15.906   114.104   -19.545   -46.511   -27.632    56.365 
  670.000000   -27.546   -26.828    15.887   112.125   -19.534   -47.968   -27.358    54.881 
  690.000000   -27.560   -27.522    15.878   110.134   -19.544   -49.523   -27.048    53.077 
  710.000000   -27.405   -27.874    15.862   108.170   -19.525   -50.925   -26.808    50.394 
  730.000000   -27.350   -28.860    15.849   106.176   -19.544   -52.373   -26.593    47.635 
  750.000000   -27.504   -29.024    15.835   104.179   -19.533   -53.751   -26.140    45.836 
  770.000000   -27.440   -29.626    15.820   102.210   -19.533   -55.190   -25.741    43.982 
  790.000000   -27.521   -30.187    15.803   100.233   -19.540   -56.668   -25.364    43.279 
  810.000000   -27.658   -30.628    15.790    98.251   -19.530   -58.144   -25.139    42.327 
  830.000000   -27.850   -30.722    15.785    96.253   -19.546   -59.635   -24.849    41.061 
  850.000000   -27.638   -32.264    15.762    94.290   -19.517   -61.065   -24.637    38.398 
  870.000000   -27.727   -33.046    15.743    92.335   -19.529   -62.489   -24.344    36.810 
  890.000000   -27.832   -30.862    15.726    90.307   -19.548   -63.943   -23.806    35.956 
  910.000000   -27.848   -31.839    15.714    88.393   -19.532   -65.316   -23.607    34.580 
  930.000000   -27.877   -31.698    15.699    86.435   -19.531   -66.819   -23.452    33.527 
  950.000000   -27.844   -32.308    15.682    84.484   -19.530   -68.255   -23.317    31.653 
  970.000000   -27.999   -34.215    15.659    82.512   -19.531   -69.726   -23.070    30.147 
  990.000000   -28.094   -34.301    15.650    80.552   -19.527   -71.208   -22.910    28.935 
 1010.000000   -28.183   -34.611    15.644    78.594   -19.522   -72.735   -22.696    27.299 
 1030.000000   -28.011   -35.072    15.616    76.625   -19.532   -74.063   -22.496    25.672 
 1050.000000   -27.992   -36.021    15.598    74.648   -19.530   -75.544   -22.339    24.945 
 1070.000000   -28.076   -35.636    15.596    72.706   -19.537   -77.069   -22.209    23.996 
 1090.000000   -27.811   -35.151    15.571    70.739   -19.533   -78.438   -22.066    20.675 
 1110.000000   -27.764   -37.839    15.550    68.788   -19.528   -79.864   -21.985    18.831 
 1130.000000   -27.761   -40.180    15.541    66.859   -19.522   -81.340   -21.867    16.927 
 1150.000000   -27.832   -40.366    15.529    64.920   -19.518   -82.817   -21.799    15.083 
 1170.000000   -27.766   -41.351    15.514    62.960   -19.522   -84.275   -21.702    12.847 
 1190.000000   -27.411   -43.369    15.488    60.980   -19.539   -85.658   -21.586    10.670 
 1210.000000   -27.218   -46.173    15.472    59.063   -19.525   -87.137   -21.446     8.181 
 1230.000000   -27.249   -47.240    15.459    57.100   -19.521   -88.595   -21.318     6.027 
 1250.000000   -27.114   -49.049    15.446    55.170   -19.527   -90.073   -21.162     3.705 
 1270.000000   -27.037   -51.738    15.423    53.213   -19.525   -91.500   -21.055     1.379 
 1290.000000   -27.046   -53.620    15.408    51.280   -19.528   -93.009   -20.930    -0.855 
 1310.000000   -27.063   -53.904    15.395    49.343   -19.537   -94.461   -20.783    -2.548 
 1330.000000   -26.956   -55.410    15.374    47.417   -19.535   -95.921   -20.618    -4.570 
 1350.000000   -27.019   -56.879    15.359    45.480   -19.528   -97.379   -20.467    -6.580 
 1370.000000   -27.027   -57.035    15.343    43.518   -19.539   -98.856   -20.363    -7.781 
 1390.000000   -26.713   -58.995    15.309    41.574   -19.551  -100.174   -20.109    -9.725 
 1410.000000   -26.774   -59.201    15.306    39.659   -19.536  -101.720   -20.069   -10.615 
 1430.000000   -26.796   -59.392    15.291    37.753   -19.538  -103.236   -20.047   -11.968 
 1450.000000   -26.647   -60.490    15.266    35.808   -19.534  -104.653   -19.995   -13.189 
 1470.000000   -26.551   -60.240    15.254    33.836   -19.564  -106.124   -19.905   -13.714 
 1490.000000   -26.215   -61.345    15.232    31.925   -19.549  -107.467   -19.833   -16.095 
 1510.000000   -26.147   -63.258    15.214    30.032   -19.545  -108.926   -19.861   -17.845 
 1530.000000   -26.083   -63.392    15.205    28.079   -19.548  -110.505   -19.820   -19.626 
 1550.000000   -25.946   -65.308    15.184    26.169   -19.545  -111.908   -19.758   -22.072 
 1570.000000   -26.031   -66.439    15.171    24.249   -19.545  -113.357   -19.771   -24.116 
 1590.000000   -26.093   -67.006    15.152    22.262   -19.564  -114.972   -19.676   -25.800 
 1610.000000   -25.874   -70.922    15.121    20.392   -19.559  -116.135   -19.521   -28.941 
 1630.000000   -26.087   -72.400    15.117    18.451   -19.562  -117.741   -19.440   -30.426 
 1650.000000   -26.009   -74.287    15.098    16.489   -19.569  -119.284   -19.285   -32.478 
 1670.000000   -25.879   -77.755    15.065    14.617   -19.567  -120.539   -19.120   -35.235 
 1690.000000   -26.126   -78.424    15.048    12.731   -19.568  -122.067   -19.027   -36.556 
 1710.000000   -26.155   -79.109    15.035    10.801   -19.566  -123.550   -18.836   -37.973 
 1730.000000   -26.263   -80.234    15.018     8.905   -19.571  -124.945   -18.749   -39.989 
 1750.000000   -26.381   -82.135    14.991     6.987   -19.574  -126.421   -18.662   -41.479 
 1770.000000   -26.417   -83.447    14.976     5.081   -19.565  -127.877   -18.592   -42.615 
 1790.000000   -26.338   -83.293    14.967     3.172   -19.564  -129.350   -18.536   -43.722 
 1810.000000   -26.161   -84.627    14.941     1.276   -19.580  -130.756   -18.531   -45.275 
 1830.000000   -26.110   -87.127    14.922    -0.601   -19.573  -132.269   -18.571   -46.814 
 1850.000000   -26.003   -88.524    14.908    -2.514   -19.572  -133.685   -18.623   -48.232 
 1870.000000   -25.730   -89.007    14.890    -4.428   -19.579  -135.147   -18.645   -49.797 
 1890.000000   -25.624   -90.697    14.875    -6.334   -19.575  -136.676   -18.639   -51.408 
 1910.000000   -25.501   -93.203    14.857    -8.228   -19.566  -138.091   -18.727   -53.828 
 1930.000000   -25.447   -94.999    14.843   -10.165   -19.583  -139.587   -18.765   -56.096 
 1950.000000   -25.343   -96.666    14.820   -12.061   -19.586  -141.034   -18.724   -58.237 
 1970.000000   -25.281   -98.429    14.806   -13.972   -19.581  -142.557   -18.702   -60.341 
 1990.000000   -25.231  -100.854    14.793   -15.911   -19.584  -144.076   -18.629   -62.762 
 2010.000000   -25.314  -102.663    14.766   -17.815   -19.591  -145.517   -18.504   -64.895 
 2030.000000   -25.322  -104.476    14.743   -19.733   -19.600  -146.946   -18.343   -66.840 
 2050.000000   -25.565  -105.714    14.736   -21.631   -19.599  -148.391   -18.246   -68.828 
 2070.000000   -25.592  -106.760    14.709   -23.543   -19.601  -149.854   -18.120   -70.645 
 2090.000000   -25.766  -109.597    14.689   -25.410   -19.608  -151.250   -18.044   -72.567 
 2110.000000   -25.884  -111.080    14.668   -27.297   -19.611  -152.798   -17.952   -74.072 
 2130.000000   -25.950  -112.343    14.656   -29.213   -19.621  -154.299   -17.854   -75.520 
 2150.000000   -25.973  -113.169    14.632   -31.118   -19.633  -155.738   -17.767   -76.956 
 2170.000000   -25.983  -115.720    14.609   -32.986   -19.633  -157.228   -17.695   -78.777 
 2190.000000   -26.022  -117.099    14.586   -34.891   -19.647  -158.631   -17.634   -80.525 
 2210.000000   -26.180  -119.819    14.568   -36.752   -19.644  -160.023   -17.634   -82.015 
 2230.000000   -26.160  -121.699    14.558   -38.623   -19.621  -161.513   -17.597   -83.631 
 2250.000000   -26.128  -122.300    14.545   -40.566   -19.638  -163.118   -17.606   -85.282 
 2270.000000   -25.982  -123.379    14.510   -42.491   -19.665  -164.519   -17.554   -86.541 
 2290.000000   -25.759  -127.935    14.481   -44.311   -19.668  -165.831   -17.483   -88.950 
 2310.000000   -25.926  -129.687    14.474   -46.170   -19.652  -167.329   -17.559   -90.832 
 2330.000000   -25.773  -131.946    14.454   -48.033   -19.660  -168.843   -17.548   -92.814 
 2350.000000   -25.773  -134.472    14.432   -49.917   -19.665  -170.245   -17.552   -94.718 
 2370.000000   -25.892  -136.503    14.417   -51.798   -19.671  -171.791   -17.564   -96.379 
 2390.000000   -25.926  -137.176    14.403   -53.723   -19.666  -173.195   -17.554   -97.781 
 2410.000000   -25.832  -139.223    14.375   -55.616   -19.670  -174.770   -17.494   -99.525 
 2430.000000   -25.826  -142.708    14.361   -57.485   -19.670  -176.229   -17.513  -101.641 
 2450.000000   -25.843  -143.879    14.338   -59.392   -19.696  -177.655   -17.495  -103.595 
 2470.000000   -25.604  -146.122    14.311   -61.222   -19.699  -179.020   -17.524  -105.508 
 2490.000000   -25.497  -148.257    14.300   -63.079   -19.679   179.463   -17.548  -107.300 
 2510.000000   -25.546  -150.261    14.282   -64.931   -19.690   178.002   -17.600  -109.438 
 2530.000000   -25.596  -153.185    14.264   -66.835   -19.679   176.479   -17.627  -111.183 
 2550.000000   -25.607  -155.602    14.240   -68.715   -19.693   175.059   -17.587  -113.143 
 2570.000000   -25.502  -158.051    14.229   -70.540   -19.695   173.609   -17.579  -115.361 
 2590.000000   -25.555  -160.390    14.213   -72.429   -19.710   172.143   -17.613  -117.373 
 2610.000000   -25.351  -162.814    14.186   -74.330   -19.718   170.641   -17.551  -119.149 
 2630.000000   -25.426  -165.076    14.166   -76.228   -19.716   169.180   -17.525  -120.993 
 2650.000000   -25.339  -167.082    14.142   -78.079   -19.728   167.769   -17.453  -122.983 
 2670.000000   -25.471  -170.975    14.135   -79.902   -19.723   166.316   -17.450  -125.153 
 2690.000000   -25.539  -173.035    14.113   -81.777   -19.716   164.759   -17.463  -126.853 
 2710.000000   -25.472  -175.329    14.087   -83.663   -19.727   163.281   -17.417  -128.578 
 2730.000000   -25.531  -176.150    14.075   -85.529   -19.731   161.841   -17.438  -130.032 
 2750.000000   -25.623  -177.540    14.062   -87.446   -19.735   160.295   -17.404  -131.211 
 2770.000000   -25.564  -178.113    14.039   -89.312   -19.752   158.681   -17.394  -132.706 
 2790.000000   -25.302  -178.804    13.991   -91.224   -19.793   157.313   -17.258  -134.317 
 2810.000000   -25.276   177.757    13.982   -92.973   -19.769   156.047   -17.310  -136.280 
 2830.000000   -25.349   176.834    13.977   -94.882   -19.752   154.506   -17.374  -137.381 
 2850.000000   -25.287   175.997    13.961   -96.743   -19.772   152.921   -17.434  -139.000 
 2870.000000   -25.087   174.176    13.920   -98.571   -19.798   151.598   -17.436  -140.811 
 2890.000000   -25.166   172.752    13.898  -100.448   -19.807   150.068   -17.461  -142.641 
 2910.000000   -25.149   170.262    13.884  -102.236   -19.808   148.687   -17.500  -144.871 
 2930.000000   -25.127   167.179    13.882  -104.072   -19.789   147.291   -17.605  -147.098 
 2950.000000   -25.219   164.631    13.856  -105.954   -19.816   145.711   -17.661  -148.938 
 2970.000000   -25.134   163.893    13.829  -107.874   -19.826   144.176   -17.603  -150.942 
 2990.000000   -25.005   160.714    13.814  -109.678   -19.821   142.851   -17.593  -153.520 
 3010.000000   -25.129   158.200    13.797  -111.550   -19.817   141.350   -17.549  -155.595 
 3030.000000   -25.245   154.746    13.777  -113.429   -19.828   139.810   -17.497  -157.370 
 3050.000000   -25.318   153.062    13.751  -115.313   -19.853   138.263   -17.361  -159.101 
 3070.000000   -25.247   149.633    13.732  -117.119   -19.855   136.922   -17.317  -161.333 
 3090.000000   -25.209   146.496    13.713  -118.910   -19.858   135.445   -17.329  -163.369 
 3110.000000   -25.273   143.931    13.698  -120.740   -19.864   133.991   -17.315  -165.256 
 3130.000000   -25.238   141.553    13.683  -122.548   -19.868   132.696   -17.319  -166.969 
 3150.000000   -25.580   139.190    13.670  -124.460   -19.854   131.030   -17.298  -167.789 
 3170.000000   -25.592   138.840    13.655  -126.315   -19.865   129.511   -17.340  -169.298 
 3190.000000   -25.479   137.677    13.626  -128.193   -19.877   128.058   -17.355  -170.386 
 3210.000000   -25.415   136.637    13.614  -130.025   -19.884   126.644   -17.436  -171.696 
 3230.000000   -25.330   135.743    13.591  -131.885   -19.887   125.067   -17.498  -173.040 
 3250.000000   -25.190   134.192    13.574  -133.718   -19.897   123.617   -17.593  -174.681 
 3270.000000   -25.327   133.147    13.553  -135.630   -19.897   122.113   -17.625  -175.952 
 3290.000000   -24.819   131.941    13.517  -137.412   -19.948   120.623   -17.596  -178.142 
 3310.000000   -24.749   129.080    13.516  -139.185   -19.922   119.346   -17.751   179.516 
 3330.000000   -24.710   127.801    13.497  -141.069   -19.920   117.830   -17.860   177.408 
 3350.000000   -24.765   124.955    13.484  -142.900   -19.930   116.373   -17.873   174.949 
 3370.000000   -24.870   122.723    13.466  -144.749   -19.938   114.845   -17.854   172.876 
 3390.000000   -25.014   120.296    13.449  -146.610   -19.934   113.387   -17.820   171.031 
 3410.000000   -25.010   120.146    13.415  -148.493   -19.972   111.708   -17.640   169.742 
 3430.000000   -25.200   116.009    13.412  -150.348   -19.940   110.357   -17.716   167.538 
 3450.000000   -25.185   114.242    13.384  -152.176   -19.979   108.902   -17.629   165.617 
 3470.000000   -25.446   111.858    13.365  -154.064   -19.963   107.394   -17.576   164.010 
 3490.000000   -25.429   111.638    13.337  -155.958   -20.004   105.712   -17.424   162.857 
 3510.000000   -25.419   108.776    13.316  -157.726   -20.010   104.387   -17.343   160.723 
 3530.000000   -25.565   105.176    13.298  -159.612   -20.018   102.933   -17.395   159.584 
 3550.000000   -25.605   104.917    13.262  -161.514   -20.040   101.257   -17.267   158.718 
 3570.000000   -24.994   106.955    13.203  -163.267   -20.115    99.687   -17.066   156.457 
 3590.000000   -24.523   101.470    13.206  -164.834   -20.112    98.624   -17.211   153.394 
 3610.000000   -24.517    96.875    13.204  -166.584   -20.094    97.415   -17.328   151.599 
 3630.000000   -24.501    94.631    13.198  -168.412   -20.085    96.008   -17.439   149.882 
 3650.000000   -24.564    93.180    13.188  -170.312   -20.079    94.452   -17.580   148.665 
 3670.000000   -24.524    91.682    13.175  -172.160   -20.075    92.963   -17.676   147.220 
 3690.000000   -24.303    90.042    13.163  -173.937   -20.096    91.519   -17.733   144.722 
 3710.000000   -24.409    88.201    13.146  -175.795   -20.093    90.169   -17.842   142.872 
 3730.000000   -24.527    87.787    13.113  -177.784   -20.101    88.510   -17.829   142.098 
 3750.000000   -24.451    86.858    13.105  -179.519   -20.107    87.018   -17.820   140.213 
 3770.000000   -24.252    87.870    13.068   178.637   -20.140    85.423   -17.753   138.805 
 3790.000000   -24.099    83.182    13.062   176.979   -20.140    84.361   -17.857   136.042 
 3810.000000   -24.239    81.756    13.057   175.085   -20.150    82.813   -17.929   134.633 
 3830.000000   -24.251    79.831    13.039   173.276   -20.142    81.254   -17.923   132.934 
 3850.000000   -24.447    77.020    13.028   171.480   -20.151    79.935   -17.961   130.882 
 3870.000000   -24.710    74.603    13.024   169.576   -20.127    78.495   -18.057   129.582 
 3890.000000   -25.012    75.618    12.992   167.595   -20.135    76.705   -18.018   128.955 
 3910.000000   -24.778    75.073    12.959   165.859   -20.171    75.278   -17.946   127.138 
 3930.000000   -24.863    71.840    12.958   164.056   -20.174    73.752   -18.018   125.099 
 3950.000000   -25.022    72.273    12.924   162.076   -20.177    72.156   -17.919   124.335 
 3970.000000   -24.749    70.229    12.897   160.303   -20.193    70.719   -17.947   122.718 
 3990.000000   -23.999    68.811    12.860   158.771   -20.279    69.401   -17.714   119.844 
 4020.000000   -24.134    63.293    12.873   156.102   -20.245    67.488   -18.054   116.154 
 4060.000000   -24.602    59.103    12.848   152.288   -20.220    64.450   -18.215   112.937 
 4100.000000   -24.728    56.198    12.815   148.559   -20.245    61.329   -18.221   109.999 
 4140.000000   -24.611    53.538    12.786   145.055   -20.262    58.692   -18.235   106.314 
 4180.000000   -24.885    51.894    12.756   141.335   -20.254    55.609   -18.279   103.729 
 4220.000000   -25.059    50.572    12.706   137.719   -20.291    52.604   -18.162   101.140 
 4260.000000   -25.098    52.223    12.624   134.148   -20.365    49.327   -17.966    98.602 
 4300.000000   -25.110    43.673    12.645   130.698   -20.374    46.973   -18.228    93.868 
