! Mini-Circuits  
! S2P DATA File Format
! Type: MMIC Amplifier
! Model: ERA-2SM     Reference Data:RDF-874AA
! Note: All S Parameters are in dB deg format
! TEST CONDITIONS: INPUT POWER = -20dBm, Icc = 40mA, Vd = 3.27V @Temperature = +85degC
! 401 Frequency points
!
# MHz S DB R 50
!    FREQ       dB(S11)   PHS(S11)  dB(S21)   PHS(S21)  dB(S12)   PHS(S12)  dB(S22)   PHS(S22) 
   50.000000   -33.274     2.236    16.292   174.514   -19.683    -3.600   -31.786   168.493 
   70.000000   -33.405    -1.191    16.293   172.618   -19.761    -5.259   -31.025   163.657 
   90.000000   -33.369     9.462    16.286   170.513   -19.683    -6.499   -30.016   160.600 
  110.000000   -34.646    11.547    16.261   168.515   -19.668    -7.754   -29.827   154.592 
  130.000000   -34.642    19.081    16.253   166.623   -19.722    -8.946   -29.434   152.485 
  150.000000   -35.284    15.139    16.251   164.538   -19.712   -10.521   -29.198   149.131 
  170.000000   -35.699    15.444    16.245   162.505   -19.701   -11.920   -29.257   147.940 
  190.000000   -34.599    17.277    16.235   160.539   -19.694   -13.250   -29.129   144.720 
  210.000000   -34.007    13.897    16.228   158.516   -19.683   -14.465   -29.145   143.112 
  230.000000   -34.538    14.800    16.207   156.506   -19.709   -15.818   -28.952   140.259 
  250.000000   -33.958    12.799    16.207   154.481   -19.704   -17.169   -28.836   138.027 
  270.000000   -33.484    12.604    16.201   152.500   -19.694   -18.552   -28.734   133.736 
  290.000000   -33.351     8.078    16.184   150.464   -19.704   -20.004   -28.906   129.894 
  310.000000   -33.558     6.640    16.169   148.458   -19.709   -21.291   -28.575   125.317 
  330.000000   -33.699     8.427    16.162   146.479   -19.696   -22.718   -28.291   122.100 
  350.000000   -33.348     8.001    16.149   144.485   -19.709   -24.004   -28.133   119.290 
  370.000000   -32.949     6.368    16.130   142.510   -19.699   -25.507   -28.186   115.798 
  390.000000   -33.117     3.263    16.119   140.491   -19.691   -26.805   -27.910   111.307 
  410.000000   -33.027     3.935    16.108   138.526   -19.681   -28.196   -27.444   109.128 
  430.000000   -32.823     5.448    16.095   136.555   -19.683   -29.534   -27.173   106.509 
  450.000000   -32.705     4.815    16.085   134.577   -19.698   -30.888   -26.851   104.351 
  470.000000   -32.609     5.795    16.067   132.535   -19.699   -32.283   -26.724   101.479 
  490.000000   -32.823     6.202    16.044   130.604   -19.682   -33.706   -26.692    98.849 
  510.000000   -32.625     4.022    16.042   128.589   -19.674   -35.081   -26.439    96.402 
  530.000000   -32.260     2.909    16.027   126.607   -19.690   -36.439   -26.106    93.596 
  550.000000   -32.132     3.935    16.010   124.640   -19.683   -37.821   -25.896    90.974 
  570.000000   -31.889     6.293    15.989   122.690   -19.693   -39.244   -25.689    89.510 
  590.000000   -31.535     7.118    15.981   120.732   -19.691   -40.664   -25.515    87.575 
  610.000000   -31.316     4.539    15.970   118.737   -19.684   -42.055   -25.364    84.649 
  630.000000   -31.245     1.470    15.945   116.773   -19.670   -43.410   -25.389    82.041 
  650.000000   -31.216     1.504    15.934   114.800   -19.683   -44.826   -25.175    79.635 
  670.000000   -30.970     0.864    15.920   112.851   -19.681   -46.122   -24.981    77.476 
  690.000000   -30.871     0.047    15.903   110.911   -19.672   -47.585   -24.842    75.217 
  710.000000   -30.471    -0.601    15.883   108.961   -19.666   -48.921   -24.743    72.516 
  730.000000   -30.222    -1.955    15.874   107.003   -19.666   -50.332   -24.638    69.540 
  750.000000   -30.117    -3.487    15.860   105.048   -19.677   -51.718   -24.342    67.146 
  770.000000   -29.955    -3.483    15.842   103.108   -19.671   -53.173   -24.141    64.224 
  790.000000   -29.883    -3.674    15.823   101.154   -19.672   -54.574   -23.907    62.223 
  810.000000   -29.757    -5.022    15.813    99.196   -19.676   -55.922   -23.713    60.907 
  830.000000   -29.704    -6.946    15.803    97.235   -19.672   -57.390   -23.581    58.511 
  850.000000   -29.425    -8.344    15.776    95.310   -19.669   -58.735   -23.519    55.817 
  870.000000   -29.330    -8.110    15.761    93.352   -19.688   -60.163   -23.227    53.756 
  890.000000   -29.044    -9.725    15.742    91.405   -19.680   -61.415   -22.984    51.155 
  910.000000   -28.956   -10.340    15.725    89.491   -19.673   -62.854   -22.836    49.279 
  930.000000   -28.709   -10.617    15.704    87.585   -19.670   -64.233   -22.728    47.752 
  950.000000   -28.533   -11.938    15.691    85.645   -19.672   -65.689   -22.652    45.564 
  970.000000   -28.560   -14.248    15.674    83.705   -19.663   -67.020   -22.505    43.316 
  990.000000   -28.484   -14.988    15.660    81.764   -19.677   -68.479   -22.397    41.236 
 1010.000000   -28.288   -16.826    15.641    79.833   -19.667   -69.860   -22.246    38.694 
 1030.000000   -28.157   -18.811    15.624    77.920   -19.662   -71.279   -22.133    36.805 
 1050.000000   -28.020   -19.316    15.608    75.959   -19.658   -72.663   -21.986    35.186 
 1070.000000   -27.792   -19.170    15.594    74.023   -19.684   -74.004   -21.774    33.239 
 1090.000000   -27.654   -21.728    15.573    72.125   -19.674   -75.367   -21.719    30.500 
 1110.000000   -27.614   -23.687    15.552    70.178   -19.665   -76.863   -21.633    28.101 
 1130.000000   -27.661   -25.058    15.538    68.295   -19.657   -78.282   -21.524    25.775 
 1150.000000   -27.608   -25.827    15.523    66.386   -19.665   -79.634   -21.400    24.094 
 1170.000000   -27.560   -27.624    15.505    64.454   -19.673   -80.975   -21.232    22.411 
 1190.000000   -27.293   -29.456    15.479    62.530   -19.663   -82.412   -21.168    20.033 
 1210.000000   -27.107   -31.113    15.460    60.631   -19.661   -83.794   -21.050    17.620 
 1230.000000   -27.141   -32.419    15.449    58.706   -19.670   -85.201   -20.916    16.039 
 1250.000000   -26.997   -34.663    15.434    56.790   -19.663   -86.597   -20.774    14.169 
 1270.000000   -26.935   -36.150    15.407    54.898   -19.663   -87.976   -20.704    11.969 
 1290.000000   -26.945   -37.515    15.395    52.992   -19.665   -89.478   -20.622     9.944 
 1310.000000   -26.803   -38.262    15.379    51.071   -19.679   -90.845   -20.489     8.011 
 1330.000000   -26.768   -40.410    15.361    49.192   -19.668   -92.198   -20.452     5.942 
 1350.000000   -26.796   -41.890    15.339    47.271   -19.672   -93.670   -20.339     3.708 
 1370.000000   -26.523   -43.547    15.318    45.333   -19.681   -94.927   -20.163     1.752 
 1390.000000   -26.618   -46.281    15.302    43.460   -19.675   -96.354   -20.073    -0.279 
 1410.000000   -26.575   -46.808    15.289    41.549   -19.685   -97.871   -20.010    -1.858 
 1430.000000   -26.597   -48.561    15.267    39.662   -19.675   -99.311   -19.941    -3.640 
 1450.000000   -26.463   -50.067    15.248    37.720   -19.683  -100.682   -19.804    -5.066 
 1470.000000   -26.303   -52.382    15.222    35.841   -19.687  -101.956   -19.694    -7.449 
 1490.000000   -26.272   -53.741    15.205    33.968   -19.676  -103.334   -19.643    -9.337 
 1510.000000   -26.259   -55.675    15.184    32.075   -19.690  -104.854   -19.605   -11.278 
 1530.000000   -26.180   -56.807    15.173    30.161   -19.692  -106.214   -19.474   -12.966 
 1550.000000   -26.207   -59.332    15.157    28.290   -19.689  -107.587   -19.395   -14.899 
 1570.000000   -26.176   -59.023    15.135    26.388   -19.698  -109.046   -19.352   -16.651 
 1590.000000   -26.010   -61.235    15.103    24.480   -19.698  -110.369   -19.238   -18.938 
 1610.000000   -26.062   -63.604    15.094    22.618   -19.692  -111.824   -19.199   -20.488 
 1630.000000   -26.015   -65.273    15.076    20.697   -19.714  -113.217   -19.114   -22.182 
 1650.000000   -25.915   -68.451    15.047    18.848   -19.694  -114.538   -19.110   -24.566 
 1670.000000   -25.834   -70.925    15.034    16.987   -19.693  -115.972   -19.073   -26.263 
 1690.000000   -25.826   -71.131    15.014    15.101   -19.693  -117.380   -18.991   -27.912 
 1710.000000   -25.733   -72.448    14.996    13.222   -19.695  -118.824   -18.900   -29.840 
 1730.000000   -25.775   -74.626    14.977    11.356   -19.700  -120.185   -18.854   -31.982 
 1750.000000   -25.861   -76.555    14.952     9.461   -19.707  -121.550   -18.810   -34.044 
 1770.000000   -25.879   -78.060    14.935     7.561   -19.704  -123.010   -18.784   -35.930 
 1790.000000   -25.806   -79.543    14.918     5.698   -19.703  -124.413   -18.680   -37.592 
 1810.000000   -25.792   -82.342    14.896     3.833   -19.722  -125.777   -18.610   -39.366 
 1830.000000   -25.852   -84.432    14.875     1.990   -19.708  -127.283   -18.592   -41.337 
 1850.000000   -25.866   -85.875    14.856     0.088   -19.717  -128.566   -18.530   -43.054 
 1870.000000   -25.761   -87.116    14.837    -1.784   -19.728  -129.998   -18.447   -44.546 
 1890.000000   -25.828   -88.954    14.817    -3.650   -19.720  -131.437   -18.361   -46.299 
 1910.000000   -25.831   -91.220    14.793    -5.493   -19.723  -132.837   -18.347   -48.265 
 1930.000000   -25.901   -93.395    14.779    -7.374   -19.724  -134.271   -18.312   -49.992 
 1950.000000   -25.895   -94.441    14.758    -9.255   -19.719  -135.712   -18.247   -51.627 
 1970.000000   -25.797   -95.616    14.740   -11.123   -19.731  -137.037   -18.195   -53.271 
 1990.000000   -25.807   -98.816    14.724   -13.013   -19.750  -138.451   -18.141   -55.083 
 2010.000000   -25.775  -100.216    14.699   -14.878   -19.737  -139.888   -18.076   -56.959 
 2030.000000   -25.767  -101.232    14.677   -16.740   -19.739  -141.337   -18.032   -58.812 
 2050.000000   -25.846  -102.712    14.661   -18.616   -19.745  -142.705   -17.961   -60.411 
 2070.000000   -25.814  -105.596    14.643   -20.453   -19.759  -144.055   -17.940   -62.146 
 2090.000000   -25.839  -107.865    14.620   -22.335   -19.751  -145.534   -17.948   -64.141 
 2110.000000   -25.825  -109.431    14.598   -24.183   -19.755  -146.972   -17.940   -65.805 
 2130.000000   -25.760  -111.319    14.586   -26.044   -19.763  -148.343   -17.868   -67.577 
 2150.000000   -25.645  -113.325    14.561   -27.904   -19.782  -149.688   -17.838   -69.462 
 2170.000000   -25.618  -116.163    14.534   -29.763   -19.765  -151.143   -17.812   -71.469 
 2190.000000   -25.665  -118.149    14.511   -31.599   -19.772  -152.502   -17.777   -73.391 
 2210.000000   -25.834  -120.220    14.498   -33.466   -19.782  -153.937   -17.774   -75.007 
 2230.000000   -25.681  -122.070    14.481   -35.317   -19.785  -155.413   -17.712   -76.727 
 2250.000000   -25.658  -123.767    14.453   -37.200   -19.794  -156.796   -17.672   -78.523 
 2270.000000   -25.590  -126.058    14.427   -39.041   -19.805  -158.154   -17.643   -80.179 
 2290.000000   -25.608  -128.132    14.408   -40.867   -19.789  -159.548   -17.635   -82.188 
 2310.000000   -25.633  -129.853    14.392   -42.691   -19.804  -160.922   -17.610   -83.953 
 2330.000000   -25.600  -133.114    14.375   -44.525   -19.801  -162.410   -17.592   -85.628 
 2350.000000   -25.666  -134.625    14.353   -46.392   -19.794  -163.806   -17.595   -87.372 
 2370.000000   -25.719  -136.214    14.329   -48.245   -19.808  -165.252   -17.585   -89.277 
 2390.000000   -25.772  -138.003    14.313   -50.104   -19.817  -166.647   -17.536   -90.769 
 2410.000000   -25.857  -140.371    14.290   -51.959   -19.827  -168.012   -17.496   -92.355 
 2430.000000   -25.734  -142.935    14.263   -53.816   -19.823  -169.461   -17.476   -94.426 
 2450.000000   -25.753  -145.421    14.241   -55.619   -19.838  -170.854   -17.469   -96.489 
 2470.000000   -25.662  -147.277    14.224   -57.458   -19.843  -172.201   -17.459   -98.063 
 2490.000000   -25.558  -149.202    14.202   -59.289   -19.831  -173.584   -17.450   -99.867 
 2510.000000   -25.651  -151.678    14.181   -61.085   -19.849  -174.992   -17.469  -101.723 
 2530.000000   -25.714  -154.472    14.162   -62.935   -19.853  -176.498   -17.482  -103.382 
 2550.000000   -25.746  -156.416    14.145   -64.752   -19.843  -177.914   -17.493  -105.123 
 2570.000000   -25.769  -158.751    14.131   -66.591   -19.851  -179.327   -17.466  -106.734 
 2590.000000   -25.720  -160.956    14.109   -68.442   -19.871   179.255   -17.446  -108.290 
 2610.000000   -25.493  -162.330    14.081   -70.299   -19.870   177.807   -17.429  -109.970 
 2630.000000   -25.477  -164.552    14.056   -72.122   -19.875   176.495   -17.418  -111.979 
 2650.000000   -25.570  -166.936    14.043   -73.903   -19.876   175.111   -17.453  -113.719 
 2670.000000   -25.664  -169.816    14.035   -75.743   -19.876   173.640   -17.443  -115.201 
 2690.000000   -25.664  -171.319    14.003   -77.604   -19.876   172.217   -17.459  -117.024 
 2710.000000   -25.666  -174.081    13.984   -79.414   -19.883   170.854   -17.484  -118.801 
 2730.000000   -25.778  -174.817    13.976   -81.261   -19.898   169.352   -17.504  -120.132 
 2750.000000   -25.782  -175.676    13.948   -83.163   -19.909   167.851   -17.463  -121.653 
 2770.000000   -25.650  -177.782    13.921   -84.959   -19.917   166.484   -17.454  -123.603 
 2790.000000   -25.632   178.489    13.894   -86.767   -19.915   165.158   -17.446  -125.742 
 2810.000000   -25.683   176.996    13.882   -88.593   -19.918   163.702   -17.421  -127.319 
 2830.000000   -25.635   175.183    13.862   -90.445   -19.921   162.292   -17.392  -128.915 
 2850.000000   -25.488   172.847    13.838   -92.245   -19.944   160.914   -17.364  -130.694 
 2870.000000   -25.502   170.710    13.811   -94.058   -19.934   159.536   -17.381  -132.564 
 2890.000000   -25.644   168.766    13.783   -95.866   -19.956   158.095   -17.394  -134.618 
 2910.000000   -25.658   165.566    13.773   -97.643   -19.959   156.743   -17.400  -136.449 
 2930.000000   -25.661   162.580    13.763   -99.471   -19.964   155.329   -17.409  -138.123 
 2950.000000   -25.601   160.552    13.727  -101.284   -19.974   153.837   -17.443  -139.938 
 2970.000000   -25.520   158.367    13.712  -103.092   -19.975   152.471   -17.448  -141.774 
 2990.000000   -25.483   156.525    13.695  -104.916   -19.986   151.141   -17.446  -143.437 
 3010.000000   -25.486   154.073    13.677  -106.733   -19.982   149.676   -17.447  -145.309 
 3030.000000   -25.523   152.276    13.652  -108.573   -19.998   148.213   -17.427  -147.080 
 3050.000000   -25.512   149.752    13.629  -110.368   -20.006   146.823   -17.412  -148.750 
 3070.000000   -25.380   146.350    13.616  -112.146   -20.011   145.590   -17.459  -150.511 
 3090.000000   -25.378   144.269    13.595  -113.940   -20.006   144.122   -17.552  -152.545 
 3110.000000   -25.343   141.744    13.580  -115.732   -20.004   142.724   -17.607  -154.433 
 3130.000000   -25.427   139.819    13.572  -117.593   -20.007   141.281   -17.634  -156.160 
 3150.000000   -25.562   137.658    13.548  -119.435   -20.011   139.714   -17.614  -157.666 
 3170.000000   -25.548   135.856    13.523  -121.276   -20.024   138.344   -17.616  -159.391 
 3190.000000   -25.502   133.830    13.502  -123.093   -20.032   136.854   -17.613  -161.189 
 3210.000000   -25.446   132.167    13.486  -124.901   -20.048   135.497   -17.628  -162.863 
 3230.000000   -25.455   130.205    13.459  -126.704   -20.062   134.073   -17.640  -164.552 
 3250.000000   -25.292   127.280    13.442  -128.485   -20.067   132.752   -17.639  -166.498 
 3270.000000   -25.307   125.047    13.422  -130.299   -20.080   131.233   -17.610  -168.284 
 3290.000000   -25.225   122.851    13.396  -132.115   -20.082   129.808   -17.633  -170.223 
 3310.000000   -25.078   120.858    13.381  -133.885   -20.091   128.419   -17.656  -171.932 
 3330.000000   -24.978   118.484    13.363  -135.683   -20.097   127.021   -17.715  -173.733 
 3350.000000   -25.060   116.158    13.346  -137.510   -20.087   125.604   -17.753  -175.845 
 3370.000000   -25.047   114.715    13.321  -139.314   -20.096   124.118   -17.715  -177.629 
 3390.000000   -25.067   112.455    13.305  -141.125   -20.121   122.764   -17.683  -179.057 
 3410.000000   -25.044   111.168    13.285  -142.915   -20.130   121.285   -17.681   179.514 
 3430.000000   -25.057   109.202    13.261  -144.759   -20.130   119.854   -17.720   177.982 
 3450.000000   -25.103   107.596    13.240  -146.592   -20.138   118.459   -17.764   176.368 
 3470.000000   -25.081   107.096    13.215  -148.402   -20.154   116.976   -17.724   174.376 
 3490.000000   -24.986   105.639    13.200  -150.196   -20.169   115.590   -17.721   172.645 
 3510.000000   -25.017   103.110    13.182  -151.987   -20.181   114.176   -17.717   171.042 
 3530.000000   -24.983   102.260    13.140  -153.837   -20.207   112.576   -17.650   169.594 
 3550.000000   -24.673   100.500    13.114  -155.501   -20.234   111.336   -17.631   167.014 
 3570.000000   -24.500    97.454    13.104  -157.212   -20.233   110.015   -17.703   164.645 
 3590.000000   -24.480    94.940    13.091  -158.996   -20.231   108.632   -17.740   162.815 
 3610.000000   -24.441    92.537    13.068  -160.758   -20.248   107.303   -17.746   160.827 
 3630.000000   -24.477    90.214    13.058  -162.574   -20.240   105.932   -17.777   159.011 
 3650.000000   -24.478    87.677    13.048  -164.358   -20.242   104.579   -17.831   157.382 
 3670.000000   -24.464    85.863    13.028  -166.178   -20.252   103.102   -17.875   155.728 
 3690.000000   -24.452    83.659    13.011  -167.986   -20.256   101.642   -17.898   153.608 
 3710.000000   -24.457    81.671    12.986  -169.779   -20.269   100.248   -17.884   151.863 
 3730.000000   -24.499    80.091    12.964  -171.617   -20.279    98.733   -17.861   150.118 
 3750.000000   -24.432    78.005    12.952  -173.324   -20.300    97.426   -17.830   148.290 
 3770.000000   -24.383    76.209    12.928  -175.113   -20.304    96.068   -17.822   146.948 
 3790.000000   -24.294    73.329    12.914  -176.891   -20.309    94.699   -17.860   144.992 
 3810.000000   -24.261    71.316    12.902  -178.655   -20.313    93.330   -17.895   143.175 
 3830.000000   -24.319    68.215    12.897   179.548   -20.312    91.966   -17.933   141.360 
 3850.000000   -24.539    65.797    12.875   177.681   -20.311    90.483   -17.974   139.844 
 3870.000000   -24.786    63.964    12.860   175.797   -20.291    88.978   -18.023   138.714 
 3890.000000   -24.965    65.321    12.824   173.955   -20.327    87.426   -17.943   137.831 
 3910.000000   -24.661    64.313    12.794   172.318   -20.362    86.010   -17.882   135.534 
 3930.000000   -24.620    61.529    12.777   170.561   -20.379    84.693   -17.903   133.517 
 3950.000000   -24.542    59.678    12.761   168.777   -20.388    83.234   -17.873   131.915 
 3970.000000   -24.402    58.501    12.732   167.029   -20.394    81.861   -17.818   130.139 
 3990.000000   -24.289    55.973    12.731   165.292   -20.414    80.608   -17.878   128.110 
 4020.000000   -24.375    52.042    12.710   162.614   -20.413    78.540   -18.037   125.780 
 4060.000000   -24.746    47.555    12.680   158.981   -20.407    75.686   -18.123   122.238 
 4100.000000   -24.850    43.944    12.642   155.380   -20.428    72.819   -18.073   118.844 
 4140.000000   -24.967    40.533    12.611   151.823   -20.442    70.141   -18.137   115.855 
 4180.000000   -25.167    36.391    12.580   148.234   -20.441    67.134   -18.152   113.375 
 4220.000000   -25.326    35.573    12.512   144.673   -20.502    64.070   -17.939   110.355 
 4260.000000   -25.333    32.468    12.473   141.219   -20.539    61.382   -18.051   106.213 
 4300.000000   -25.325    26.305    12.461   137.671   -20.546    58.847   -18.197   102.275 
