! Mini-Circuits  
! S2P DATA File Format
! Type: MMIC Amplifier
! Model: ERA-2SM     Reference Data:RDF-874AA
! Note: All S Parameters are in dB deg format
! TEST CONDITIONS: INPUT POWER = -20dBm, Icc = 48mA, Vd = 3.63V @Temperature = -45degC
! 401 Frequency points
!
# MHz S DB R 50
!    FREQ       dB(S11)   PHS(S11)  dB(S21)   PHS(S21)  dB(S12)   PHS(S12)  dB(S22)   PHS(S22) 
   50.000000   -35.322     2.300    16.532   174.525   -19.850    -4.209   -29.481   174.339 
   70.000000   -36.141     0.207    16.534   172.622   -19.868    -5.437   -29.245   168.607 
   90.000000   -35.095    10.080    16.528   170.512   -19.804    -6.367   -28.926   162.066 
  110.000000   -35.798     9.365    16.510   168.491   -19.865    -7.841   -29.098   156.709 
  130.000000   -36.142    15.484    16.500   166.597   -19.859    -9.167   -28.742   152.646 
  150.000000   -36.312     9.747    16.504   164.477   -19.829   -10.691   -28.622   147.645 
  170.000000   -36.523     4.344    16.498   162.420   -19.849   -12.230   -28.698   144.969 
  190.000000   -35.483     7.265    16.486   160.430   -19.841   -13.818   -28.578   140.397 
  210.000000   -35.224     5.770    16.483   158.380   -19.847   -14.896   -28.151   138.990 
  230.000000   -35.612     6.790    16.468   156.349   -19.827   -16.268   -27.787   137.014 
  250.000000   -35.096     7.914    16.464   154.303   -19.825   -17.634   -27.707   134.436 
  270.000000   -34.698    11.940    16.455   152.297   -19.832   -19.161   -27.559   131.592 
  290.000000   -34.724    10.223    16.446   150.236   -19.831   -20.574   -27.493   130.003 
  310.000000   -34.637     9.438    16.436   148.202   -19.832   -21.847   -27.277   126.966 
  330.000000   -34.618    14.106    16.426   146.200   -19.829   -23.339   -27.054   124.773 
  350.000000   -34.147    15.678    16.415   144.168   -19.843   -24.896   -27.015   122.073 
  370.000000   -33.689    14.529    16.400   142.179   -19.831   -26.205   -27.066   119.337 
  390.000000   -34.022    11.822    16.389   140.139   -19.822   -27.653   -26.846   115.198 
  410.000000   -33.756    12.385    16.376   138.143   -19.829   -29.060   -26.443   111.998 
  430.000000   -33.335    12.960    16.367   136.140   -19.823   -30.343   -26.226   109.006 
  450.000000   -33.403    13.349    16.353   134.117   -19.829   -31.843   -25.959   106.434 
  470.000000   -33.579    13.680    16.343   132.094   -19.820   -33.220   -25.787   104.159 
  490.000000   -33.446    15.240    16.324   130.100   -19.825   -34.720   -25.650   100.776 
  510.000000   -33.294    12.199    16.317   128.050   -19.818   -36.117   -25.485    97.847 
  530.000000   -32.997    12.860    16.300   126.056   -19.805   -37.653   -25.175    94.704 
  550.000000   -32.688    14.280    16.287   124.047   -19.827   -39.037   -24.906    92.688 
  570.000000   -32.272    15.457    16.274   122.076   -19.816   -40.400   -24.745    91.195 
  590.000000   -31.736    16.081    16.261   120.085   -19.811   -41.871   -24.622    88.983 
  610.000000   -31.475    13.736    16.245   118.054   -19.813   -43.302   -24.560    85.764 
  630.000000   -31.443    11.804    16.228   116.046   -19.808   -44.797   -24.533    83.223 
  650.000000   -31.279    10.925    16.223   114.048   -19.802   -46.170   -24.305    80.763 
  670.000000   -31.001    10.677    16.201   112.069   -19.799   -47.614   -24.137    78.317 
  690.000000   -30.827    10.028    16.185   110.109   -19.790   -49.105   -24.014    75.589 
  710.000000   -30.443    10.426    16.168   108.126   -19.779   -50.509   -23.857    73.100 
  730.000000   -30.196     8.660    16.158   106.144   -19.795   -51.932   -23.707    70.383 
  750.000000   -30.143     8.428    16.139   104.147   -19.790   -53.384   -23.429    67.473 
  770.000000   -29.919     8.852    16.126   102.173   -19.772   -54.857   -23.153    65.049 
  790.000000   -29.807     8.996    16.113   100.221   -19.772   -56.268   -22.860    63.129 
  810.000000   -29.798     7.855    16.095    98.232   -19.782   -57.667   -22.701    61.567 
  830.000000   -29.741     8.649    16.084    96.212   -19.801   -59.180   -22.484    59.562 
  850.000000   -29.442     7.195    16.065    94.279   -19.783   -60.545   -22.329    56.834 
  870.000000   -29.393     6.606    16.050    92.314   -19.789   -62.050   -22.091    54.825 
  890.000000   -29.061     8.124    16.032    90.288   -19.800   -63.414   -21.671    52.817 
  910.000000   -28.972     6.777    16.015    88.366   -19.793   -64.871   -21.575    50.523 
  930.000000   -28.748     7.515    15.995    86.421   -19.781   -66.330   -21.397    49.318 
  950.000000   -28.584     6.520    15.977    84.465   -19.780   -67.693   -21.247    47.546 
  970.000000   -28.695     5.412    15.962    82.502   -19.787   -69.146   -21.098    45.258 
  990.000000   -28.632     4.785    15.947    80.549   -19.776   -70.667   -20.999    43.410 
 1010.000000   -28.532     4.754    15.934    78.584   -19.787   -72.096   -20.789    41.797 
 1030.000000   -28.218     3.553    15.911    76.631   -19.790   -73.480   -20.607    39.929 
 1050.000000   -28.060     2.716    15.898    74.649   -19.784   -74.912   -20.491    38.394 
 1070.000000   -27.961     2.056    15.889    72.714   -19.784   -76.444   -20.380    37.072 
 1090.000000   -27.559     0.515    15.862    70.759   -19.791   -77.750   -20.277    33.994 
 1110.000000   -27.504    -1.333    15.843    68.784   -19.779   -79.209   -20.218    32.038 
 1130.000000   -27.538    -3.080    15.833    66.878   -19.770   -80.634   -20.143    29.918 
 1150.000000   -27.476    -4.715    15.819    64.935   -19.773   -82.151   -20.121    27.878 
 1170.000000   -27.391    -6.111    15.797    62.986   -19.773   -83.606   -20.012    25.758 
 1190.000000   -27.030    -8.633    15.777    61.005   -19.782   -85.005   -19.924    23.466 
 1210.000000   -26.941   -11.887    15.762    59.084   -19.767   -86.461   -19.860    20.779 
 1230.000000   -26.955   -13.788    15.746    57.145   -19.775   -87.931   -19.787    18.511 
 1250.000000   -26.839   -16.264    15.730    55.192   -19.776   -89.395   -19.672    16.111 
 1270.000000   -26.777   -18.217    15.709    53.258   -19.769   -90.813   -19.586    13.728 
 1290.000000   -26.802   -20.299    15.696    51.337   -19.775   -92.226   -19.481    11.492 
 1310.000000   -26.704   -21.586    15.681    49.387   -19.774   -93.728   -19.368     9.529 
 1330.000000   -26.582   -23.505    15.659    47.455   -19.767   -95.167   -19.276     7.058 
 1350.000000   -26.557   -24.395    15.639    45.526   -19.773   -96.625   -19.146     5.085 
 1370.000000   -26.444   -24.806    15.622    43.568   -19.780   -98.136   -19.004     3.738 
 1390.000000   -26.205   -27.951    15.596    41.626   -19.795   -99.451   -18.823     1.350 
 1410.000000   -26.154   -28.607    15.587    39.733   -19.776  -100.905   -18.804     0.094 
 1430.000000   -26.030   -29.210    15.566    37.819   -19.770  -102.391   -18.743    -1.163 
 1450.000000   -25.844   -30.373    15.546    35.879   -19.767  -103.875   -18.678    -2.450 
 1470.000000   -25.589   -30.633    15.535    33.905   -19.798  -105.373   -18.599    -3.461 
 1490.000000   -25.316   -33.430    15.509    32.016   -19.789  -106.691   -18.567    -5.975 
 1510.000000   -25.228   -35.240    15.488    30.115   -19.787  -108.130   -18.573    -7.639 
 1530.000000   -25.101   -36.396    15.477    28.180   -19.791  -109.615   -18.546    -9.433 
 1550.000000   -25.003   -38.729    15.453    26.257   -19.792  -110.966   -18.510   -11.875 
 1570.000000   -24.946   -39.202    15.441    24.362   -19.776  -112.524   -18.530   -13.910 
 1590.000000   -24.952   -39.904    15.425    22.372   -19.805  -114.050   -18.428   -15.582 
 1610.000000   -24.905   -44.639    15.399    20.498   -19.790  -115.282   -18.357   -18.829 
 1630.000000   -25.071   -45.658    15.388    18.565   -19.786  -116.888   -18.305   -20.685 
 1650.000000   -24.996   -47.566    15.360    16.597   -19.813  -118.332   -18.156   -22.663 
 1670.000000   -24.955   -51.122    15.335    14.745   -19.795  -119.546   -18.021   -25.421 
 1690.000000   -25.061   -51.115    15.321    12.861   -19.797  -121.095   -17.948   -27.012 
 1710.000000   -25.044   -52.474    15.304    10.944   -19.788  -122.549   -17.786   -28.829 
 1730.000000   -25.096   -53.889    15.282     9.032   -19.801  -124.027   -17.702   -30.727 
 1750.000000   -25.169   -54.808    15.259     7.116   -19.799  -125.417   -17.621   -32.294 
 1770.000000   -25.137   -55.807    15.244     5.228   -19.793  -126.902   -17.573   -33.804 
 1790.000000   -25.024   -56.967    15.226     3.329   -19.795  -128.433   -17.505   -35.058 
 1810.000000   -24.861   -59.179    15.198     1.426   -19.800  -129.783   -17.516   -36.596 
 1830.000000   -24.751   -60.870    15.184    -0.436   -19.791  -131.250   -17.533   -38.135 
 1850.000000   -24.682   -62.674    15.172    -2.356   -19.795  -132.700   -17.564   -39.531 
 1870.000000   -24.443   -64.784    15.149    -4.238   -19.799  -134.141   -17.593   -41.108 
 1890.000000   -24.336   -66.683    15.135    -6.147   -19.796  -135.618   -17.622   -42.966 
 1910.000000   -24.233   -69.028    15.114    -8.037   -19.803  -137.028   -17.687   -45.116 
 1930.000000   -24.176   -70.833    15.098    -9.944   -19.801  -138.509   -17.708   -47.215 
 1950.000000   -24.097   -72.811    15.079   -11.855   -19.805  -140.032   -17.706   -49.419 
 1970.000000   -24.041   -75.075    15.061   -13.753   -19.802  -141.469   -17.706   -51.680 
 1990.000000   -24.059   -77.785    15.045   -15.690   -19.806  -142.904   -17.641   -53.895 
 2010.000000   -24.051   -78.874    15.022   -17.592   -19.804  -144.444   -17.535   -56.156 
 2030.000000   -24.057   -80.739    15.001   -19.500   -19.813  -145.842   -17.421   -58.354 
 2050.000000   -24.253   -81.964    14.985   -21.380   -19.812  -147.327   -17.350   -60.411 
 2070.000000   -24.241   -83.036    14.960   -23.307   -19.821  -148.798   -17.221   -62.305 
 2090.000000   -24.386   -84.886    14.941   -25.190   -19.823  -150.161   -17.150   -64.225 
 2110.000000   -24.438   -86.393    14.922   -27.050   -19.828  -151.579   -17.073   -65.824 
 2130.000000   -24.504   -87.888    14.908   -28.936   -19.816  -153.147   -16.987   -67.453 
 2150.000000   -24.458   -89.004    14.881   -30.856   -19.843  -154.617   -16.926   -69.152 
 2170.000000   -24.467   -91.024    14.857   -32.723   -19.840  -155.883   -16.849   -71.008 
 2190.000000   -24.478   -92.388    14.834   -34.608   -19.851  -157.453   -16.775   -72.648 
 2210.000000   -24.655   -94.604    14.815   -36.457   -19.852  -158.855   -16.798   -74.313 
 2230.000000   -24.673   -96.804    14.804   -38.326   -19.823  -160.355   -16.780   -76.088 
 2250.000000   -24.594   -97.935    14.781   -40.262   -19.852  -161.891   -16.768   -77.580 
 2270.000000   -24.378   -99.165    14.756   -42.200   -19.868  -163.339   -16.704   -78.909 
 2290.000000   -24.319  -103.370    14.729   -43.993   -19.867  -164.594   -16.674   -81.522 
 2310.000000   -24.506  -105.301    14.717   -45.825   -19.859  -166.090   -16.746   -83.442 
 2330.000000   -24.441  -107.967    14.692   -47.724   -19.863  -167.631   -16.742   -85.309 
 2350.000000   -24.405  -109.856    14.678   -49.575   -19.861  -169.042   -16.743   -87.063 
 2370.000000   -24.490  -111.583    14.660   -51.435   -19.854  -170.445   -16.762   -88.894 
 2390.000000   -24.526  -112.921    14.645   -53.390   -19.869  -171.993   -16.744   -90.274 
 2410.000000   -24.426  -115.039    14.611   -55.264   -19.878  -173.447   -16.701   -92.204 
 2430.000000   -24.476  -117.935    14.596   -57.120   -19.866  -174.860   -16.731   -94.295 
 2450.000000   -24.443  -119.166    14.574   -59.031   -19.884  -176.397   -16.698   -96.120 
 2470.000000   -24.294  -122.111    14.553   -60.861   -19.880  -177.641   -16.755   -98.092 
 2490.000000   -24.244  -124.464    14.537   -62.680   -19.875  -179.201   -16.788  -100.011 
 2510.000000   -24.266  -126.430    14.514   -64.535   -19.881   179.295   -16.824  -101.894 
 2530.000000   -24.352  -128.569    14.496   -66.431   -19.878   177.920   -16.847  -103.608 
 2550.000000   -24.360  -130.636    14.479   -68.311   -19.883   176.461   -16.832  -105.672 
 2570.000000   -24.366  -133.852    14.459   -70.135   -19.890   174.982   -16.856  -107.932 
 2590.000000   -24.451  -136.305    14.443   -72.013   -19.884   173.433   -16.883  -109.815 
 2610.000000   -24.258  -138.261    14.421   -73.907   -19.890   171.948   -16.816  -111.697 
 2630.000000   -24.313  -140.251    14.398   -75.807   -19.900   170.575   -16.803  -113.610 
 2650.000000   -24.324  -142.940    14.375   -77.648   -19.921   169.141   -16.756  -115.659 
 2670.000000   -24.523  -146.402    14.367   -79.450   -19.901   167.647   -16.768  -117.816 
 2690.000000   -24.566  -147.522    14.343   -81.343   -19.894   166.141   -16.764  -119.467 
 2710.000000   -24.534  -149.848    14.321   -83.203   -19.912   164.685   -16.721  -121.196 
 2730.000000   -24.575  -151.221    14.306   -85.066   -19.908   163.203   -16.752  -122.633 
 2750.000000   -24.606  -152.491    14.287   -86.968   -19.906   161.728   -16.724  -124.114 
 2770.000000   -24.451  -153.451    14.264   -88.839   -19.926   160.164   -16.693  -125.559 
 2790.000000   -24.180  -154.612    14.217   -90.751   -19.965   158.806   -16.558  -127.163 
 2810.000000   -24.258  -157.863    14.211   -92.461   -19.943   157.405   -16.642  -129.240 
 2830.000000   -24.261  -159.256    14.200   -94.368   -19.933   155.911   -16.686  -130.370 
 2850.000000   -24.178  -160.512    14.182   -96.243   -19.939   154.482   -16.728  -131.872 
 2870.000000   -23.954  -162.314    14.148   -98.052   -19.962   153.078   -16.738  -133.723 
 2890.000000   -23.982  -163.417    14.125   -99.905   -19.974   151.561   -16.771  -135.578 
 2910.000000   -24.077  -166.493    14.106  -101.686   -19.976   150.101   -16.824  -137.802 
 2930.000000   -24.108  -169.425    14.101  -103.529   -19.966   148.766   -16.930  -139.908 
 2950.000000   -24.173  -170.994    14.079  -105.398   -19.962   147.242   -16.986  -141.696 
 2970.000000   -24.051  -172.162    14.054  -107.296   -19.984   145.726   -16.928  -143.587 
 2990.000000   -24.049  -175.821    14.036  -109.095   -19.986   144.291   -16.945  -146.189 
 3010.000000   -24.136  -177.672    14.018  -110.980   -19.975   142.843   -16.916  -148.212 
 3030.000000   -24.310   179.734    14.000  -112.845   -19.986   141.345   -16.869  -150.190 
 3050.000000   -24.416   177.481    13.971  -114.734   -20.010   139.849   -16.751  -152.021 
 3070.000000   -24.433   174.230    13.947  -116.518   -20.022   138.447   -16.728  -154.324 
 3090.000000   -24.446   171.788    13.929  -118.314   -20.005   137.046   -16.733  -156.303 
 3110.000000   -24.540   169.511    13.916  -120.107   -20.015   135.598   -16.728  -158.056 
 3130.000000   -24.567   166.727    13.900  -121.932   -20.010   134.218   -16.740  -159.879 
 3150.000000   -24.877   165.318    13.887  -123.846   -20.009   132.613   -16.718  -160.975 
 3170.000000   -24.808   164.714    13.865  -125.696   -20.006   131.222   -16.740  -162.304 
 3190.000000   -24.644   163.378    13.840  -127.544   -20.025   129.701   -16.726  -163.378 
 3210.000000   -24.522   162.266    13.828  -129.389   -20.028   128.248   -16.830  -164.758 
 3230.000000   -24.440   160.481    13.805  -131.220   -20.047   126.726   -16.885  -166.147 
 3250.000000   -24.307   158.282    13.783  -133.064   -20.050   125.283   -16.970  -167.695 
 3270.000000   -24.321   158.163    13.763  -134.954   -20.043   123.740   -16.988  -168.930 
 3290.000000   -23.864   155.701    13.726  -136.720   -20.095   122.345   -16.985  -171.193 
 3310.000000   -23.921   152.217    13.721  -138.500   -20.059   120.958   -17.134  -173.385 
 3330.000000   -23.851   150.862    13.701  -140.379   -20.072   119.466   -17.238  -175.406 
 3350.000000   -23.893   148.764    13.688  -142.189   -20.076   118.072   -17.281  -177.795 
 3370.000000   -24.000   146.964    13.676  -144.026   -20.076   116.466   -17.264  -179.745 
 3390.000000   -24.195   144.577    13.659  -145.896   -20.072   115.031   -17.245   178.344 
 3410.000000   -24.085   143.987    13.625  -147.758   -20.101   113.470   -17.087   176.671 
 3430.000000   -24.369   140.831    13.613  -149.599   -20.084   112.048   -17.161   174.678 
 3450.000000   -24.307   139.352    13.588  -151.419   -20.099   110.655   -17.059   172.813 
 3470.000000   -24.559   137.954    13.574  -153.305   -20.102   109.119   -17.035   171.039 
 3490.000000   -24.506   136.896    13.544  -155.204   -20.126   107.470   -16.884   169.628 
 3510.000000   -24.546   133.822    13.517  -156.959   -20.141   106.168   -16.812   167.563 
 3530.000000   -24.723   131.566    13.503  -158.823   -20.142   104.575   -16.855   166.431 
 3550.000000   -24.624   131.241    13.466  -160.708   -20.163   102.961   -16.731   165.395 
 3570.000000   -23.971   130.658    13.402  -162.479   -20.241   101.521   -16.542   162.932 
 3590.000000   -23.778   124.620    13.403  -164.038   -20.231   100.497   -16.705   160.127 
 3610.000000   -23.875   120.978    13.401  -165.771   -20.218    99.193   -16.826   158.419 
 3630.000000   -23.915   118.833    13.399  -167.583   -20.208    97.729   -16.929   156.781 
 3650.000000   -23.956   117.068    13.390  -169.466   -20.194    96.277   -17.064   155.589 
 3670.000000   -23.914   115.295    13.377  -171.334   -20.192    94.792   -17.161   154.098 
 3690.000000   -23.691   113.274    13.357  -173.092   -20.212    93.352   -17.220   151.733 
 3710.000000   -23.753   111.921    13.343  -174.930   -20.196    91.943   -17.309   150.051 
 3730.000000   -23.766   111.717    13.316  -176.905   -20.217    90.285   -17.305   149.124 
 3750.000000   -23.677   110.092    13.300  -178.635   -20.215    88.854   -17.314   147.183 
 3770.000000   -23.397   109.989    13.259   179.515   -20.251    87.313   -17.226   145.775 
 3790.000000   -23.338   105.765    13.258   177.872   -20.240    86.155   -17.352   143.162 
 3810.000000   -23.476   104.387    13.251   175.990   -20.242    84.635   -17.432   141.789 
 3830.000000   -23.491   102.549    13.234   174.199   -20.261    83.164   -17.420   139.998 
 3850.000000   -23.663   100.862    13.220   172.386   -20.251    81.805   -17.459   138.051 
 3870.000000   -23.923    99.109    13.216   170.500   -20.225    80.305   -17.547   136.930 
 3890.000000   -24.031   100.126    13.191   168.542   -20.236    78.652   -17.496   136.033 
 3910.000000   -23.775    98.658    13.151   166.823   -20.268    77.088   -17.439   134.067 
 3930.000000   -23.919    95.823    13.150   164.998   -20.253    75.729   -17.512   132.269 
 3950.000000   -23.901    96.569    13.116   163.057   -20.281    74.000   -17.402   131.282 
 3970.000000   -23.641    94.360    13.091   161.278   -20.289    72.601   -17.445   129.647 
 3990.000000   -23.068    90.581    13.051   159.757   -20.374    71.368   -17.238   126.588 
 4020.000000   -23.321    85.564    13.057   157.084   -20.338    69.456   -17.585   123.394 
 4060.000000   -23.682    83.269    13.036   153.302   -20.322    66.373   -17.731   120.333 
 4100.000000   -23.723    80.910    13.004   149.607   -20.318    63.395   -17.753   117.199 
 4140.000000   -23.632    77.095    12.971   146.108   -20.338    60.634   -17.773   113.550 
 4180.000000   -23.767    75.547    12.938   142.392   -20.334    57.621   -17.796   111.009 
 4220.000000   -23.682    74.783    12.891   138.813   -20.368    54.566   -17.681   108.278 
 4260.000000   -23.447    75.356    12.807   135.263   -20.440    51.470   -17.494   105.501 
 4300.000000   -23.780    67.441    12.824   131.849   -20.445    49.139   -17.776   101.053 
