! Mini-Circuits  
! S2P DATA File Format
! Type: MMIC Amplifier
! Model: ERA-2SM     Reference Data:RDF-874AA
! Note: All S Parameters are in dB deg format
! TEST CONDITIONS: INPUT POWER = -20dBm, Icc = 40mA, Vd = 3.40V @Temperature = +25degC
! 401 Frequency points
!
# MHz S DB R 50
!    FREQ       dB(S11)   PHS(S11)  dB(S21)   PHS(S21)  dB(S12)   PHS(S12)  dB(S22)   PHS(S22) 
   50.000000   -33.632     5.432    16.345   174.397   -19.715    -4.146   -31.103   165.781 
   70.000000   -34.383     2.470    16.336   172.530   -19.767    -5.328   -30.756   162.689 
   90.000000   -33.942     8.092    16.326   170.414   -19.794    -6.843   -30.160   157.204 
  110.000000   -34.607     8.509    16.310   168.417   -19.796    -7.982   -30.148   154.306 
  130.000000   -34.537    12.041    16.303   166.535   -19.799    -9.288   -29.601   153.383 
  150.000000   -34.698    10.222    16.291   164.452   -19.770   -10.548   -29.593   148.958 
  170.000000   -34.745     9.838    16.287   162.406   -19.797   -11.788   -29.476   145.397 
  190.000000   -33.877    13.470    16.279   160.447   -19.795   -13.511   -29.248   141.601 
  210.000000   -33.724    11.132    16.276   158.399   -19.776   -14.775   -29.088   139.561 
  230.000000   -34.228     8.703    16.251   156.383   -19.783   -16.243   -28.970   137.398 
  250.000000   -33.840     7.679    16.245   154.364   -19.789   -17.525   -29.081   134.182 
  270.000000   -33.431     7.404    16.239   152.383   -19.784   -18.809   -28.806   131.033 
  290.000000   -33.060     3.961    16.227   150.336   -19.793   -20.287   -28.708   128.412 
  310.000000   -33.136     2.364    16.213   148.338   -19.767   -21.520   -28.376   125.309 
  330.000000   -33.239     6.786    16.203   146.346   -19.773   -23.020   -28.152   121.761 
  350.000000   -33.108     7.921    16.185   144.347   -19.781   -24.422   -28.087   118.406 
  370.000000   -32.776     7.073    16.174   142.375   -19.792   -25.783   -27.986   115.728 
  390.000000   -33.182     4.186    16.167   140.346   -19.781   -27.173   -27.767   111.220 
  410.000000   -33.285     4.739    16.145   138.365   -19.784   -28.611   -27.499   108.497 
  430.000000   -32.759     5.529    16.133   136.404   -19.783   -29.930   -27.244   106.264 
  450.000000   -32.800     4.128    16.126   134.417   -19.767   -31.283   -26.922   104.750 
  470.000000   -32.623     5.334    16.116   132.379   -19.783   -32.730   -26.702   102.124 
  490.000000   -32.530     5.669    16.087   130.426   -19.772   -34.069   -26.674    99.013 
  510.000000   -32.354     4.730    16.081   128.395   -19.762   -35.562   -26.424    96.067 
  530.000000   -32.187     5.146    16.065   126.429   -19.768   -36.957   -26.065    93.050 
  550.000000   -32.124     5.240    16.053   124.433   -19.768   -38.292   -25.828    90.877 
  570.000000   -31.900     6.591    16.033   122.487   -19.764   -39.683   -25.644    89.250 
  590.000000   -31.594     7.199    16.016   120.534   -19.760   -41.225   -25.512    87.158 
  610.000000   -31.406     5.727    16.009   118.539   -19.756   -42.589   -25.331    84.464 
  630.000000   -31.321     2.550    15.992   116.560   -19.758   -43.954   -25.214    81.927 
  650.000000   -31.274     1.793    15.984   114.587   -19.751   -45.360   -24.964    79.526 
  670.000000   -31.066     2.035    15.958   112.637   -19.757   -46.730   -24.832    77.065 
  690.000000   -31.028     2.008    15.944   110.677   -19.748   -48.173   -24.675    74.654 
  710.000000   -30.675     1.357    15.929   108.739   -19.750   -49.509   -24.500    72.346 
  730.000000   -30.501    -0.493    15.919   106.759   -19.762   -50.943   -24.363    69.463 
  750.000000   -30.524    -0.390    15.900   104.792   -19.758   -52.407   -24.130    66.731 
  770.000000   -30.352    -1.147    15.886   102.852   -19.744   -53.796   -23.913    64.283 
  790.000000   -30.263    -2.057    15.869   100.888   -19.761   -55.189   -23.677    62.200 
  810.000000   -30.210    -3.096    15.849    98.954   -19.749   -56.632   -23.538    60.620 
  830.000000   -30.072    -3.486    15.842    96.974   -19.765   -58.040   -23.323    58.348 
  850.000000   -29.790    -5.183    15.822    95.040   -19.744   -59.406   -23.176    55.923 
  870.000000   -29.716    -5.928    15.807    93.097   -19.752   -60.837   -22.947    53.809 
  890.000000   -29.425    -5.669    15.779    91.128   -19.756   -62.114   -22.691    50.853 
  910.000000   -29.385    -6.180    15.763    89.206   -19.748   -63.619   -22.558    48.922 
  930.000000   -29.137    -6.770    15.750    87.288   -19.752   -65.026   -22.405    47.892 
  950.000000   -28.934    -8.368    15.737    85.342   -19.756   -66.421   -22.280    45.698 
  970.000000   -28.940   -10.132    15.712    83.411   -19.749   -67.867   -22.183    43.191 
  990.000000   -28.859   -10.899    15.699    81.473   -19.747   -69.301   -22.093    41.204 
 1010.000000   -28.598   -12.146    15.688    79.518   -19.746   -70.576   -21.835    39.077 
 1030.000000   -28.494   -13.437    15.669    77.594   -19.760   -72.110   -21.707    37.256 
 1050.000000   -28.359   -14.211    15.649    75.629   -19.758   -73.515   -21.656    35.265 
 1070.000000   -28.241   -13.690    15.635    73.691   -19.761   -74.964   -21.441    33.710 
 1090.000000   -28.006   -16.409    15.614    71.793   -19.769   -76.196   -21.364    30.990 
 1110.000000   -27.950   -18.456    15.596    69.863   -19.749   -77.706   -21.238    28.774 
 1130.000000   -27.899   -20.141    15.578    67.937   -19.742   -79.093   -21.150    26.426 
 1150.000000   -27.844   -20.695    15.564    66.032   -19.746   -80.576   -21.056    24.737 
 1170.000000   -27.772   -21.427    15.552    64.091   -19.750   -81.921   -20.882    23.039 
 1190.000000   -27.495   -22.910    15.528    62.164   -19.756   -83.312   -20.769    20.937 
 1210.000000   -27.369   -25.017    15.507    60.247   -19.757   -84.725   -20.671    18.365 
 1230.000000   -27.436   -26.029    15.489    58.338   -19.754   -86.128   -20.607    16.381 
 1250.000000   -27.309   -27.486    15.474    56.419   -19.745   -87.561   -20.458    14.457 
 1270.000000   -27.261   -29.446    15.453    54.499   -19.753   -88.968   -20.357    12.613 
 1290.000000   -27.208   -31.346    15.441    52.602   -19.756   -90.381   -20.264    10.638 
 1310.000000   -27.048   -31.223    15.421    50.678   -19.768   -91.762   -20.145     8.723 
 1330.000000   -26.956   -32.880    15.399    48.792   -19.758   -93.214   -20.087     6.565 
 1350.000000   -26.987   -34.378    15.382    46.875   -19.751   -94.694   -19.951     4.643 
 1370.000000   -26.781   -35.442    15.367    44.917   -19.777   -96.049   -19.774     3.005 
 1390.000000   -26.803   -38.305    15.338    43.042   -19.775   -97.415   -19.736     0.436 
 1410.000000   -26.807   -39.079    15.326    41.138   -19.758   -98.926   -19.675    -1.178 
 1430.000000   -26.800   -40.497    15.309    39.256   -19.767  -100.350   -19.572    -2.650 
 1450.000000   -26.680   -41.675    15.295    37.325   -19.765  -101.823   -19.449    -4.155 
 1470.000000   -26.433   -42.740    15.263    35.365   -19.797  -103.141   -19.314    -6.328 
 1490.000000   -26.415   -45.041    15.246    33.539   -19.770  -104.466   -19.304    -8.589 
 1510.000000   -26.446   -47.102    15.228    31.638   -19.778  -105.948   -19.269   -10.370 
 1530.000000   -26.390   -48.199    15.212    29.733   -19.780  -107.411   -19.181   -12.097 
 1550.000000   -26.361   -50.459    15.196    27.845   -19.783  -108.780   -19.121   -13.955 
 1570.000000   -26.340   -51.051    15.183    25.944   -19.777  -110.220   -19.068   -15.528 
 1590.000000   -26.015   -53.011    15.153    23.975   -19.806  -111.539   -18.891   -17.754 
 1610.000000   -26.126   -55.393    15.136    22.146   -19.789  -112.912   -18.903   -19.781 
 1630.000000   -26.094   -56.073    15.118    20.218   -19.796  -114.482   -18.823   -21.407 
 1650.000000   -25.943   -59.488    15.091    18.340   -19.790  -115.756   -18.738   -23.796 
 1670.000000   -25.995   -61.884    15.081    16.482   -19.787  -117.202   -18.710   -25.592 
 1690.000000   -26.035   -62.126    15.054    14.608   -19.794  -118.607   -18.679   -27.490 
 1710.000000   -25.944   -64.082    15.034    12.719   -19.788  -120.084   -18.597   -29.378 
 1730.000000   -25.995   -66.206    15.018    10.851   -19.797  -121.471   -18.530   -31.305 
 1750.000000   -26.035   -67.872    14.997     8.955   -19.795  -122.835   -18.463   -33.275 
 1770.000000   -26.070   -69.273    14.977     7.082   -19.795  -124.264   -18.435   -35.338 
 1790.000000   -25.949   -70.225    14.961     5.185   -19.795  -125.723   -18.350   -37.066 
 1810.000000   -25.994   -72.323    14.938     3.322   -19.800  -127.130   -18.290   -38.865 
 1830.000000   -26.088   -74.722    14.918     1.468   -19.798  -128.489   -18.256   -40.570 
 1850.000000   -26.111   -77.031    14.903    -0.438   -19.809  -129.957   -18.207   -42.246 
 1870.000000   -25.927   -77.874    14.880    -2.307   -19.806  -131.366   -18.156   -43.931 
 1890.000000   -25.922   -79.394    14.861    -4.182   -19.797  -132.799   -18.087   -45.650 
 1910.000000   -25.920   -81.650    14.842    -6.039   -19.804  -134.217   -18.066   -47.485 
 1930.000000   -25.958   -83.278    14.830    -7.921   -19.809  -135.634   -18.027   -49.234 
 1950.000000   -25.941   -84.461    14.803    -9.809   -19.814  -137.026   -18.022   -51.117 
 1970.000000   -25.883   -86.253    14.783   -11.684   -19.813  -138.499   -17.994   -52.864 
 1990.000000   -25.901   -89.137    14.773   -13.579   -19.820  -139.972   -17.931   -54.614 
 2010.000000   -25.780   -90.848    14.749   -15.441   -19.825  -141.390   -17.853   -56.567 
 2030.000000   -25.751   -92.398    14.723   -17.316   -19.836  -142.786   -17.829   -58.551 
 2050.000000   -25.804   -93.425    14.704   -19.197   -19.824  -144.234   -17.775   -60.269 
 2070.000000   -25.770   -95.525    14.685   -21.053   -19.839  -145.677   -17.749   -62.154 
 2090.000000   -25.844   -98.311    14.670   -22.928   -19.847  -147.079   -17.717   -64.177 
 2110.000000   -25.868  -100.451    14.650   -24.780   -19.844  -148.455   -17.710   -65.999 
 2130.000000   -25.838  -101.924    14.631   -26.679   -19.849  -149.978   -17.660   -67.900 
 2150.000000   -25.694  -103.470    14.600   -28.541   -19.864  -151.317   -17.619   -69.681 
 2170.000000   -25.651  -106.663    14.582   -30.397   -19.856  -152.717   -17.560   -71.562 
 2190.000000   -25.720  -108.696    14.564   -32.244   -19.855  -154.084   -17.520   -73.533 
 2210.000000   -25.894  -110.640    14.544   -34.114   -19.866  -155.454   -17.537   -75.334 
 2230.000000   -25.784  -112.317    14.523   -35.969   -19.865  -157.054   -17.471   -77.131 
 2250.000000   -25.718  -113.970    14.503   -37.852   -19.879  -158.497   -17.429   -78.707 
 2270.000000   -25.604  -115.881    14.478   -39.687   -19.884  -159.781   -17.365   -80.343 
 2290.000000   -25.642  -118.850    14.455   -41.517   -19.889  -161.098   -17.375   -82.638 
 2310.000000   -25.698  -120.295    14.434   -43.366   -19.883  -162.608   -17.363   -84.385 
 2330.000000   -25.619  -122.909    14.416   -45.194   -19.881  -164.029   -17.339   -86.140 
 2350.000000   -25.685  -124.822    14.402   -47.038   -19.888  -165.442   -17.329   -87.871 
 2370.000000   -25.812  -126.510    14.378   -48.911   -19.886  -166.913   -17.328   -89.734 
 2390.000000   -25.833  -127.828    14.356   -50.781   -19.892  -168.417   -17.282   -91.405 
 2410.000000   -25.892  -129.981    14.331   -52.652   -19.907  -169.778   -17.241   -93.088 
 2430.000000   -25.882  -132.773    14.316   -54.501   -19.904  -171.205   -17.205   -95.019 
 2450.000000   -25.845  -135.338    14.292   -56.304   -19.918  -172.566   -17.182   -97.131 
 2470.000000   -25.777  -137.235    14.269   -58.154   -19.932  -174.043   -17.192   -98.945 
 2490.000000   -25.711  -139.280    14.248   -59.987   -19.911  -175.421   -17.201  -100.774 
 2510.000000   -25.825  -141.763    14.231   -61.793   -19.924  -176.846   -17.196  -102.369 
 2530.000000   -25.867  -144.164    14.218   -63.648   -19.928  -178.188   -17.184  -104.104 
 2550.000000   -25.844  -146.449    14.188   -65.488   -19.929  -179.663   -17.196  -106.185 
 2570.000000   -25.861  -149.031    14.175   -67.298   -19.940   178.949   -17.188  -107.929 
 2590.000000   -25.872  -150.734    14.156   -69.160   -19.945   177.453   -17.173  -109.416 
 2610.000000   -25.721  -152.441    14.135   -71.040   -19.947   176.000   -17.154  -110.911 
 2630.000000   -25.677  -154.482    14.104   -72.869   -19.962   174.641   -17.120  -112.849 
 2650.000000   -25.711  -157.396    14.085   -74.658   -19.956   173.230   -17.142  -114.893 
 2670.000000   -25.878  -159.915    14.080   -76.498   -19.942   171.767   -17.162  -116.440 
 2690.000000   -25.819  -161.481    14.054   -78.347   -19.954   170.263   -17.154  -117.954 
 2710.000000   -25.765  -164.424    14.034   -80.177   -19.973   168.967   -17.161  -119.782 
 2730.000000   -25.837  -165.074    14.019   -82.047   -19.966   167.483   -17.192  -121.323 
 2750.000000   -25.894  -165.660    13.994   -83.934   -19.972   165.933   -17.167  -122.899 
 2770.000000   -25.810  -167.339    13.973   -85.739   -19.988   164.443   -17.136  -124.566 
 2790.000000   -25.771  -169.845    13.940   -87.550   -20.001   163.194   -17.075  -126.658 
 2810.000000   -25.822  -172.474    13.925   -89.375   -20.004   161.775   -17.102  -128.575 
 2830.000000   -25.803  -174.858    13.904   -91.214   -20.003   160.267   -17.094  -130.227 
 2850.000000   -25.667  -177.083    13.882   -93.043   -20.017   158.828   -17.072  -131.892 
 2870.000000   -25.637  -179.024    13.858   -94.844   -20.025   157.595   -17.076  -133.601 
 2890.000000   -25.703   178.798    13.832   -96.661   -20.026   156.088   -17.073  -135.724 
 2910.000000   -25.713   176.266    13.814   -98.440   -20.034   154.663   -17.070  -137.622 
 2930.000000   -25.730   174.178    13.806  -100.286   -20.040   153.270   -17.080  -139.253 
 2950.000000   -25.734   172.156    13.780  -102.092   -20.047   151.844   -17.104  -140.874 
 2970.000000   -25.613   169.422    13.759  -103.904   -20.046   150.478   -17.102  -142.878 
 2990.000000   -25.614   167.652    13.742  -105.719   -20.054   149.051   -17.149  -144.627 
 3010.000000   -25.660   165.533    13.728  -107.575   -20.045   147.602   -17.127  -146.235 
 3030.000000   -25.664   163.461    13.699  -109.418   -20.070   146.096   -17.088  -148.024 
 3050.000000   -25.598   161.231    13.671  -111.224   -20.079   144.733   -17.068  -149.859 
 3070.000000   -25.497   158.369    13.655  -112.989   -20.085   143.377   -17.113  -151.723 
 3090.000000   -25.546   155.999    13.643  -114.776   -20.070   142.015   -17.171  -153.512 
 3110.000000   -25.532   153.228    13.630  -116.565   -20.075   140.498   -17.236  -155.411 
 3130.000000   -25.609   151.589    13.613  -118.420   -20.084   139.083   -17.283  -157.185 
 3150.000000   -25.808   149.464    13.592  -120.277   -20.080   137.629   -17.291  -158.653 
 3170.000000   -25.771   147.997    13.575  -122.119   -20.091   136.012   -17.271  -159.994 
 3190.000000   -25.737   146.755    13.554  -123.942   -20.097   134.684   -17.266  -161.469 
 3210.000000   -25.616   145.627    13.531  -125.775   -20.114   133.256   -17.303  -163.285 
 3230.000000   -25.639   143.537    13.505  -127.596   -20.118   131.815   -17.307  -165.027 
 3250.000000   -25.531   141.055    13.488  -129.389   -20.132   130.390   -17.288  -166.764 
 3270.000000   -25.502   138.793    13.469  -131.172   -20.144   128.947   -17.262  -168.601 
 3290.000000   -25.489   136.408    13.446  -132.985   -20.151   127.587   -17.305  -170.492 
 3310.000000   -25.342   134.589    13.424  -134.786   -20.154   126.115   -17.344  -172.249 
 3330.000000   -25.267   132.735    13.409  -136.576   -20.161   124.698   -17.399  -174.027 
 3350.000000   -25.355   130.132    13.398  -138.382   -20.163   123.290   -17.425  -175.886 
 3370.000000   -25.350   128.554    13.374  -140.211   -20.172   121.851   -17.384  -177.582 
 3390.000000   -25.372   126.566    13.351  -142.051   -20.182   120.444   -17.378  -179.243 
 3410.000000   -25.325   124.982    13.334  -143.832   -20.183   118.982   -17.383   179.118 
 3430.000000   -25.425   123.437    13.314  -145.668   -20.177   117.451   -17.423   177.889 
 3450.000000   -25.415   122.544    13.299  -147.486   -20.204   116.036   -17.440   176.328 
 3470.000000   -25.415   121.903    13.266  -149.336   -20.211   114.572   -17.420   174.486 
 3490.000000   -25.272   120.300    13.244  -151.117   -20.231   113.190   -17.374   172.617 
 3510.000000   -25.346   117.973    13.232  -152.909   -20.229   111.704   -17.378   171.088 
 3530.000000   -25.424   116.748    13.204  -154.786   -20.248   110.247   -17.366   169.911 
 3550.000000   -25.096   116.889    13.154  -156.540   -20.293   108.785   -17.230   167.924 
 3570.000000   -24.762   113.000    13.141  -158.148   -20.313   107.546   -17.322   164.951 
 3590.000000   -24.808   110.463    13.134  -159.932   -20.296   106.184   -17.380   163.209 
 3610.000000   -24.802   107.959    13.113  -161.697   -20.312   104.826   -17.381   161.520 
 3630.000000   -24.781   105.168    13.107  -163.451   -20.309   103.486   -17.438   159.543 
 3650.000000   -24.873   102.866    13.095  -165.262   -20.310   102.131   -17.507   157.822 
 3670.000000   -24.946   100.946    13.077  -167.093   -20.296   100.696   -17.591   156.233 
 3690.000000   -25.029    98.719    13.070  -168.925   -20.297    99.142   -17.635   154.545 
 3710.000000   -25.079    97.722    13.044  -170.723   -20.311    97.678   -17.622   153.146 
 3730.000000   -24.967    96.237    13.013  -172.587   -20.338    96.256   -17.579   151.166 
 3750.000000   -24.862    94.385    12.998  -174.299   -20.343    94.844   -17.575   149.433 
 3770.000000   -24.767    92.408    12.978  -176.065   -20.351    93.565   -17.584   147.994 
 3790.000000   -24.833    89.620    12.968  -177.833   -20.362    92.141   -17.652   146.241 
 3810.000000   -24.754    88.206    12.948  -179.644   -20.367    90.648   -17.680   144.407 
 3830.000000   -24.783    85.425    12.944   178.592   -20.373    89.316   -17.722   142.367 
 3850.000000   -25.057    82.481    12.934   176.768   -20.366    87.883   -17.789   140.954 
 3870.000000   -25.246    80.643    12.924   174.902   -20.349    86.394   -17.853   139.903 
 3890.000000   -25.395    82.476    12.884   172.980   -20.362    84.797   -17.809   138.931 
 3910.000000   -25.099    81.885    12.848   171.261   -20.393    83.293   -17.747   136.986 
 3930.000000   -25.062    80.098    12.833   169.517   -20.402    81.800   -17.740   135.254 
 3950.000000   -24.887    78.610    12.812   167.772   -20.432    80.499   -17.715   133.480 
 3970.000000   -24.657    77.455    12.774   166.022   -20.464    79.121   -17.629   131.540 
 3990.000000   -24.613    73.565    12.782   164.359   -20.461    77.939   -17.730   129.103 
 4020.000000   -24.757    69.837    12.769   161.695   -20.454    75.824   -17.920   126.856 
 4060.000000   -25.152    66.303    12.743   158.003   -20.458    72.988   -18.036   123.555 
 4100.000000   -25.152    63.784    12.699   154.415   -20.472    70.030   -17.974   120.210 
 4140.000000   -25.464    60.938    12.674   150.810   -20.476    67.266   -18.074   117.252 
 4180.000000   -25.601    57.617    12.640   147.264   -20.488    64.325   -18.095   114.361 
 4220.000000   -25.832    56.239    12.589   143.623   -20.513    61.268   -17.981   111.928 
 4260.000000   -25.623    53.714    12.537   140.229   -20.572    58.505   -17.960   107.631 
 4300.000000   -25.792    48.231    12.526   136.664   -20.570    55.987   -18.133   103.745 
