! Mini-Circuits  
! S2P DATA File Format
! Type: MMIC Amplifier
! Model: ERA-2SM     Reference Data:RDF-874AA
! Note: All S Parameters are in dB deg format
! TEST CONDITIONS: INPUT POWER = -20dBm, Icc = 32mA, Vd = 3.35V @Temperature = +25degC
! 401 Frequency points
!
# MHz S DB R 50
!    FREQ       dB(S11)   PHS(S11)  dB(S21)   PHS(S21)  dB(S12)   PHS(S12)  dB(S22)   PHS(S22) 
   50.000000   -27.857     0.761    16.107   174.410   -19.578    -4.430   -43.294   141.402 
   70.000000   -28.193    -1.988    16.098   172.534   -19.570    -5.235   -41.057   131.134 
   90.000000   -28.037    -0.530    16.089   170.429   -19.561    -7.002   -39.251   135.138 
  110.000000   -28.563    -2.048    16.067   168.430   -19.607    -7.867   -38.036   131.091 
  130.000000   -28.693    -1.081    16.058   166.551   -19.635    -9.206   -37.924   128.811 
  150.000000   -28.547    -3.330    16.059   164.468   -19.608   -10.718   -36.900   122.389 
  170.000000   -28.640    -4.467    16.055   162.431   -19.606   -12.250   -36.451   122.397 
  190.000000   -28.639    -2.344    16.037   160.475   -19.589   -13.617   -35.566   116.851 
  210.000000   -28.469    -4.950    16.029   158.430   -19.593   -14.865   -35.769   112.198 
  230.000000   -28.546    -7.165    16.020   156.419   -19.609   -16.217   -35.130   111.979 
  250.000000   -28.383    -9.173    16.012   154.399   -19.597   -17.668   -35.041   108.651 
  270.000000   -28.330    -9.171    15.995   152.413   -19.592   -19.019   -34.678   104.700 
  290.000000   -28.157   -11.867    15.986   150.386   -19.587   -20.372   -34.530   103.825 
  310.000000   -28.148   -13.324    15.979   148.378   -19.591   -21.782   -33.572    99.380 
  330.000000   -28.315   -12.362    15.969   146.389   -19.586   -23.215   -33.008    96.414 
  350.000000   -28.253   -12.131    15.953   144.402   -19.594   -24.626   -32.607    94.455 
  370.000000   -28.286   -13.038    15.938   142.418   -19.589   -25.971   -32.408    91.120 
  390.000000   -28.557   -16.195    15.928   140.399   -19.584   -27.349   -32.051    84.965 
  410.000000   -28.494   -17.237    15.916   138.416   -19.598   -28.766   -31.445    83.644 
  430.000000   -28.339   -17.208    15.908   136.455   -19.573   -30.105   -30.919    84.016 
  450.000000   -28.508   -17.839    15.889   134.460   -19.592   -31.567   -30.523    82.908 
  470.000000   -28.538   -18.132    15.874   132.448   -19.596   -32.920   -30.242    80.304 
  490.000000   -28.410   -18.975    15.861   130.500   -19.582   -34.344   -30.032    77.690 
  510.000000   -28.405   -20.438    15.858   128.458   -19.580   -35.749   -29.563    75.935 
  530.000000   -28.515   -20.055    15.835   126.488   -19.585   -37.209   -29.045    73.150 
  550.000000   -28.597   -20.706    15.818   124.492   -19.591   -38.620   -28.769    70.965 
  570.000000   -28.460   -20.820    15.808   122.544   -19.577   -40.017   -28.478    70.697 
  590.000000   -28.405   -20.334    15.797   120.593   -19.582   -41.430   -28.247    69.265 
  610.000000   -28.372   -21.777    15.777   118.598   -19.559   -42.804   -27.981    66.709 
  630.000000   -28.311   -24.048    15.758   116.614   -19.589   -44.253   -27.809    64.083 
  650.000000   -28.365   -24.870    15.759   114.656   -19.582   -45.569   -27.454    62.107 
  670.000000   -28.260   -25.598    15.736   112.694   -19.564   -47.015   -27.252    59.796 
  690.000000   -28.275   -26.338    15.716   110.730   -19.566   -48.467   -26.983    58.378 
  710.000000   -28.269   -25.876    15.699   108.783   -19.575   -49.845   -26.741    56.104 
  730.000000   -28.208   -26.907    15.694   106.814   -19.582   -51.257   -26.585    52.853 
  750.000000   -28.263   -28.231    15.671   104.862   -19.573   -52.672   -26.176    50.973 
  770.000000   -28.224   -28.539    15.658   102.909   -19.574   -54.118   -25.913    48.338 
  790.000000   -28.164   -30.190    15.649   100.973   -19.575   -55.577   -25.585    47.113 
  810.000000   -28.151   -31.561    15.631    99.014   -19.580   -56.947   -25.403    46.525 
  830.000000   -28.204   -31.703    15.613    97.041   -19.577   -58.376   -25.144    44.377 
  850.000000   -28.065   -32.171    15.597    95.119   -19.569   -59.764   -24.957    42.010 
  870.000000   -28.113   -33.032    15.585    93.155   -19.576   -61.211   -24.685    39.983 
  890.000000   -27.975   -33.270    15.561    91.193   -19.584   -62.605   -24.298    37.569 
  910.000000   -27.971   -34.325    15.543    89.276   -19.576   -64.056   -24.129    36.166 
  930.000000   -27.989   -33.888    15.525    87.360   -19.571   -65.398   -23.955    35.618 
  950.000000   -27.868   -34.479    15.513    85.404   -19.580   -66.804   -23.865    33.158 
  970.000000   -27.805   -37.441    15.496    83.465   -19.560   -68.313   -23.718    30.786 
  990.000000   -27.755   -38.692    15.483    81.522   -19.581   -69.710   -23.539    29.445 
 1010.000000   -27.702   -38.035    15.465    79.583   -19.581   -71.087   -23.235    27.725 
 1030.000000   -27.665   -38.902    15.445    77.658   -19.573   -72.497   -23.169    25.481 
 1050.000000   -27.590   -40.827    15.436    75.705   -19.574   -73.928   -23.036    23.948 
 1070.000000   -27.611   -40.600    15.427    73.743   -19.586   -75.421   -22.773    23.145 
 1090.000000   -27.447   -41.233    15.397    71.864   -19.581   -76.710   -22.668    20.129 
 1110.000000   -27.392   -43.102    15.374    69.925   -19.579   -78.143   -22.576    17.751 
 1130.000000   -27.351   -45.717    15.370    68.008   -19.566   -79.612   -22.397    15.831 
 1150.000000   -27.374   -45.954    15.361    66.099   -19.570   -81.049   -22.266    14.474 
 1170.000000   -27.403   -46.132    15.330    64.155   -19.583   -82.422   -22.097    12.796 
 1190.000000   -27.196   -46.830    15.308    62.221   -19.588   -83.787   -21.995    10.629 
 1210.000000   -27.057   -49.201    15.297    60.323   -19.582   -85.212   -21.835     8.366 
 1230.000000   -27.176   -50.655    15.282    58.406   -19.578   -86.717   -21.709     6.761 
 1250.000000   -27.114   -51.682    15.262    56.480   -19.581   -88.105   -21.555     4.971 
 1270.000000   -27.070   -52.995    15.241    54.552   -19.581   -89.526   -21.439     3.133 
 1290.000000   -27.066   -54.622    15.232    52.668   -19.581   -90.937   -21.352     1.205 
 1310.000000   -26.978   -55.068    15.213    50.736   -19.591   -92.388   -21.188    -0.498 
 1330.000000   -26.909   -56.613    15.193    48.839   -19.580   -93.800   -21.107    -2.523 
 1350.000000   -27.012   -57.363    15.174    46.931   -19.590   -95.210   -20.940    -4.198 
 1370.000000   -26.882   -57.555    15.159    44.966   -19.618   -96.569   -20.792    -5.979 
 1390.000000   -26.846   -61.228    15.139    43.087   -19.599   -98.031   -20.715    -8.523 
 1410.000000   -26.888   -62.612    15.126    41.191   -19.592   -99.496   -20.625    -9.529 
 1430.000000   -26.949   -62.795    15.104    39.301   -19.605  -100.942   -20.502   -10.902 
 1450.000000   -26.875   -63.474    15.087    37.362   -19.599  -102.395   -20.429   -12.766 
 1470.000000   -26.679   -65.249    15.064    35.401   -19.614  -103.726   -20.249   -14.564 
 1490.000000   -26.644   -67.502    15.050    33.561   -19.613  -105.123   -20.187   -16.540 
 1510.000000   -26.697   -69.181    15.031    31.668   -19.613  -106.571   -20.160   -18.406 
 1530.000000   -26.658   -70.336    15.014    29.769   -19.606  -107.977   -20.054   -19.890 
 1550.000000   -26.639   -72.281    14.993    27.885   -19.615  -109.441   -19.989   -21.774 
 1570.000000   -26.682   -72.299    14.979    25.966   -19.614  -110.832   -19.940   -23.400 
 1590.000000   -26.368   -73.356    14.952    24.009   -19.643  -112.196   -19.746   -25.475 
 1610.000000   -26.435   -76.766    14.939    22.167   -19.617  -113.668   -19.749   -27.451 
 1630.000000   -26.485   -77.631    14.921    20.238   -19.631  -115.132   -19.652   -28.821 
 1650.000000   -26.273   -79.604    14.890    18.350   -19.638  -116.396   -19.518   -30.992 
 1670.000000   -26.293   -81.737    14.878    16.512   -19.626  -117.848   -19.529   -33.204 
 1690.000000   -26.399   -83.410    14.862    14.612   -19.624  -119.320   -19.484   -34.894 
 1710.000000   -26.322   -85.165    14.843    12.733   -19.632  -120.701   -19.360   -36.445 
 1730.000000   -26.375   -86.185    14.823    10.845   -19.642  -122.143   -19.295   -38.467 
 1750.000000   -26.439   -88.325    14.797     8.976   -19.643  -123.591   -19.246   -40.649 
 1770.000000   -26.466   -90.443    14.788     7.070   -19.633  -125.003   -19.188   -42.347 
 1790.000000   -26.412   -91.326    14.774     5.172   -19.640  -126.434   -19.071   -43.897 
 1810.000000   -26.422   -92.813    14.742     3.312   -19.645  -127.859   -19.001   -45.718 
 1830.000000   -26.532   -95.145    14.724     1.462   -19.650  -129.204   -18.983   -47.529 
 1850.000000   -26.517   -97.421    14.714    -0.448   -19.644  -130.651   -18.929   -49.127 
 1870.000000   -26.412   -98.523    14.694    -2.313   -19.652  -132.084   -18.869   -50.624 
 1890.000000   -26.404  -100.261    14.670    -4.200   -19.654  -133.634   -18.784   -52.178 
 1910.000000   -26.395  -101.554    14.650    -6.071   -19.659  -134.995   -18.749   -53.928 
 1930.000000   -26.464  -102.791    14.639    -7.948   -19.669  -136.307   -18.737   -55.903 
 1950.000000   -26.480  -105.265    14.620    -9.833   -19.669  -137.924   -18.715   -57.841 
 1970.000000   -26.420  -106.932    14.601   -11.710   -19.657  -139.333   -18.664   -59.229 
 1990.000000   -26.376  -108.834    14.585   -13.611   -19.663  -140.711   -18.590   -60.910 
 2010.000000   -26.274  -110.118    14.556   -15.483   -19.676  -142.173   -18.544   -63.143 
 2030.000000   -26.283  -112.561    14.540   -17.367   -19.682  -143.639   -18.482   -64.827 
 2050.000000   -26.358  -113.725    14.529   -19.253   -19.680  -145.066   -18.418   -66.389 
 2070.000000   -26.330  -115.277    14.498   -21.106   -19.688  -146.379   -18.394   -68.286 
 2090.000000   -26.375  -117.767    14.481   -22.972   -19.701  -147.787   -18.360   -70.468 
 2110.000000   -26.352  -120.383    14.468   -24.836   -19.688  -149.220   -18.354   -72.237 
 2130.000000   -26.325  -122.191    14.454   -26.725   -19.707  -150.745   -18.279   -73.923 
 2150.000000   -26.194  -123.435    14.418   -28.610   -19.716  -152.169   -18.223   -75.710 
 2170.000000   -26.130  -125.735    14.397   -30.458   -19.721  -153.527   -18.163   -77.512 
 2190.000000   -26.186  -127.644    14.383   -32.293   -19.718  -154.911   -18.132   -79.625 
 2210.000000   -26.324  -130.690    14.364   -34.169   -19.719  -156.400   -18.152   -81.445 
 2230.000000   -26.249  -132.667    14.348   -36.036   -19.725  -157.892   -18.044   -82.886 
 2250.000000   -26.223  -133.248    14.319   -37.925   -19.736  -159.378   -17.998   -84.500 
 2270.000000   -26.112  -134.472    14.289   -39.797   -19.754  -160.688   -17.962   -86.314 
 2290.000000   -26.091  -138.599    14.278   -41.605   -19.746  -162.125   -17.954   -88.429 
 2310.000000   -26.159  -140.143    14.264   -43.446   -19.753  -163.540   -17.919   -90.055 
 2330.000000   -26.025  -142.055    14.237   -45.297   -19.755  -164.943   -17.896   -91.960 
 2350.000000   -26.121  -143.823    14.220   -47.136   -19.754  -166.414   -17.912   -93.744 
 2370.000000   -26.242  -146.225    14.207   -49.005   -19.758  -167.781   -17.885   -95.505 
 2390.000000   -26.253  -147.629    14.185   -50.886   -19.765  -169.213   -17.824   -97.027 
 2410.000000   -26.341  -149.924    14.155   -52.746   -19.773  -170.721   -17.776   -98.693 
 2430.000000   -26.264  -152.392    14.138   -54.586   -19.774  -172.155   -17.740  -100.643 
 2450.000000   -26.222  -154.394    14.116   -56.427   -19.797  -173.446   -17.721  -102.809 
 2470.000000   -26.143  -157.134    14.100   -58.283   -19.786  -174.956   -17.720  -104.586 
 2490.000000   -26.056  -159.279    14.077   -60.112   -19.782  -176.400   -17.708  -106.177 
 2510.000000   -26.134  -161.022    14.058   -61.948   -19.800  -177.719   -17.698  -107.815 
 2530.000000   -26.170  -163.018    14.040   -63.798   -19.797  -179.131   -17.716  -109.822 
 2550.000000   -26.113  -166.438    14.023   -65.620   -19.804   179.347   -17.708  -111.702 
 2570.000000   -26.075  -168.910    14.010   -67.432   -19.798   177.916   -17.681  -113.330 
 2590.000000   -26.130  -170.054    13.984   -69.315   -19.808   176.512   -17.685  -114.824 
 2610.000000   -25.972  -171.396    13.962   -71.187   -19.824   175.012   -17.666  -116.512 
 2630.000000   -25.930  -173.963    13.939   -73.025   -19.831   173.623   -17.616  -118.239 
 2650.000000   -25.947  -176.733    13.921   -74.834   -19.827   172.225   -17.630  -120.177 
 2670.000000   -26.025  -179.670    13.909   -76.660   -19.822   170.761   -17.635  -121.717 
 2690.000000   -26.013   179.404    13.883   -78.524   -19.834   169.322   -17.651  -123.344 
 2710.000000   -25.928   176.759    13.868   -80.352   -19.843   167.923   -17.661  -125.186 
 2730.000000   -26.034   175.398    13.854   -82.224   -19.834   166.456   -17.690  -126.762 
 2750.000000   -26.156   174.267    13.830   -84.114   -19.851   164.903   -17.645  -128.069 
 2770.000000   -26.085   173.567    13.806   -85.926   -19.872   163.511   -17.612  -129.714 
 2790.000000   -26.003   171.431    13.772   -87.748   -19.889   162.214   -17.567  -132.047 
 2810.000000   -26.002   167.810    13.765   -89.563   -19.881   160.733   -17.573  -133.970 
 2830.000000   -25.984   165.429    13.746   -91.424   -19.886   159.236   -17.548  -135.337 
 2850.000000   -25.851   164.238    13.719   -93.245   -19.901   157.880   -17.522  -136.977 
 2870.000000   -25.786   162.461    13.693   -95.053   -19.915   156.470   -17.557  -138.962 
 2890.000000   -25.840   159.261    13.673   -96.868   -19.919   155.029   -17.526  -140.893 
 2910.000000   -25.836   156.966    13.659   -98.669   -19.936   153.703   -17.509  -142.636 
 2930.000000   -25.824   155.247    13.643  -100.506   -19.940   152.138   -17.514  -144.400 
 2950.000000   -25.826   153.581    13.618  -102.309   -19.931   150.750   -17.548  -146.081 
 2970.000000   -25.672   151.098    13.602  -104.117   -19.934   149.447   -17.556  -148.093 
 2990.000000   -25.645   148.531    13.585  -105.954   -19.945   147.931   -17.590  -149.864 
 3010.000000   -25.705   147.078    13.563  -107.816   -19.943   146.519   -17.579  -151.544 
 3030.000000   -25.688   144.298    13.544  -109.660   -19.957   144.993   -17.523  -153.137 
 3050.000000   -25.620   142.192    13.518  -111.467   -19.974   143.599   -17.475  -154.798 
 3070.000000   -25.467   140.026    13.498  -113.244   -19.977   142.226   -17.529  -156.743 
 3090.000000   -25.518   137.883    13.485  -115.033   -19.974   140.847   -17.589  -158.658 
 3110.000000   -25.438   135.285    13.473  -116.820   -19.977   139.445   -17.661  -160.683 
 3130.000000   -25.516   132.637    13.462  -118.676   -19.977   137.984   -17.705  -162.441 
 3150.000000   -25.675   130.076    13.438  -120.557   -19.978   136.449   -17.695  -163.679 
 3170.000000   -25.721   129.508    13.414  -122.406   -19.996   134.970   -17.688  -164.988 
 3190.000000   -25.681   128.596    13.394  -124.229   -19.998   133.532   -17.707  -166.727 
 3210.000000   -25.601   126.428    13.382  -126.069   -20.011   132.034   -17.731  -168.444 
 3230.000000   -25.593   124.531    13.359  -127.873   -20.037   130.605   -17.712  -169.945 
 3250.000000   -25.495   122.993    13.331  -129.703   -20.044   129.288   -17.690  -171.827 
 3270.000000   -25.440   120.865    13.310  -131.469   -20.044   127.864   -17.688  -173.777 
 3290.000000   -25.402   117.895    13.295  -133.303   -20.063   126.385   -17.712  -175.529 
 3310.000000   -25.305   116.299    13.280  -135.086   -20.059   124.969   -17.723  -177.186 
 3330.000000   -25.198   114.812    13.253  -136.907   -20.069   123.571   -17.788  -179.062 
 3350.000000   -25.249   112.559    13.245  -138.720   -20.068   122.160   -17.825   178.932 
 3370.000000   -25.278   110.974    13.224  -140.535   -20.072   120.658   -17.774   177.224 
 3390.000000   -25.283   108.309    13.204  -142.361   -20.088   119.164   -17.767   175.678 
 3410.000000   -25.267   106.484    13.184  -144.129   -20.085   117.760   -17.754   174.189 
 3430.000000   -25.370   105.559    13.162  -146.018   -20.100   116.268   -17.801   172.982 
 3450.000000   -25.385   104.889    13.145  -147.836   -20.111   114.911   -17.846   171.149 
 3470.000000   -25.440   103.187    13.117  -149.692   -20.114   113.343   -17.815   169.413 
 3490.000000   -25.290   101.766    13.100  -151.466   -20.143   111.954   -17.754   167.779 
 3510.000000   -25.367   100.109    13.081  -153.278   -20.151   110.561   -17.753   166.168 
 3530.000000   -25.479    98.877    13.052  -155.146   -20.156   108.936   -17.771   164.881 
 3550.000000   -25.252    98.683    13.008  -156.906   -20.211   107.468   -17.601   163.055 
 3570.000000   -24.838    95.725    13.001  -158.520   -20.230   106.276   -17.670   160.167 
 3590.000000   -24.830    93.360    12.982  -160.306   -20.216   104.976   -17.727   158.278 
 3610.000000   -24.809    91.179    12.968  -162.082   -20.235   103.524   -17.734   156.508 
 3630.000000   -24.756    88.445    12.961  -163.852   -20.236   102.274   -17.790   154.487 
 3650.000000   -24.797    85.345    12.953  -165.665   -20.224   100.784   -17.861   152.814 
 3670.000000   -24.859    83.060    12.935  -167.494   -20.219    99.368   -17.934   151.232 
 3690.000000   -24.956    81.576    12.922  -169.345   -20.233    97.936   -17.970   149.635 
 3710.000000   -25.072    80.582    12.896  -171.188   -20.242    96.391   -17.977   147.992 
 3730.000000   -24.941    78.295    12.868  -173.003   -20.268    94.887   -17.921   146.106 
 3750.000000   -24.825    76.554    12.859  -174.717   -20.267    93.554   -17.902   144.562 
 3770.000000   -24.751    75.605    12.832  -176.511   -20.279    92.280   -17.915   143.050 
 3790.000000   -24.763    72.843    12.821  -178.287   -20.288    90.820   -17.990   141.070 
 3810.000000   -24.718    70.814    12.808   179.920   -20.295    89.321   -18.008   139.335 
 3830.000000   -24.701    67.959    12.798   178.179   -20.307    88.052   -18.042   137.340 
 3850.000000   -24.914    65.156    12.788   176.319   -20.295    86.710   -18.114   135.932 
 3870.000000   -25.124    63.291    12.782   174.431   -20.277    85.160   -18.192   134.664 
 3890.000000   -25.420    63.555    12.746   172.512   -20.291    83.448   -18.161   133.863 
 3910.000000   -25.175    63.312    12.711   170.824   -20.337    81.949   -18.073   132.080 
 3930.000000   -25.180    62.577    12.691   169.044   -20.344    80.533   -18.063   130.351 
 3950.000000   -25.002    61.565    12.672   167.292   -20.362    79.191   -18.044   128.324 
 3970.000000   -24.791    59.820    12.641   165.555   -20.392    77.623   -17.950   126.627 
 3990.000000   -24.661    56.203    12.644   163.863   -20.415    76.508   -18.034   124.290 
 4020.000000   -24.764    52.879    12.623   161.171   -20.399    74.573   -18.222   121.779 
 4060.000000   -25.134    48.693    12.599   157.485   -20.393    71.639   -18.365   118.268 
 4100.000000   -25.218    45.114    12.566   153.885   -20.427    68.651   -18.278   115.192 
 4140.000000   -25.517    41.727    12.538   150.287   -20.430    65.833   -18.367   112.224 
 4180.000000   -25.700    38.469    12.502   146.679   -20.442    62.934   -18.393   109.220 
 4220.000000   -26.044    36.533    12.446   143.050   -20.476    59.907   -18.289   106.751 
 4260.000000   -25.890    34.004    12.407   139.684   -20.524    57.099   -18.260   102.586 
 4300.000000   -25.937    28.091    12.396   136.109   -20.528    54.464   -18.412    98.656 
