! Mini-Circuits  
! S2P DATA File Format
! Type: MMIC Amplifier
! Model: ERA-2SM     Reference Data:RDF-874AA
! Note: All S Parameters are in dB deg format
! TEST CONDITIONS: INPUT POWER = -20dBm, Icc = 32mA, Vd = 3.22V @Temperature = +85degC
! 401 Frequency points
!
# MHz S DB R 50
!    FREQ       dB(S11)   PHS(S11)  dB(S21)   PHS(S21)  dB(S12)   PHS(S12)  dB(S22)   PHS(S22) 
   50.000000   -27.397    -1.109    16.043   174.527   -19.487    -3.843   -51.536   127.966 
   70.000000   -27.579    -4.295    16.041   172.639   -19.527    -5.169   -43.814   127.371 
   90.000000   -27.607    -0.288    16.028   170.542   -19.516    -6.604   -40.077   129.519 
  110.000000   -28.361    -0.795    16.007   168.546   -19.480    -7.680   -38.224   126.882 
  130.000000   -28.675     2.125    16.003   166.661   -19.534    -9.018   -37.485   128.382 
  150.000000   -28.802    -1.759    16.002   164.563   -19.511   -10.532   -36.908   122.500 
  170.000000   -28.781    -3.328    15.998   162.542   -19.488   -11.990   -37.268   121.635 
  190.000000   -28.662    -2.399    15.980   160.586   -19.506   -13.331   -36.777   119.104 
  210.000000   -28.437    -4.373    15.972   158.545   -19.493   -14.585   -36.270   120.544 
  230.000000   -28.534    -5.970    15.963   156.543   -19.510   -16.079   -36.053   115.554 
  250.000000   -28.218    -7.221    15.963   154.545   -19.491   -17.395   -36.110   110.149 
  270.000000   -28.081    -7.676    15.943   152.530   -19.494   -18.833   -35.304   105.345 
  290.000000   -28.108   -10.132    15.934   150.511   -19.505   -20.167   -35.011   102.422 
  310.000000   -28.256   -12.414    15.925   148.512   -19.483   -21.537   -34.508    95.742 
  330.000000   -28.212   -12.979    15.915   146.528   -19.508   -22.849   -33.852    93.068 
  350.000000   -28.134   -13.476    15.896   144.537   -19.495   -24.308   -33.200    91.681 
  370.000000   -28.107   -14.242    15.881   142.564   -19.491   -25.697   -33.062    88.387 
  390.000000   -28.191   -17.323    15.873   140.559   -19.508   -26.981   -32.395    83.458 
  410.000000   -28.004   -18.511    15.859   138.579   -19.512   -28.380   -31.702    82.266 
  430.000000   -28.013   -17.833    15.850   136.620   -19.503   -29.780   -31.225    80.521 
  450.000000   -28.227   -18.527    15.835   134.639   -19.490   -31.239   -30.700    80.407 
  470.000000   -28.307   -18.854    15.818   132.616   -19.493   -32.477   -30.240    78.855 
  490.000000   -28.349   -20.388    15.807   130.691   -19.484   -33.883   -30.270    74.758 
  510.000000   -28.248   -22.055    15.807   128.657   -19.487   -35.366   -29.970    72.131 
  530.000000   -28.126   -22.686    15.777   126.673   -19.481   -36.731   -29.337    71.234 
  550.000000   -28.284   -22.345    15.757   124.707   -19.480   -38.061   -28.872    70.644 
  570.000000   -28.274   -21.831    15.753   122.748   -19.490   -39.521   -28.761    68.790 
  590.000000   -28.136   -21.505    15.743   120.798   -19.490   -40.949   -28.565    66.685 
  610.000000   -27.995   -23.582    15.720   118.810   -19.473   -42.366   -28.216    64.837 
  630.000000   -27.984   -25.334    15.700   116.827   -19.482   -43.740   -28.140    62.802 
  650.000000   -28.102   -26.097    15.702   114.868   -19.476   -45.080   -27.893    59.670 
  670.000000   -27.899   -27.578    15.681   112.924   -19.476   -46.549   -27.630    58.071 
  690.000000   -27.867   -28.421    15.660   110.983   -19.472   -47.954   -27.363    56.690 
  710.000000   -27.837   -27.697    15.646   109.046   -19.464   -49.304   -27.108    54.457 
  730.000000   -27.714   -28.807    15.641   107.081   -19.476   -50.689   -27.006    50.783 
  750.000000   -27.617   -30.834    15.616   105.118   -19.469   -52.056   -26.585    49.177 
  770.000000   -27.619   -30.766    15.598   103.182   -19.471   -53.479   -26.217    47.571 
  790.000000   -27.648   -31.625    15.595   101.233   -19.486   -54.943   -25.980    45.232 
  810.000000   -27.555   -33.236    15.578    99.270   -19.481   -56.375   -25.784    44.112 
  830.000000   -27.509   -35.168    15.558    97.309   -19.473   -57.719   -25.562    42.659 
  850.000000   -27.500   -35.343    15.542    95.399   -19.463   -59.186   -25.389    40.336 
  870.000000   -27.545   -35.220    15.530    93.447   -19.486   -60.551   -25.108    38.178 
  890.000000   -27.213   -37.042    15.506    91.488   -19.485   -61.833   -24.779    35.776 
  910.000000   -27.208   -37.967    15.489    89.582   -19.477   -63.291   -24.531    35.001 
  930.000000   -27.283   -37.115    15.474    87.677   -19.474   -64.644   -24.407    33.954 
  950.000000   -27.171   -38.056    15.462    85.716   -19.473   -66.065   -24.325    31.348 
  970.000000   -27.094   -41.239    15.442    83.788   -19.478   -67.466   -24.164    28.925 
  990.000000   -27.112   -42.041    15.427    81.842   -19.478   -68.895   -24.012    27.453 
 1010.000000   -27.064   -42.342    15.409    79.928   -19.477   -70.293   -23.778    25.404 
 1030.000000   -26.969   -43.893    15.394    77.987   -19.480   -71.649   -23.603    23.890 
 1050.000000   -26.860   -45.596    15.384    76.040   -19.469   -73.105   -23.488    22.231 
 1070.000000   -26.797   -45.449    15.368    74.091   -19.484   -74.498   -23.272    20.371 
 1090.000000   -26.724   -46.306    15.343    72.200   -19.475   -75.891   -23.117    18.157 
 1110.000000   -26.705   -48.064    15.321    70.266   -19.476   -77.308   -22.948    16.170 
 1130.000000   -26.707   -50.380    15.315    68.362   -19.467   -78.765   -22.851    13.611 
 1150.000000   -26.744   -51.637    15.303    66.433   -19.470   -80.140   -22.763    11.638 
 1170.000000   -26.753   -52.839    15.277    64.514   -19.486   -81.531   -22.533    10.681 
 1190.000000   -26.565   -53.481    15.251    62.607   -19.482   -82.966   -22.391     8.852 
 1210.000000   -26.413   -55.098    15.242    60.698   -19.481   -84.352   -22.279     6.194 
 1230.000000   -26.447   -56.860    15.232    58.778   -19.485   -85.741   -22.145     4.543 
 1250.000000   -26.318   -58.638    15.206    56.867   -19.475   -87.154   -21.949     3.120 
 1270.000000   -26.332   -59.392    15.185    54.948   -19.474   -88.576   -21.837     1.310 
 1290.000000   -26.369   -60.813    15.181    53.047   -19.486   -89.982   -21.770    -0.929 
 1310.000000   -26.278   -62.249    15.160    51.139   -19.493   -91.403   -21.627    -2.786 
 1330.000000   -26.232   -64.292    15.137    49.259   -19.489   -92.803   -21.539    -4.418 
 1350.000000   -26.327   -64.931    15.117    47.326   -19.483   -94.261   -21.374    -6.287 
 1370.000000   -26.128   -65.692    15.103    45.392   -19.502   -95.585   -21.189    -8.468 
 1390.000000   -26.133   -69.424    15.086    43.515   -19.493   -96.998   -21.123   -10.552 
 1410.000000   -26.156   -70.313    15.068    41.619   -19.492   -98.473   -21.029   -11.816 
 1430.000000   -26.251   -70.964    15.046    39.731   -19.497   -99.882   -20.928   -13.205 
 1450.000000   -26.147   -72.312    15.031    37.782   -19.508  -101.347   -20.787   -14.446 
 1470.000000   -25.934   -75.007    15.010    35.888   -19.515  -102.574   -20.662   -16.893 
 1490.000000   -25.937   -76.673    14.996    34.026   -19.500  -104.049   -20.627   -18.936 
 1510.000000   -25.952   -77.746    14.976    32.135   -19.512  -105.488   -20.529   -20.570 
 1530.000000   -25.897   -79.183    14.963    30.213   -19.516  -106.854   -20.418   -22.197 
 1550.000000   -25.905   -81.721    14.937    28.336   -19.513  -108.316   -20.316   -23.832 
 1570.000000   -26.033   -80.711    14.922    26.432   -19.516  -109.728   -20.229   -25.328 
 1590.000000   -25.872   -82.476    14.899    24.519   -19.529  -111.093   -20.121   -27.784 
 1610.000000   -25.883   -85.838    14.886    22.648   -19.519  -112.494   -20.099   -29.369 
 1630.000000   -25.844   -87.541    14.863    20.727   -19.531  -113.980   -19.984   -30.723 
 1650.000000   -25.705   -89.361    14.836    18.874   -19.525  -115.342   -19.938   -32.883 
 1670.000000   -25.635   -91.512    14.828    17.015   -19.528  -116.704   -19.892   -34.579 
 1690.000000   -25.657   -92.645    14.808    15.126   -19.531  -118.101   -19.832   -36.383 
 1710.000000   -25.590   -94.073    14.791    13.244   -19.535  -119.548   -19.745   -38.325 
 1730.000000   -25.696   -95.310    14.768    11.371   -19.532  -120.953   -19.662   -40.152 
 1750.000000   -25.764   -97.427    14.742     9.486   -19.534  -122.393   -19.567   -41.884 
 1770.000000   -25.801   -99.466    14.735     7.585   -19.537  -123.769   -19.564   -43.967 
 1790.000000   -25.725  -100.918    14.720     5.712   -19.544  -125.214   -19.481   -45.802 
 1810.000000   -25.679  -103.361    14.689     3.830   -19.548  -126.635   -19.374   -47.274 
 1830.000000   -25.716  -105.229    14.671     1.986   -19.540  -127.995   -19.322   -48.958 
 1850.000000   -25.770  -106.618    14.658     0.092   -19.553  -129.411   -19.273   -50.878 
 1870.000000   -25.709  -108.322    14.639    -1.781   -19.566  -130.841   -19.205   -52.374 
 1890.000000   -25.717  -110.534    14.615    -3.642   -19.557  -132.254   -19.085   -53.757 
 1910.000000   -25.751  -112.014    14.591    -5.511   -19.550  -133.651   -19.056   -55.540 
 1930.000000   -25.822  -113.904    14.585    -7.388   -19.563  -135.023   -19.019   -57.325 
 1950.000000   -25.825  -115.995    14.565    -9.274   -19.567  -136.535   -18.968   -59.057 
 1970.000000   -25.773  -117.308    14.543   -11.141   -19.579  -137.896   -18.917   -60.673 
 1990.000000   -25.765  -119.254    14.526   -13.041   -19.575  -139.321   -18.844   -62.274 
 2010.000000   -25.741  -120.317    14.499   -14.885   -19.574  -140.710   -18.744   -63.820 
 2030.000000   -25.790  -122.211    14.485   -16.769   -19.593  -142.120   -18.713   -65.812 
 2050.000000   -25.843  -124.140    14.472   -18.650   -19.591  -143.532   -18.648   -67.623 
 2070.000000   -25.810  -126.675    14.442   -20.495   -19.594  -144.994   -18.611   -69.113 
 2090.000000   -25.852  -128.511    14.423   -22.363   -19.594  -146.359   -18.591   -70.886 
 2110.000000   -25.793  -130.025    14.412   -24.214   -19.603  -147.774   -18.601   -72.717 
 2130.000000   -25.728  -132.385    14.395   -26.081   -19.613  -149.274   -18.529   -74.505 
 2150.000000   -25.634  -134.240    14.360   -27.969   -19.611  -150.633   -18.478   -76.153 
 2170.000000   -25.605  -135.894    14.342   -29.808   -19.627  -152.021   -18.425   -78.028 
 2190.000000   -25.605  -137.975    14.326   -31.648   -19.624  -153.566   -18.397   -80.121 
 2210.000000   -25.713  -141.260    14.313   -33.532   -19.626  -154.835   -18.410   -81.820 
 2230.000000   -25.596  -142.746    14.291   -35.378   -19.629  -156.352   -18.336   -83.445 
 2250.000000   -25.601  -143.656    14.266   -37.259   -19.632  -157.790   -18.290   -85.011 
 2270.000000   -25.526  -145.400    14.239   -39.115   -19.657  -159.174   -18.238   -86.484 
 2290.000000   -25.522  -148.688    14.227   -40.962   -19.644  -160.518   -18.228   -88.622 
 2310.000000   -25.566  -150.506    14.207   -42.776   -19.651  -161.876   -18.225   -90.654 
 2330.000000   -25.460  -153.028    14.182   -44.611   -19.659  -163.369   -18.182   -92.115 
 2350.000000   -25.543  -154.362    14.163   -46.484   -19.657  -164.763   -18.157   -93.551 
 2370.000000   -25.626  -156.131    14.148   -48.322   -19.656  -166.187   -18.170   -95.608 
 2390.000000   -25.637  -158.692    14.133   -50.198   -19.671  -167.649   -18.123   -97.223 
 2410.000000   -25.686  -161.191    14.100   -52.065   -19.679  -169.073   -18.067   -98.559 
 2430.000000   -25.614  -162.639    14.080   -53.922   -19.688  -170.501   -18.015  -100.475 
 2450.000000   -25.579  -165.015    14.065   -55.718   -19.702  -171.842   -18.026  -102.693 
 2470.000000   -25.472  -167.762    14.042   -57.585   -19.710  -173.217   -18.016  -104.380 
 2490.000000   -25.373  -169.390    14.020   -59.414   -19.701  -174.669   -18.000  -106.093 
 2510.000000   -25.455  -171.037    14.000   -61.207   -19.694  -176.081   -18.015  -107.782 
 2530.000000   -25.467  -173.723    13.984   -63.070   -19.703  -177.464   -18.022  -109.419 
 2550.000000   -25.451  -176.796    13.970   -64.907   -19.713  -178.861   -18.032  -111.283 
 2570.000000   -25.463  -179.144    13.957   -66.733   -19.705   179.595   -18.029  -113.059 
 2590.000000   -25.388   179.461    13.927   -68.595   -19.724   178.165   -17.992  -114.402 
 2610.000000   -25.221   178.485    13.899   -70.449   -19.733   176.757   -17.931  -115.780 
 2630.000000   -25.220   176.337    13.884   -72.262   -19.745   175.507   -17.927  -117.999 
 2650.000000   -25.246   173.370    13.870   -74.068   -19.741   174.053   -17.978  -119.831 
 2670.000000   -25.281   170.093    13.852   -75.906   -19.739   172.542   -17.956  -121.175 
 2690.000000   -25.329   169.583    13.830   -77.748   -19.744   171.106   -17.963  -122.902 
 2710.000000   -25.299   166.923    13.813   -79.572   -19.744   169.753   -18.006  -124.800 
 2730.000000   -25.404   164.868    13.801   -81.457   -19.762   168.293   -18.032  -126.268 
 2750.000000   -25.478   164.037    13.769   -83.362   -19.772   166.758   -17.983  -127.585 
 2770.000000   -25.362   163.087    13.743   -85.141   -19.778   165.377   -17.947  -129.371 
 2790.000000   -25.295   159.514    13.722   -86.947   -19.803   164.067   -17.930  -131.493 
 2810.000000   -25.302   157.202    13.713   -88.782   -19.793   162.635   -17.922  -133.212 
 2830.000000   -25.238   155.008    13.692   -90.648   -19.797   161.174   -17.905  -134.899 
 2850.000000   -25.143   153.910    13.666   -92.463   -19.814   159.758   -17.859  -136.511 
 2870.000000   -25.142   151.855    13.637   -94.263   -19.823   158.354   -17.853  -138.184 
 2890.000000   -25.237   149.318    13.618   -96.068   -19.844   156.983   -17.870  -140.452 
 2910.000000   -25.204   145.962    13.606   -97.861   -19.840   155.588   -17.887  -142.392 
 2930.000000   -25.129   143.136    13.583   -99.700   -19.841   154.139   -17.887  -143.938 
 2950.000000   -25.098   141.849    13.558  -101.504   -19.847   152.668   -17.906  -145.592 
 2970.000000   -25.032   139.980    13.546  -103.318   -19.856   151.327   -17.922  -147.590 
 2990.000000   -24.947   137.446    13.527  -105.140   -19.857   149.889   -17.928  -149.342 
 3010.000000   -24.976   135.900    13.505  -106.976   -19.877   148.509   -17.879  -150.931 
 3030.000000   -24.988   133.537    13.489  -108.812   -19.880   147.046   -17.889  -152.799 
 3050.000000   -24.940   130.858    13.466  -110.627   -19.890   145.720   -17.876  -154.571 
 3070.000000   -24.759   127.993    13.442  -112.416   -19.892   144.278   -17.902  -156.262 
 3090.000000   -24.786   126.389    13.432  -114.205   -19.891   142.895   -17.975  -158.244 
 3110.000000   -24.723   124.130    13.418  -115.991   -19.899   141.465   -18.050  -160.301 
 3130.000000   -24.753   121.254    13.406  -117.847   -19.909   140.059   -18.077  -162.171 
 3150.000000   -24.847   118.815    13.380  -119.730   -19.905   138.573   -18.055  -163.518 
 3170.000000   -24.893   118.005    13.359  -121.559   -19.910   137.138   -18.028  -165.088 
 3190.000000   -24.856   116.068    13.336  -123.379   -19.932   135.621   -18.022  -166.823 
 3210.000000   -24.781   113.684    13.324  -125.198   -19.935   134.250   -18.067  -168.665 
 3230.000000   -24.736   111.389    13.299  -126.995   -19.952   132.778   -18.072  -170.513 
 3250.000000   -24.608   109.408    13.277  -128.805   -19.961   131.368   -18.066  -172.235 
 3270.000000   -24.610   107.479    13.253  -130.630   -19.967   129.964   -18.005  -173.840 
 3290.000000   -24.530   105.460    13.237  -132.426   -19.977   128.580   -18.042  -175.876 
 3310.000000   -24.378   103.339    13.220  -134.210   -19.986   127.170   -18.069  -177.777 
 3330.000000   -24.243   101.095    13.195  -136.022   -19.997   125.726   -18.113  -179.514 
 3350.000000   -24.317    99.325    13.185  -137.853   -19.984   124.235   -18.139   178.479 
 3370.000000   -24.340    98.015    13.165  -139.651   -20.012   122.870   -18.105   176.622 
 3390.000000   -24.305    95.021    13.146  -141.463   -20.017   121.475   -18.084   175.108 
 3410.000000   -24.321    93.676    13.127  -143.263   -20.014   119.972   -18.073   173.759 
 3430.000000   -24.362    92.266    13.101  -145.105   -20.027   118.577   -18.115   172.362 
 3450.000000   -24.436    90.729    13.086  -146.957   -20.042   117.079   -18.148   170.878 
 3470.000000   -24.417    89.289    13.056  -148.753   -20.051   115.654   -18.108   168.704 
 3490.000000   -24.327    87.803    13.044  -150.551   -20.074   114.273   -18.115   166.800 
 3510.000000   -24.367    85.808    13.018  -152.366   -20.074   112.768   -18.087   165.545 
 3530.000000   -24.380    85.135    12.979  -154.215   -20.113   111.301   -18.013   164.222 
 3550.000000   -24.102    83.868    12.958  -155.867   -20.153   110.003   -17.984   161.461 
 3570.000000   -23.908    80.769    12.952  -157.611   -20.147   108.657   -18.061   158.954 
 3590.000000   -23.834    78.342    12.928  -159.398   -20.142   107.292   -18.084   157.189 
 3610.000000   -23.824    76.540    12.913  -161.159   -20.159   105.914   -18.087   155.331 
 3630.000000   -23.834    74.342    12.908  -162.960   -20.158   104.589   -18.123   153.331 
 3650.000000   -23.778    71.145    12.894  -164.785   -20.167   103.190   -18.171   151.604 
 3670.000000   -23.762    69.310    12.874  -166.595   -20.165   101.708   -18.211   149.972 
 3690.000000   -23.765    68.027    12.856  -168.424   -20.182   100.260   -18.212   148.032 
 3710.000000   -23.788    66.032    12.833  -170.201   -20.195    98.907   -18.202   146.271 
 3730.000000   -23.802    63.570    12.809  -172.051   -20.196    97.412   -18.169   144.470 
 3750.000000   -23.711    61.618    12.802  -173.757   -20.223    96.031   -18.154   142.563 
 3770.000000   -23.693    60.167    12.773  -175.592   -20.227    94.617   -18.155   141.364 
 3790.000000   -23.608    57.846    12.757  -177.345   -20.234    93.213   -18.159   139.589 
 3810.000000   -23.523    55.381    12.753  -179.115   -20.237    91.982   -18.202   137.454 
 3830.000000   -23.549    52.393    12.738   179.079   -20.240    90.528   -18.229   135.788 
 3850.000000   -23.755    49.990    12.725   177.222   -20.239    89.064   -18.269   134.286 
 3870.000000   -23.987    47.918    12.714   175.322   -20.225    87.630   -18.341   133.104 
 3890.000000   -24.202    47.888    12.675   173.468   -20.251    85.940   -18.257   132.084 
 3910.000000   -23.965    47.224    12.644   171.816   -20.283    84.558   -18.187   129.879 
 3930.000000   -23.906    45.297    12.631   170.071   -20.309    83.217   -18.192   128.012 
 3950.000000   -23.877    43.671    12.611   168.274   -20.303    81.786   -18.154   126.609 
 3970.000000   -23.730    42.348    12.587   166.547   -20.345    80.406   -18.110   124.681 
 3990.000000   -23.597    39.665    12.586   164.812   -20.344    79.174   -18.172   122.378 
 4020.000000   -23.679    36.198    12.561   162.089   -20.341    77.088   -18.303   120.116 
 4060.000000   -23.982    31.363    12.529   158.441   -20.346    74.193   -18.397   116.792 
 4100.000000   -24.056    27.130    12.496   154.852   -20.369    71.336   -18.340   113.333 
 4140.000000   -24.143    23.148    12.469   151.282   -20.389    68.546   -18.408   110.089 
 4180.000000   -24.324    18.927    12.428   147.643   -20.383    65.580   -18.438   107.786 
 4220.000000   -24.588    17.871    12.363   144.091   -20.443    62.513   -18.213   105.068 
 4260.000000   -24.644    14.711    12.331   140.632   -20.488    59.868   -18.304   100.722 
 4300.000000   -24.484     8.101    12.323   137.052   -20.493    57.296   -18.439    96.615 
