! Mini-Circuits  
! S2P DATA File Format
! Type: MMIC Amplifier
! Model: ERA-2SM     Reference Data:RDF-874AA
! Note: All S Parameters are in dB deg format
! TEST CONDITIONS: INPUT POWER = -20dBm, Icc = 48mA, Vd = 3.45V @Temperature = +25degC
! 401 Frequency points
!
# MHz S DB R 50
!    FREQ       dB(S11)   PHS(S11)  dB(S21)   PHS(S21)  dB(S12)   PHS(S12)  dB(S22)   PHS(S22) 
   50.000000   -40.525    20.847    16.486   174.412   -19.884    -3.711   -27.650   170.188 
   70.000000   -41.344    18.891    16.481   172.516   -19.897    -5.277   -27.586   165.658 
   90.000000   -40.570    32.714    16.474   170.421   -19.900    -6.630   -27.106   162.288 
  110.000000   -41.831    32.575    16.452   168.425   -19.927    -7.863   -27.052   158.745 
  130.000000   -40.098    44.918    16.445   166.521   -19.886    -9.374   -26.836   157.185 
  150.000000   -40.418    44.315    16.439   164.438   -19.896   -10.779   -26.671   153.323 
  170.000000   -40.531    43.908    16.430   162.401   -19.877   -12.135   -26.631   150.968 
  190.000000   -38.627    44.824    16.424   160.439   -19.906   -13.319   -26.577   147.530 
  210.000000   -37.999    41.142    16.419   158.394   -19.895   -14.647   -26.562   145.196 
  230.000000   -38.632    45.116    16.395   156.389   -19.884   -16.193   -26.248   142.711 
  250.000000   -38.134    38.898    16.389   154.359   -19.897   -17.382   -26.342   140.128 
  270.000000   -37.426    39.136    16.381   152.378   -19.899   -18.895   -26.317   137.037 
  290.000000   -37.231    31.864    16.370   150.330   -19.900   -20.171   -26.246   134.859 
  310.000000   -37.046    30.586    16.354   148.321   -19.905   -21.566   -26.007   131.512 
  330.000000   -36.645    37.557    16.341   146.354   -19.913   -23.006   -25.788   128.025 
  350.000000   -36.043    39.008    16.330   144.354   -19.899   -24.280   -25.773   125.582 
  370.000000   -35.507    36.968    16.317   142.367   -19.900   -25.866   -25.794   122.144 
  390.000000   -36.054    35.232    16.307   140.343   -19.878   -27.083   -25.656   118.570 
  410.000000   -35.786    36.153    16.289   138.359   -19.887   -28.470   -25.379   115.981 
  430.000000   -35.183    35.806    16.275   136.407   -19.886   -29.795   -25.206   113.796 
  450.000000   -34.964    34.537    16.267   134.407   -19.891   -31.234   -25.000   111.678 
  470.000000   -34.574    35.773    16.256   132.385   -19.899   -32.635   -24.847   109.011 
  490.000000   -34.159    35.317    16.229   130.436   -19.888   -33.891   -24.787   106.467 
  510.000000   -34.033    34.104    16.224   128.407   -19.874   -35.416   -24.564   103.564 
  530.000000   -33.628    34.122    16.205   126.434   -19.882   -36.862   -24.397   100.128 
  550.000000   -33.292    33.352    16.193   124.451   -19.885   -38.160   -24.207    97.913 
  570.000000   -32.861    34.169    16.171   122.506   -19.890   -39.482   -23.984    96.314 
  590.000000   -32.279    34.167    16.160   120.545   -19.885   -41.008   -23.871    94.179 
  610.000000   -32.158    31.389    16.147   118.548   -19.872   -42.441   -23.796    91.235 
  630.000000   -32.070    28.299    16.127   116.566   -19.884   -43.775   -23.736    88.854 
  650.000000   -31.952    27.263    16.120   114.588   -19.878   -45.150   -23.516    86.364 
  670.000000   -31.616    26.514    16.097   112.644   -19.872   -46.606   -23.387    83.935 
  690.000000   -31.478    26.444    16.082   110.679   -19.869   -47.978   -23.308    81.518 
  710.000000   -31.008    25.127    16.066   108.751   -19.861   -49.384   -23.174    78.986 
  730.000000   -30.880    22.789    16.055   106.778   -19.882   -50.797   -23.072    76.412 
  750.000000   -30.792    22.211    16.039   104.822   -19.864   -52.133   -22.900    73.453 
  770.000000   -30.518    21.043    16.025   102.864   -19.867   -53.572   -22.716    70.764 
  790.000000   -30.352    19.688    16.006   100.930   -19.863   -54.910   -22.470    68.892 
  810.000000   -30.235    18.881    15.985    98.970   -19.869   -56.385   -22.333    67.191 
  830.000000   -30.059    18.060    15.978    96.999   -19.876   -57.815   -22.221    64.633 
  850.000000   -29.796    15.874    15.958    95.069   -19.866   -59.156   -22.110    62.222 
  870.000000   -29.627    14.956    15.941    93.116   -19.868   -60.655   -21.880    59.961 
  890.000000   -29.236    13.967    15.915    91.146   -19.869   -61.894   -21.660    57.021 
  910.000000   -29.138    13.324    15.901    89.233   -19.871   -63.338   -21.566    55.024 
  930.000000   -28.874    12.113    15.882    87.310   -19.872   -64.760   -21.431    53.623 
  950.000000   -28.635     9.976    15.868    85.375   -19.860   -66.128   -21.339    51.555 
  970.000000   -28.677     8.057    15.846    83.429   -19.860   -67.584   -21.236    49.062 
  990.000000   -28.507     7.011    15.832    81.504   -19.862   -69.038   -21.155    47.085 
 1010.000000   -28.260     5.436    15.818    79.567   -19.864   -70.332   -20.972    44.604 
 1030.000000   -28.133     3.821    15.801    77.634   -19.863   -71.770   -20.855    42.668 
 1050.000000   -27.961     2.770    15.779    75.678   -19.864   -73.203   -20.762    40.921 
 1070.000000   -27.771     2.654    15.766    73.725   -19.883   -74.694   -20.569    39.239 
 1090.000000   -27.551    -0.418    15.744    71.838   -19.871   -75.945   -20.552    36.223 
 1110.000000   -27.529    -2.634    15.727    69.892   -19.866   -77.377   -20.469    34.050 
 1130.000000   -27.471    -4.108    15.711    68.001   -19.859   -78.822   -20.351    31.898 
 1150.000000   -27.363    -4.961    15.694    66.084   -19.852   -80.191   -20.250    30.047 
 1170.000000   -27.266    -6.156    15.679    64.158   -19.871   -81.636   -20.150    28.057 
 1190.000000   -26.980    -7.974    15.656    62.212   -19.874   -83.020   -20.043    25.835 
 1210.000000   -26.870   -10.317    15.634    60.313   -19.868   -84.407   -19.930    23.588 
 1230.000000   -26.886   -11.345    15.619    58.393   -19.870   -85.817   -19.870    21.548 
 1250.000000   -26.797   -13.170    15.603    56.482   -19.867   -87.250   -19.769    19.415 
 1270.000000   -26.736   -15.019    15.583    54.574   -19.861   -88.672   -19.682    17.488 
 1290.000000   -26.712   -16.888    15.566    52.671   -19.866   -90.094   -19.574    15.610 
 1310.000000   -26.470   -17.344    15.546    50.739   -19.876   -91.494   -19.471    13.591 
 1330.000000   -26.358   -19.163    15.527    48.861   -19.870   -92.856   -19.439    11.373 
 1350.000000   -26.398   -20.664    15.509    46.956   -19.878   -94.307   -19.320     9.373 
 1370.000000   -26.165   -22.180    15.491    44.990   -19.883   -95.683   -19.159     7.536 
 1390.000000   -26.248   -24.870    15.466    43.132   -19.876   -97.057   -19.114     5.149 
 1410.000000   -26.207   -25.732    15.453    41.231   -19.872   -98.522   -19.060     3.554 
 1430.000000   -26.159   -27.194    15.434    39.335   -19.868   -99.930   -18.989     1.826 
 1450.000000   -26.012   -28.588    15.419    37.413   -19.879  -101.427   -18.876     0.136 
 1470.000000   -25.800   -30.322    15.391    35.464   -19.893  -102.714   -18.723    -1.900 
 1490.000000   -25.805   -32.294    15.368    33.616   -19.879  -104.122   -18.719    -4.051 
 1510.000000   -25.813   -34.336    15.351    31.730   -19.884  -105.582   -18.687    -5.862 
 1530.000000   -25.737   -35.698    15.335    29.830   -19.867  -106.986   -18.615    -7.606 
 1550.000000   -25.766   -38.170    15.321    27.943   -19.882  -108.357   -18.578    -9.766 
 1570.000000   -25.664   -38.617    15.305    26.041   -19.889  -109.847   -18.536   -11.405 
 1590.000000   -25.364   -40.959    15.272    24.081   -19.904  -111.163   -18.357   -13.581 
 1610.000000   -25.478   -43.307    15.258    22.259   -19.894  -112.575   -18.370   -15.532 
 1630.000000   -25.427   -44.166    15.242    20.325   -19.907  -114.066   -18.304   -17.295 
 1650.000000   -25.319   -47.315    15.212    18.447   -19.910  -115.304   -18.231   -19.727 
 1670.000000   -25.393   -49.774    15.201    16.615   -19.883  -116.745   -18.226   -21.576 
 1690.000000   -25.377   -50.270    15.174    14.735   -19.896  -118.212   -18.177   -23.279 
 1710.000000   -25.293   -52.352    15.153    12.845   -19.890  -119.643   -18.090   -25.233 
 1730.000000   -25.355   -54.284    15.139    10.964   -19.892  -121.021   -18.054   -27.363 
 1750.000000   -25.403   -56.018    15.117     9.081   -19.890  -122.370   -18.008   -29.412 
 1770.000000   -25.397   -57.448    15.097     7.207   -19.899  -123.860   -17.961   -31.219 
 1790.000000   -25.305   -58.744    15.079     5.339   -19.906  -125.272   -17.872   -32.980 
 1810.000000   -25.317   -60.710    15.056     3.451   -19.904  -126.649   -17.846   -35.045 
 1830.000000   -25.404   -62.917    15.039     1.615   -19.890  -128.084   -17.812   -36.797 
 1850.000000   -25.441   -64.959    15.020    -0.289   -19.895  -129.494   -17.760   -38.405 
 1870.000000   -25.276   -66.247    14.998    -2.169   -19.902  -130.850   -17.708   -40.105 
 1890.000000   -25.230   -67.844    14.979    -4.036   -19.908  -132.342   -17.654   -41.872 
 1910.000000   -25.231   -69.901    14.958    -5.889   -19.907  -133.758   -17.636   -43.771 
 1930.000000   -25.275   -71.771    14.945    -7.766   -19.917  -135.132   -17.610   -45.549 
 1950.000000   -25.236   -73.061    14.920    -9.639   -19.897  -136.625   -17.584   -47.388 
 1970.000000   -25.177   -74.665    14.898   -11.524   -19.918  -138.057   -17.559   -49.091 
 1990.000000   -25.217   -77.530    14.885   -13.400   -19.913  -139.455   -17.516   -50.977 
 2010.000000   -25.082   -79.405    14.861   -15.289   -19.919  -140.844   -17.464   -53.044 
 2030.000000   -25.077   -80.955    14.842   -17.141   -19.929  -142.326   -17.420   -54.858 
 2050.000000   -25.097   -82.145    14.820   -19.035   -19.927  -143.741   -17.361   -56.508 
 2070.000000   -25.083   -84.334    14.800   -20.864   -19.925  -145.049   -17.351   -58.607 
 2090.000000   -25.171   -86.720    14.782   -22.742   -19.928  -146.450   -17.336   -60.651 
 2110.000000   -25.187   -88.891    14.762   -24.598   -19.928  -147.942   -17.317   -62.415 
 2130.000000   -25.152   -90.586    14.744   -26.486   -19.946  -149.348   -17.259   -64.223 
 2150.000000   -24.992   -92.344    14.718   -28.349   -19.950  -150.822   -17.239   -66.181 
 2170.000000   -24.999   -95.205    14.695   -30.204   -19.958  -152.093   -17.194   -68.115 
 2190.000000   -25.089   -97.298    14.672   -32.034   -19.949  -153.562   -17.155   -70.063 
 2210.000000   -25.226   -98.912    14.653   -33.907   -19.957  -154.997   -17.170   -71.768 
 2230.000000   -25.118  -100.842    14.636   -35.762   -19.961  -156.506   -17.103   -73.627 
 2250.000000   -25.080  -102.479    14.615   -37.643   -19.956  -157.881   -17.068   -75.294 
 2270.000000   -24.961  -104.465    14.586   -39.493   -19.975  -159.202   -17.026   -77.056 
 2290.000000   -25.040  -107.492    14.566   -41.303   -19.975  -160.572   -17.014   -79.123 
 2310.000000   -25.063  -108.954    14.546   -43.141   -19.965  -162.036   -17.014   -80.910 
 2330.000000   -25.022  -111.681    14.528   -44.963   -19.971  -163.488   -17.002   -82.894 
 2350.000000   -25.078  -113.270    14.509   -46.801   -19.985  -164.821   -17.006   -84.562 
 2370.000000   -25.168  -114.923    14.487   -48.672   -19.984  -166.354   -16.992   -86.314 
 2390.000000   -25.166  -116.206    14.465   -50.545   -19.986  -167.806   -16.937   -87.986 
 2410.000000   -25.240  -118.299    14.443   -52.383   -19.997  -169.187   -16.916   -89.822 
 2430.000000   -25.257  -120.993    14.423   -54.249   -19.988  -170.623   -16.880   -91.802 
 2450.000000   -25.245  -123.278    14.399   -56.056   -20.002  -171.953   -16.864   -93.868 
 2470.000000   -25.199  -125.569    14.375   -57.904   -19.997  -173.360   -16.869   -95.603 
 2490.000000   -25.142  -127.653    14.357   -59.731   -20.000  -174.770   -16.882   -97.374 
 2510.000000   -25.237  -129.952    14.337   -61.530   -20.011  -176.100   -16.888   -99.176 
 2530.000000   -25.302  -132.064    14.322   -63.379   -20.007  -177.546   -16.879  -100.897 
 2550.000000   -25.287  -134.447    14.296   -65.221   -20.023  -179.030   -16.887  -102.777 
 2570.000000   -25.326  -136.911    14.282   -67.025   -20.023   179.526   -16.880  -104.525 
 2590.000000   -25.330  -138.622    14.263   -68.885   -20.020   178.028   -16.877  -106.231 
 2610.000000   -25.167  -140.570    14.241   -70.755   -20.030   176.661   -16.851  -107.792 
 2630.000000   -25.131  -142.694    14.211   -72.601   -20.044   175.312   -16.812  -109.543 
 2650.000000   -25.235  -145.214    14.195   -74.387   -20.044   173.898   -16.831  -111.540 
 2670.000000   -25.396  -147.744    14.185   -76.213   -20.032   172.452   -16.868  -113.175 
 2690.000000   -25.325  -149.352    14.159   -78.058   -20.036   170.999   -16.862  -114.767 
 2710.000000   -25.320  -152.103    14.136   -79.887   -20.046   169.646   -16.873  -116.524 
 2730.000000   -25.365  -152.765    14.124   -81.735   -20.035   168.021   -16.894  -118.073 
 2750.000000   -25.356  -153.443    14.098   -83.637   -20.051   166.601   -16.881  -119.662 
 2770.000000   -25.281  -155.163    14.078   -85.446   -20.068   165.196   -16.853  -121.357 
 2790.000000   -25.244  -157.881    14.043   -87.237   -20.089   163.863   -16.800  -123.542 
 2810.000000   -25.311  -160.209    14.026   -89.043   -20.070   162.487   -16.814  -125.334 
 2830.000000   -25.294  -162.681    14.008   -90.927   -20.079   160.990   -16.805  -126.973 
 2850.000000   -25.229  -165.069    13.989   -92.725   -20.095   159.607   -16.794  -128.761 
 2870.000000   -25.160  -167.015    13.963   -94.509   -20.110   158.202   -16.798  -130.572 
 2890.000000   -25.236  -168.999    13.932   -96.322   -20.096   156.663   -16.790  -132.482 
 2910.000000   -25.288  -171.410    13.918   -98.100   -20.112   155.420   -16.796  -134.384 
 2930.000000   -25.306  -173.732    13.909   -99.933   -20.107   153.923   -16.816  -136.175 
 2950.000000   -25.280  -175.389    13.879  -101.741   -20.117   152.524   -16.835  -137.784 
 2970.000000   -25.195  -178.245    13.858  -103.535   -20.120   151.154   -16.835  -139.714 
 2990.000000   -25.207   179.700    13.842  -105.361   -20.113   149.712   -16.888  -141.391 
 3010.000000   -25.257   177.856    13.827  -107.213   -20.121   148.309   -16.878  -143.166 
 3030.000000   -25.260   175.799    13.796  -109.051   -20.132   146.813   -16.831  -144.802 
 3050.000000   -25.227   173.555    13.771  -110.851   -20.135   145.460   -16.800  -146.640 
 3070.000000   -25.168   170.503    13.754  -112.620   -20.152   144.115   -16.858  -148.574 
 3090.000000   -25.233   168.444    13.743  -114.395   -20.144   142.670   -16.923  -150.419 
 3110.000000   -25.227   165.803    13.724  -116.188   -20.146   141.225   -16.988  -152.200 
 3130.000000   -25.312   164.069    13.713  -118.042   -20.144   139.829   -17.027  -153.936 
 3150.000000   -25.501   162.307    13.692  -119.879   -20.152   138.361   -17.037  -155.365 
 3170.000000   -25.455   160.834    13.676  -121.730   -20.151   136.821   -17.027  -156.877 
 3190.000000   -25.377   159.302    13.652  -123.543   -20.164   135.357   -17.027  -158.418 
 3210.000000   -25.295   158.035    13.630  -125.372   -20.179   133.988   -17.046  -160.080 
 3230.000000   -25.288   155.934    13.601  -127.177   -20.192   132.546   -17.050  -161.760 
 3250.000000   -25.217   153.478    13.582  -128.982   -20.192   131.128   -17.042  -163.639 
 3270.000000   -25.191   151.287    13.561  -130.750   -20.220   129.803   -17.031  -165.584 
 3290.000000   -25.176   148.941    13.537  -132.575   -20.217   128.335   -17.059  -167.274 
 3310.000000   -25.079   146.961    13.523  -134.341   -20.215   126.849   -17.097  -168.969 
 3330.000000   -25.000   144.847    13.504  -136.151   -20.228   125.561   -17.154  -170.871 
 3350.000000   -25.077   142.569    13.491  -137.958   -20.225   124.101   -17.195  -172.757 
 3370.000000   -25.078   141.023    13.467  -139.774   -20.241   122.575   -17.150  -174.355 
 3390.000000   -25.089   139.051    13.446  -141.605   -20.232   121.162   -17.140  -176.036 
 3410.000000   -25.060   137.305    13.428  -143.369   -20.250   119.747   -17.147  -177.692 
 3430.000000   -25.107   135.934    13.408  -145.230   -20.245   118.273   -17.194  -178.941 
 3450.000000   -25.100   134.883    13.392  -147.026   -20.256   116.882   -17.215   179.459 
 3470.000000   -25.075   134.238    13.361  -148.892   -20.268   115.387   -17.189   177.725 
 3490.000000   -24.879   132.568    13.337  -150.667   -20.290   113.911   -17.146   175.836 
 3510.000000   -24.978   130.199    13.323  -152.440   -20.288   112.536   -17.163   174.202 
 3530.000000   -25.017   129.173    13.296  -154.305   -20.308   110.981   -17.152   172.894 
 3550.000000   -24.661   128.758    13.245  -156.070   -20.348   109.620   -17.015   171.069 
 3570.000000   -24.425   124.455    13.234  -157.665   -20.360   108.402   -17.108   168.208 
 3590.000000   -24.496   121.994    13.225  -159.427   -20.349   107.051   -17.177   166.291 
 3610.000000   -24.482   119.695    13.204  -161.191   -20.361   105.664   -17.183   164.581 
 3630.000000   -24.503   117.116    13.198  -162.967   -20.364   104.362   -17.227   162.728 
 3650.000000   -24.606   114.733    13.184  -164.759   -20.349   102.980   -17.299   161.072 
 3670.000000   -24.676   112.926    13.170  -166.581   -20.352   101.551   -17.391   159.470 
 3690.000000   -24.754   110.978    13.160  -168.405   -20.354   100.027   -17.439   157.749 
 3710.000000   -24.779   109.980    13.135  -170.219   -20.363    98.520   -17.413   156.352 
 3730.000000   -24.654   108.336    13.103  -172.056   -20.390    97.099   -17.376   154.414 
 3750.000000   -24.571   106.228    13.088  -173.782   -20.398    95.740   -17.378   152.694 
 3770.000000   -24.474   104.245    13.070  -175.519   -20.396    94.394   -17.386   151.130 
 3790.000000   -24.566   101.625    13.059  -177.298   -20.408    93.085   -17.467   149.387 
 3810.000000   -24.497   100.067    13.039  -179.103   -20.414    91.564   -17.488   147.688 
 3830.000000   -24.548    97.156    13.034   179.165   -20.412    90.267   -17.538   145.609 
 3850.000000   -24.809    94.919    13.020   177.315   -20.401    88.850   -17.594   144.227 
 3870.000000   -25.011    93.525    13.011   175.435   -20.389    87.260   -17.656   143.121 
 3890.000000   -25.055    95.183    12.973   173.533   -20.404    85.584   -17.615   142.244 
 3910.000000   -24.713    94.196    12.939   171.839   -20.431    84.191   -17.554   140.258 
 3930.000000   -24.684    92.485    12.918   170.077   -20.459    82.773   -17.547   138.443 
 3950.000000   -24.507    90.680    12.902   168.335   -20.471    81.454   -17.515   136.537 
 3970.000000   -24.275    89.029    12.862   166.603   -20.494    80.040   -17.443   134.813 
 3990.000000   -24.279    85.376    12.866   164.926   -20.505    78.794   -17.561   132.476 
 4020.000000   -24.447    81.727    12.854   162.276   -20.497    76.801   -17.739   130.057 
 4060.000000   -24.795    78.909    12.828   158.611   -20.493    73.901   -17.866   126.722 
 4100.000000   -24.766    76.415    12.787   155.019   -20.512    70.955   -17.793   123.609 
 4140.000000   -25.006    73.854    12.760   151.419   -20.518    68.151   -17.896   120.717 
 4180.000000   -25.125    70.713    12.724   147.876   -20.517    65.255   -17.921   117.571 
 4220.000000   -25.258    69.584    12.672   144.256   -20.546    62.260   -17.798   115.068 
 4260.000000   -25.029    66.851    12.621   140.879   -20.602    59.484   -17.790   110.936 
 4300.000000   -25.250    61.713    12.611   137.342   -20.594    56.958   -17.960   107.169 
