! Mini-Circuits  
! S2P DATA File Format
! Type: MMIC Amplifier
! Model: ERA-2SM     Reference Data:RDF-874AA
! Note: All S Parameters are in dB deg format
! TEST CONDITIONS: INPUT POWER = -20dBm, Icc = 48mA, Vd = 3.32V @Temperature = +85degC
! 401 Frequency points
!
# MHz S DB R 50
!    FREQ       dB(S11)   PHS(S11)  dB(S21)   PHS(S21)  dB(S12)   PHS(S12)  dB(S22)   PHS(S22) 
   50.000000   -38.986    11.038    16.448   174.487   -19.813    -3.975   -28.111   172.275 
   70.000000   -41.626     5.027    16.444   172.606   -19.808    -5.168   -27.471   167.012 
   90.000000   -40.555    34.789    16.441   170.508   -19.816    -6.642   -26.898   162.992 
  110.000000   -41.134    51.582    16.418   168.497   -19.839    -7.294   -26.703   158.691 
  130.000000   -39.816    63.485    16.407   166.623   -19.862    -9.085   -26.329   157.125 
  150.000000   -40.586    65.074    16.403   164.514   -19.835   -10.365   -26.297   153.722 
  170.000000   -41.022    69.132    16.397   162.494   -19.810   -11.667   -26.258   152.227 
  190.000000   -38.987    62.561    16.386   160.536   -19.837   -13.246   -26.188   149.583 
  210.000000   -38.520    52.963    16.380   158.495   -19.830   -14.471   -26.224   147.818 
  230.000000   -38.556    54.978    16.360   156.497   -19.855   -15.969   -25.989   145.282 
  250.000000   -37.702    50.140    16.354   154.469   -19.861   -17.101   -26.137   142.669 
  270.000000   -36.987    50.482    16.349   152.490   -19.817   -18.557   -26.081   138.958 
  290.000000   -37.168    44.187    16.339   150.460   -19.812   -19.861   -26.049   136.479 
  310.000000   -37.505    41.437    16.320   148.431   -19.837   -21.322   -25.909   132.004 
  330.000000   -37.046    44.202    16.308   146.469   -19.843   -22.523   -25.821   129.027 
  350.000000   -36.471    43.565    16.300   144.465   -19.817   -23.989   -25.728   126.004 
  370.000000   -35.811    41.609    16.284   142.495   -19.831   -25.316   -25.670   123.411 
  390.000000   -36.308    37.132    16.268   140.474   -19.817   -26.625   -25.486   119.808 
  410.000000   -35.769    37.753    16.251   138.498   -19.827   -28.158   -25.241   116.752 
  430.000000   -35.108    38.379    16.246   136.532   -19.823   -29.463   -25.024   114.129 
  450.000000   -34.987    38.909    16.231   134.558   -19.816   -30.769   -24.788   111.852 
  470.000000   -34.515    38.874    16.217   132.522   -19.831   -32.106   -24.680   109.163 
  490.000000   -34.399    38.542    16.197   130.602   -19.822   -33.441   -24.670   106.759 
  510.000000   -34.343    37.673    16.188   128.561   -19.820   -34.939   -24.551   103.935 
  530.000000   -33.845    35.654    16.171   126.597   -19.820   -36.355   -24.305   100.937 
  550.000000   -33.403    35.151    16.157   124.638   -19.820   -37.678   -24.051    98.724 
  570.000000   -32.748    35.179    16.138   122.678   -19.825   -38.942   -23.900    97.169 
  590.000000   -32.239    35.652    16.124   120.727   -19.810   -40.429   -23.826    94.794 
  610.000000   -32.082    32.833    16.113   118.740   -19.797   -41.843   -23.729    91.959 
  630.000000   -32.041    30.070    16.094   116.767   -19.813   -43.245   -23.696    89.675 
  650.000000   -31.939    28.394    16.082   114.791   -19.810   -44.600   -23.514    87.188 
  670.000000   -31.589    26.451    16.062   112.841   -19.808   -45.969   -23.439    84.702 
  690.000000   -31.375    26.233    16.048   110.909   -19.795   -47.404   -23.353    82.349 
  710.000000   -30.903    24.937    16.034   108.964   -19.801   -48.717   -23.214    79.878 
  730.000000   -30.680    21.914    16.018   106.998   -19.800   -50.138   -23.147    77.202 
  750.000000   -30.565    21.053    16.000   105.042   -19.802   -51.515   -22.963    74.291 
  770.000000   -30.271    19.923    15.988   103.099   -19.799   -52.951   -22.770    71.668 
  790.000000   -30.059    18.576    15.971   101.147   -19.799   -54.276   -22.568    69.597 
  810.000000   -29.930    17.064    15.953    99.197   -19.796   -55.703   -22.442    67.599 
  830.000000   -29.876    15.792    15.942    97.245   -19.798   -57.076   -22.366    65.313 
  850.000000   -29.569    13.869    15.924    95.335   -19.793   -58.508   -22.260    63.022 
  870.000000   -29.360    12.766    15.905    93.362   -19.803   -59.889   -22.011    60.762 
  890.000000   -29.063    10.141    15.878    91.424   -19.795   -61.217   -21.860    57.688 
  910.000000   -28.888     9.853    15.866    89.508   -19.795   -62.587   -21.743    55.725 
  930.000000   -28.614     9.488    15.851    87.602   -19.799   -64.021   -21.597    54.362 
  950.000000   -28.411     7.141    15.832    85.653   -19.799   -65.307   -21.524    52.225 
  970.000000   -28.474     4.198    15.811    83.716   -19.781   -66.787   -21.476    49.516 
  990.000000   -28.326     3.796    15.800    81.774   -19.791   -68.200   -21.392    47.437 
 1010.000000   -28.091     2.104    15.784    79.863   -19.785   -69.534   -21.229    45.075 
 1030.000000   -27.992    -0.268    15.762    77.934   -19.797   -70.941   -21.102    43.205 
 1050.000000   -27.818    -1.848    15.747    75.970   -19.788   -72.300   -21.030    41.273 
 1070.000000   -27.547    -2.104    15.731    74.029   -19.799   -73.700   -20.849    39.114 
 1090.000000   -27.408    -4.369    15.710    72.150   -19.794   -75.082   -20.794    36.519 
 1110.000000   -27.391    -6.770    15.690    70.212   -19.788   -76.380   -20.711    34.219 
 1130.000000   -27.392    -8.568    15.675    68.319   -19.784   -77.905   -20.628    31.913 
 1150.000000   -27.311    -9.277    15.659    66.410   -19.782   -79.307   -20.560    29.893 
 1170.000000   -27.228   -10.678    15.641    64.477   -19.790   -80.689   -20.396    28.114 
 1190.000000   -26.975   -13.143    15.618    62.567   -19.794   -82.036   -20.317    25.931 
 1210.000000   -26.805   -15.877    15.599    60.654   -19.787   -83.408   -20.213    23.519 
 1230.000000   -26.841   -16.679    15.580    58.747   -19.786   -84.869   -20.138    21.602 
 1250.000000   -26.675   -18.721    15.569    56.840   -19.787   -86.164   -20.015    19.552 
 1270.000000   -26.598   -20.495    15.546    54.933   -19.786   -87.676   -19.923    17.620 
 1290.000000   -26.625   -22.483    15.530    53.032   -19.785   -89.069   -19.854    15.579 
 1310.000000   -26.464   -23.667    15.507    51.112   -19.785   -90.407   -19.779    13.308 
 1330.000000   -26.408   -25.416    15.493    49.231   -19.784   -91.845   -19.745    11.251 
 1350.000000   -26.387   -26.503    15.477    47.327   -19.795   -93.233   -19.613     9.242 
 1370.000000   -26.164   -29.065    15.449    45.374   -19.803   -94.564   -19.434     7.168 
 1390.000000   -26.269   -31.791    15.432    43.519   -19.798   -95.993   -19.414     4.772 
 1410.000000   -26.201   -32.568    15.420    41.605   -19.788   -97.426   -19.351     3.090 
 1430.000000   -26.178   -33.560    15.398    39.727   -19.797   -98.879   -19.262     1.517 
 1450.000000   -26.036   -35.764    15.376    37.783   -19.791  -100.228   -19.135    -0.048 
 1470.000000   -25.918   -38.549    15.351    35.884   -19.809  -101.542   -19.057    -2.480 
 1490.000000   -25.896   -40.121    15.336    34.024   -19.800  -102.958   -19.035    -4.469 
 1510.000000   -25.875   -42.118    15.315    32.141   -19.811  -104.395   -18.972    -6.343 
 1530.000000   -25.760   -43.240    15.298    30.235   -19.801  -105.757   -18.867    -8.188 
 1550.000000   -25.789   -45.186    15.283    28.358   -19.805  -107.185   -18.819   -10.261 
 1570.000000   -25.708   -45.083    15.268    26.457   -19.803  -108.597   -18.739   -11.860 
 1590.000000   -25.556   -47.930    15.232    24.551   -19.811  -109.861   -18.639   -14.181 
 1610.000000   -25.653   -50.520    15.220    22.700   -19.811  -111.403   -18.633   -15.944 
 1630.000000   -25.580   -51.905    15.202    20.775   -19.814  -112.734   -18.567   -17.817 
 1650.000000   -25.523   -54.921    15.178    18.937   -19.811  -114.093   -18.533   -19.855 
 1670.000000   -25.459   -57.587    15.164    17.069   -19.808  -115.450   -18.495   -21.536 
 1690.000000   -25.423   -58.127    15.139    15.191   -19.811  -116.874   -18.454   -23.493 
 1710.000000   -25.292   -59.785    15.121    13.312   -19.817  -118.308   -18.378   -25.433 
 1730.000000   -25.351   -61.400    15.101    11.455   -19.808  -119.701   -18.326   -27.486 
 1750.000000   -25.430   -63.441    15.081     9.566   -19.816  -121.055   -18.287   -29.579 
 1770.000000   -25.454   -65.238    15.059     7.675   -19.816  -122.531   -18.258   -31.365 
 1790.000000   -25.351   -66.626    15.041     5.809   -19.819  -123.899   -18.175   -33.327 
 1810.000000   -25.347   -68.886    15.019     3.948   -19.820  -125.310   -18.126   -35.238 
 1830.000000   -25.417   -71.103    15.002     2.095   -19.818  -126.691   -18.090   -36.985 
 1850.000000   -25.449   -73.111    14.979     0.199   -19.818  -128.055   -18.015   -38.611 
 1870.000000   -25.337   -74.390    14.956    -1.666   -19.823  -129.443   -17.971   -40.412 
 1890.000000   -25.339   -76.157    14.941    -3.519   -19.832  -130.893   -17.899   -42.227 
 1910.000000   -25.377   -78.091    14.919    -5.375   -19.828  -132.293   -17.854   -43.987 
 1930.000000   -25.449   -80.179    14.905    -7.252   -19.837  -133.663   -17.822   -45.737 
 1950.000000   -25.447   -81.610    14.878    -9.127   -19.831  -135.062   -17.792   -47.597 
 1970.000000   -25.355   -82.936    14.858   -10.991   -19.838  -136.508   -17.748   -49.316 
 1990.000000   -25.358   -85.462    14.842   -12.875   -19.837  -137.965   -17.694   -51.002 
 2010.000000   -25.309   -87.170    14.818   -14.722   -19.841  -139.338   -17.626   -52.920 
 2030.000000   -25.318   -88.691    14.799   -16.591   -19.850  -140.727   -17.581   -54.834 
 2050.000000   -25.330   -90.005    14.780   -18.465   -19.850  -142.151   -17.529   -56.591 
 2070.000000   -25.312   -92.189    14.760   -20.305   -19.850  -143.549   -17.514   -58.344 
 2090.000000   -25.398   -94.506    14.745   -22.173   -19.846  -144.943   -17.502   -60.190 
 2110.000000   -25.377   -96.810    14.720   -24.021   -19.856  -146.316   -17.496   -61.858 
 2130.000000   -25.301   -98.789    14.700   -25.899   -19.882  -147.835   -17.455   -63.828 
 2150.000000   -25.198  -100.501    14.676   -27.755   -19.872  -149.174   -17.437   -65.707 
 2170.000000   -25.183  -102.900    14.657   -29.593   -19.878  -150.462   -17.393   -67.523 
 2190.000000   -25.238  -105.320    14.630   -31.435   -19.880  -151.905   -17.349   -69.485 
 2210.000000   -25.424  -107.550    14.613   -33.303   -19.865  -153.375   -17.376   -71.351 
 2230.000000   -25.291  -109.346    14.596   -35.141   -19.887  -154.817   -17.323   -73.071 
 2250.000000   -25.214  -110.877    14.571   -37.025   -19.891  -156.263   -17.271   -74.709 
 2270.000000   -25.189  -113.094    14.543   -38.868   -19.893  -157.493   -17.246   -76.413 
 2290.000000   -25.238  -115.636    14.528   -40.687   -19.888  -158.961   -17.247   -78.415 
 2310.000000   -25.263  -117.182    14.504   -42.509   -19.888  -160.352   -17.236   -80.279 
 2330.000000   -25.229  -119.822    14.486   -44.347   -19.890  -161.795   -17.215   -82.040 
 2350.000000   -25.280  -121.481    14.471   -46.193   -19.895  -163.153   -17.202   -83.582 
 2370.000000   -25.340  -123.550    14.444   -48.044   -19.913  -164.598   -17.203   -85.474 
 2390.000000   -25.386  -125.288    14.422   -49.913   -19.916  -165.993   -17.174   -87.186 
 2410.000000   -25.471  -127.144    14.399   -51.740   -19.917  -167.410   -17.133   -88.899 
 2430.000000   -25.379  -129.319    14.383   -53.594   -19.913  -168.882   -17.091   -90.768 
 2450.000000   -25.403  -132.307    14.353   -55.419   -19.926  -170.149   -17.092   -92.748 
 2470.000000   -25.354  -134.637    14.332   -57.247   -19.925  -171.556   -17.104   -94.550 
 2490.000000   -25.243  -136.468    14.313   -59.059   -19.930  -172.921   -17.104   -96.381 
 2510.000000   -25.338  -138.417    14.295   -60.858   -19.935  -174.320   -17.106   -98.062 
 2530.000000   -25.425  -141.162    14.276   -62.718   -19.929  -175.743   -17.132   -99.738 
 2550.000000   -25.491  -143.528    14.254   -64.528   -19.948  -177.173   -17.145  -101.606 
 2570.000000   -25.509  -145.511    14.240   -66.337   -19.939  -178.619   -17.126  -103.260 
 2590.000000   -25.439  -147.353    14.218   -68.193   -19.953   179.913   -17.115  -104.783 
 2610.000000   -25.218  -149.545    14.192   -70.051   -19.959   178.552   -17.065  -106.415 
 2630.000000   -25.231  -152.033    14.166   -71.849   -19.976   177.275   -17.079  -108.438 
 2650.000000   -25.346  -154.122    14.151   -73.641   -19.959   175.890   -17.108  -110.237 
 2670.000000   -25.455  -156.419    14.143   -75.479   -19.961   174.371   -17.112  -111.786 
 2690.000000   -25.424  -157.780    14.116   -77.317   -19.974   172.925   -17.110  -113.463 
 2710.000000   -25.473  -160.803    14.095   -79.151   -19.974   171.572   -17.136  -115.175 
 2730.000000   -25.578  -161.949    14.078   -81.004   -19.979   170.056   -17.176  -116.706 
 2750.000000   -25.543  -162.548    14.053   -82.894   -19.988   168.596   -17.138  -118.237 
 2770.000000   -25.384  -164.285    14.029   -84.682   -19.994   167.219   -17.112  -119.999 
 2790.000000   -25.454  -168.145    14.003   -86.476   -20.003   165.952   -17.117  -122.172 
 2810.000000   -25.499  -169.822    13.989   -88.312   -19.998   164.459   -17.097  -123.965 
 2830.000000   -25.446  -171.884    13.969   -90.149   -20.005   162.970   -17.076  -125.495 
 2850.000000   -25.313  -173.773    13.946   -91.963   -20.025   161.581   -17.049  -127.301 
 2870.000000   -25.341  -176.276    13.917   -93.750   -20.036   160.311   -17.072  -129.070 
 2890.000000   -25.466  -178.428    13.892   -95.564   -20.045   158.866   -17.075  -131.175 
 2910.000000   -25.527   178.880    13.874   -97.331   -20.040   157.476   -17.095  -133.100 
 2930.000000   -25.562   176.204    13.864   -99.176   -20.037   156.088   -17.120  -134.834 
 2950.000000   -25.530   174.130    13.837  -100.960   -20.044   154.615   -17.136  -136.413 
 2970.000000   -25.460   171.493    13.815  -102.762   -20.056   153.276   -17.140  -138.257 
 2990.000000   -25.413   169.383    13.796  -104.599   -20.059   151.828   -17.144  -140.085 
 3010.000000   -25.442   167.343    13.781  -106.396   -20.061   150.470   -17.139  -141.840 
 3030.000000   -25.488   165.205    13.755  -108.226   -20.064   149.047   -17.133  -143.613 
 3050.000000   -25.500   162.849    13.731  -110.033   -20.081   147.584   -17.133  -145.377 
 3070.000000   -25.410   159.752    13.714  -111.803   -20.082   146.230   -17.181  -147.219 
 3090.000000   -25.433   157.742    13.703  -113.591   -20.079   144.884   -17.251  -149.022 
 3110.000000   -25.407   154.889    13.685  -115.372   -20.080   143.467   -17.316  -150.856 
 3130.000000   -25.493   152.747    13.667  -117.232   -20.085   142.033   -17.359  -152.746 
 3150.000000   -25.642   151.013    13.649  -119.066   -20.084   140.630   -17.341  -154.363 
 3170.000000   -25.607   149.725    13.626  -120.890   -20.092   139.097   -17.323  -155.901 
 3190.000000   -25.578   147.389    13.601  -122.709   -20.111   137.707   -17.324  -157.590 
 3210.000000   -25.524   145.303    13.587  -124.516   -20.114   136.318   -17.360  -159.452 
 3230.000000   -25.534   143.343    13.560  -126.306   -20.125   134.869   -17.359  -161.187 
 3250.000000   -25.417   140.623    13.543  -128.106   -20.133   133.466   -17.371  -163.059 
 3270.000000   -25.431   138.144    13.521  -129.912   -20.139   132.098   -17.338  -164.789 
 3290.000000   -25.374   135.564    13.496  -131.723   -20.145   130.639   -17.359  -166.680 
 3310.000000   -25.229   133.572    13.479  -133.501   -20.155   129.265   -17.394  -168.544 
 3330.000000   -25.128   131.473    13.461  -135.286   -20.164   127.954   -17.459  -170.422 
 3350.000000   -25.229   129.363    13.448  -137.090   -20.161   126.425   -17.483  -172.294 
 3370.000000   -25.202   127.508    13.423  -138.894   -20.173   125.025   -17.443  -174.099 
 3390.000000   -25.240   125.014    13.400  -140.738   -20.181   123.580   -17.437  -175.650 
 3410.000000   -25.205   123.946    13.385  -142.502   -20.183   122.186   -17.431  -177.168 
 3430.000000   -25.214   122.333    13.361  -144.327   -20.189   120.700   -17.461  -178.543 
 3450.000000   -25.257   120.710    13.342  -146.166   -20.198   119.213   -17.498   179.880 
 3470.000000   -25.178   119.805    13.311  -147.978   -20.220   117.830   -17.473   177.753 
 3490.000000   -25.079   118.288    13.299  -149.735   -20.230   116.393   -17.481   176.005 
 3510.000000   -25.127   116.224    13.278  -151.554   -20.237   115.019   -17.468   174.483 
 3530.000000   -25.054   115.140    13.237  -153.371   -20.267   113.504   -17.403   172.965 
 3550.000000   -24.751   112.630    13.211  -155.041   -20.293   112.315   -17.388   170.490 
 3570.000000   -24.649   109.694    13.200  -156.766   -20.293   110.938   -17.479   167.987 
 3590.000000   -24.590   107.306    13.186  -158.545   -20.286   109.598   -17.515   166.104 
 3610.000000   -24.601   105.026    13.167  -160.292   -20.300   108.285   -17.514   164.325 
 3630.000000   -24.650   102.284    13.157  -162.091   -20.285   106.867   -17.554   162.570 
 3650.000000   -24.672    99.479    13.139  -163.905   -20.294   105.494   -17.614   160.782 
 3670.000000   -24.653    97.973    13.125  -165.698   -20.291   104.028   -17.667   159.061 
 3690.000000   -24.649    96.340    13.108  -167.495   -20.310   102.586   -17.680   157.215 
 3710.000000   -24.674    94.096    13.081  -169.296   -20.319   101.138   -17.658   155.346 
 3730.000000   -24.692    91.926    13.058  -171.127   -20.323    99.696   -17.652   153.533 
 3750.000000   -24.641    90.030    13.045  -172.812   -20.335    98.391   -17.630   151.716 
 3770.000000   -24.590    88.489    13.023  -174.620   -20.344    97.024   -17.630   150.351 
 3790.000000   -24.523    85.537    13.008  -176.362   -20.364    95.636   -17.645   148.508 
 3810.000000   -24.498    82.935    12.994  -178.149   -20.366    94.280   -17.706   146.578 
 3830.000000   -24.603    80.404    12.991  -179.919   -20.360    92.841   -17.741   144.711 
 3850.000000   -24.869    78.684    12.972   178.237   -20.350    91.445   -17.773   143.397 
 3870.000000   -25.109    76.937    12.955   176.328   -20.343    89.915   -17.821   142.363 
 3890.000000   -25.156    78.066    12.915   174.477   -20.379    88.314   -17.748   141.139 
 3910.000000   -24.814    76.532    12.890   172.864   -20.407    86.967   -17.682   138.796 
 3930.000000   -24.792    74.359    12.874   171.105   -20.420    85.591   -17.707   137.024 
 3950.000000   -24.730    72.311    12.854   169.308   -20.423    84.208   -17.670   135.364 
 3970.000000   -24.576    70.648    12.824   167.565   -20.449    82.868   -17.628   133.603 
 3990.000000   -24.486    68.083    12.826   165.854   -20.464    81.562   -17.692   131.490 
 4020.000000   -24.612    64.763    12.802   163.186   -20.453    79.522   -17.838   129.182 
 4060.000000   -25.008    60.648    12.772   159.543   -20.447    76.700   -17.939   125.845 
 4100.000000   -25.113    56.865    12.734   155.961   -20.473    73.825   -17.887   122.375 
 4140.000000   -25.215    53.745    12.703   152.404   -20.474    70.953   -17.957   119.267 
 4180.000000   -25.415    50.457    12.667   148.814   -20.487    68.063   -17.977   116.706 
 4220.000000   -25.492    49.685    12.601   145.297   -20.529    65.077   -17.761   113.778 
 4260.000000   -25.477    46.358    12.565   141.841   -20.569    62.436   -17.870   109.742 
 4300.000000   -25.556    40.062    12.553   138.291   -20.564    59.875   -18.025   105.652 
