#  HZ   S   DB   R     50.00 
! Rohde & Schwarz ZVA24 2Ports - Version 3.90 - 1145.1110k24 SN: 100222
! Date: 2019-05-10 15:20:51
! Measurements: S11 S21 S12 S22 
! 
 1.000000000000000E7    -9.275201718587635   1.557441936545205E2   3.306159631264816E1   2.771356747682233E1  -3.732450680067927E1   3.412278050039704E1   2.358636250518448   9.154292186277921  
 2.000000000000000E7     2.102083457161254   9.598451423134115   3.976826180777085E1  -2.344705920894212E1  -1.862715499677249E1  -1.233304017828695E2   1.683172060785955E1   1.328730735913405E2  
 3.000000000000000E7    -6.727733562010434  -3.829726189203537E1   4.808034847437293E1   2.036544822197171  -3.031009078447105E1  -4.026558512684230E1   4.533301825720448  -1.422597512979816E2  
 4.000000000000000E7    -1.004174754790284E1   1.300152813730906E2   4.074077253613600E1  -3.721772229024026E1  -2.632346404534066E1   1.551742675083232E2   6.490296056795965   4.204732813372060E1  
 5.000000000000000E7    -1.077597572329316E1   4.260738219442871E1   4.368628798086287E1  -2.065407129892707E1  -4.395243587908692E1  -2.588296464566246E1   4.989563779814466  -1.640217402280079E2  
 6.000000000000000E7    -9.510772594132323   1.521742356465738E1   4.526580573983084E1  -2.059555567253154E1  -3.217763885430652E1   8.788496301546097E1   1.104975016105499E1   1.419760021895538E2  
 7.000000000000000E7    -1.905738044065967E1   1.607674540827316E2   4.535874472230076E1  -4.472228965340440E1  -3.517639242405441E1  -8.004660730089348E1   8.631731990644376  -9.284456637275724E1  
 8.000000000000000E7    -1.079048521690054E1  -1.233590833705180E1   4.278043616572746E1  -6.603914793992057E1  -3.792253663715485E1   4.383877422559957E1   3.392341359864302  -1.170291513408564E2  
 9.000000000000000E7    -1.283131818088005E1   5.270795041245508E1   4.474087758419721E1  -7.958650733284259E1  -3.711046817196893E1  -1.270400903264973E2   8.819449191180500  -8.489476454565984E1  
 1.000000000000000E8    -1.872406514906915E1   2.153074138015399E-2   4.473440194831220E1  -7.944859721783529E1  -3.597032310325643E1  -1.613495318535289E2   6.215030296560259   1.716425835853514E2  
 1.100000000000000E8    -2.280528410851721E1  -8.875269561561892E1   4.402530257956165E1  -8.116695560479833E1  -3.834918390588440E1   7.933109931053346  -3.468946816551471E-1   3.271089350847932E1  
 1.200000000000000E8    -2.846833420497370E1  -1.558384374410075E2   4.575113019837210E1  -1.002790348901214E2  -4.483280598626210E1   5.180033611286515E1   4.956213393250474   1.669837458073037E1  
 1.300000000000000E8    -3.595191368381877E1  -4.601252651728679E1   4.387903384893939E1  -9.108836628454763E1  -4.182822976255748E1   1.790088530916198E2  -4.246517888875843  -1.003320836840687E2  
 1.400000000000000E8    -3.923586001567830   4.940845796093818E1   4.350374825771752E1  -9.842480815144795E1  -2.572236023269354E1  -2.617779188190122E1   5.988414123483234  -4.427380239255336E1  
 1.500000000000000E8    -1.625781908423896E1  -6.234289379265656E-1   4.364337680574854E1  -1.067802625100992E2  -4.434968140943629E1  -4.281288692388751  -7.129933909929270   5.968020994046955E1  
 1.600000000000000E8    -3.337949648987735E1  -9.789980047634552E1   4.537056837399009E1  -1.150995412743302E2  -4.647849114169699E1  -1.723229595561154E2   9.572337599786478E-1   1.296377201233980E2  
 1.700000000000000E8    -1.686048097738028E1   1.361592579820907E1   4.331480967967447E1  -1.260506877443165E2  -4.468874795799209E1   1.397332791179744E2   2.939853793704863   1.218203129196611E2  
 1.800000000000000E8    -2.043024371866711E1   1.185843855684151E2   4.374783534505053E1  -1.225073999089402E2  -3.534787449093772E1  -1.310690892494530E2   3.703775227194055   5.654499266806381E1  
 1.900000000000000E8    -1.700227391852798E1  -6.896564192008491E1   4.282684134001116E1  -1.544307121708068E2  -5.029805198901155E1  -5.732500657434461E1   5.702463663145678  -1.259761728948520E2  
 2.000000000000000E8    -1.497610913363796E1  -9.464754798409183E1   4.412020648791759E1  -1.646036617241668E2  -4.608380242072283E1  -3.122815362358968E1  -2.650387787285223  -1.097316796604513E2  
 2.100000000000000E8    -1.368430476734889E1  -9.146082211256454E1   4.283004630648910E1  -1.607152724305888E2  -4.167452957534091E1   9.716733520315697E1  -3.520615726243205   8.237290068940331E1  
 2.200000000000000E8    -1.844483552105879E1  -1.424698391647057E2   4.238165618104603E1  -1.604092231865421E2  -4.267445876684398E1   7.726243138186547E1  -4.832113575800817  -1.366798057157482E2  
 2.300000000000000E8    -2.340594137855729E1  -1.015712760225177E2   4.274036159508450E1  -1.793061645899324E2  -4.384981732216938E1   7.542804073991131E1  -3.765495485410273  -1.652686308490928E1  
 2.400000000000000E8    -1.925077748691486E1   1.101010373529018E2   4.392958053965239E1   1.695026645556027E2  -3.866416076559515E1   9.940174800362006E1   5.027742081786670  -5.263675560610074E1  
 2.500000000000000E8    -2.173191629622176E1  -1.435642401313119E2   4.435031436867002E1   1.599884279685412E2  -4.508131916056139E1  -1.452872461344107E2   2.235383321221431   1.348859703247018E2  
 2.600000000000000E8    -2.068573605416685E1  -1.447570701285723E2   4.373740400211173E1   1.624306043509126E2  -3.737060961624992E1  -1.537361856760835E2   4.901845958093618E-1  -4.962675721119567E1  
 2.700000000000000E8    -2.668779503099372E1  -1.349289059595870E2   4.326228665868118E1   1.525642047859119E2  -4.003497037495502E1  -9.551539333734996E1   4.766858259538079   1.103281638763217E2  
 2.800000000000000E8    -3.162374507051898E1  -1.279069129571599E2   4.465525919771591E1   1.394806945647609E2  -5.895218240959826E1  -1.597022529402724E2  -2.643160045660474   1.409080444082183E2  
 2.900000000000000E8    -2.207024642152516E1  -1.709443237309281E2   4.475925347502977E1   1.356274737656787E2  -4.475868520319924E1   1.368679165900948E2  -6.071297250904315   1.163431532764379E2  
 3.000000000000000E8    -2.245287551794431E1   1.456307316521533E2   4.319293387928573E1   1.210154544282031E2  -4.004832532540520E1   1.596818429066262E2   4.344569076714019   6.357928839048545E1  
 3.100000000000000E8    -1.349004497856222E1  -1.690109089213700E2   4.362668516495447E1   1.183436149934775E2  -4.159555175714370E1  -7.701510643418175E1  -4.537935926395563  -3.166821628080133  
 3.200000000000000E8    -3.275629917450464  -7.612396806765746E1   4.293067169139930E1   1.015780361857698E2  -3.067281010695091E1   7.734185800775029E1   2.137704093146488E-1   1.323946575433644E2  
 3.300000000000000E8    -1.448627919091797E1  -3.584662197735133E1   4.384298043756639E1   1.007602689535812E2  -4.060980363424475E1   1.682499485834333E2  -7.736325391219991   8.149047746721546E1  
 3.400000000000000E8    -2.021122240821008E1  -3.053129784395874E1   4.346486965317349E1   1.021530695683927E2  -4.690777817162616E1  -1.666068297942564E2  -2.478163079446926   1.150211989130456E2  
 3.500000000000000E8    -1.766416714936436E1   2.703344035545865E1   4.566741052104622E1   8.423044166213516E1  -4.690648153085330E1   1.591910036931002   2.411187407549146   3.092428543585437E1  
 3.600000000000000E8    -7.833553091638582   8.585223065002687E1   4.360922586610037E1   6.993300807154617E1  -3.352193750684469E1   8.109849607238327E1   3.022461847925707   1.831868581500867E1  
 3.700000000000000E8    -1.168047547856871E1   1.319243800369015E2   4.341818056899268E1   7.161817962015203E1  -3.788097269536906E1   1.665972780281945E2  -1.281230220914422E1  -4.145874465250336E1  
 3.800000000000000E8    -1.478668357088549E1   3.154573616591261E1   4.247559042359733E1   6.178660944540432E1  -4.211807031748379E1   8.782496806628920E1   3.547217630936638  -2.220575653050985E1  
 3.900000000000000E8    -2.054522573635663E1   1.458577856138704E2   4.473478923640762E1   6.158554803740926E1  -5.829810416293417E1  -1.501472737862599E1  -3.375736005242311E-1  -1.396864391541650E2  
 4.000000000000000E8    -1.459824968377737E1   1.120220301677376E2   4.389776685354072E1   3.884538761376888E1  -4.959865400026918E1  -3.174258122579794E1   8.080552561748998E-3   1.431047763611815E2  
 4.100000000000000E8    -1.950948070649848E1   1.397337705898622E2   4.300583625232260E1   5.561521812032518E1  -5.169957537276768E1   2.386165149289281E1   8.745340799228616   3.102541509974624  
 4.200000000000000E8    -2.111207987832383E1   6.535598646492699E1   4.305475340516514E1   3.538971412525497E1  -5.882437278778881E1  -4.944188466108291E1  -7.651427171539800   5.376607969612154E1  
 4.300000000000000E8    -1.706875603965336E1   7.448829531226038E1   4.330300791181106E1   2.190107295724860E1  -4.056311592269947E1   4.240280025643936E1  -4.098541486412255  -1.348911127356002E2  
 4.400000000000000E8    -1.971447008646399E1   3.682897195792172E1   4.340539035156914E1   1.437664556832640E1  -4.237470822782104E1   2.655281647334483E1  -1.002397688604125E1  -6.211726875021707E1  
 4.500000000000000E8    -2.047829474163812E1   5.783900208008215E1   4.319121349394158E1   9.553463834948479  -4.264308468770536E1   3.551378269430644E1  -1.209908239914986E1   3.134328417826007E1  
 4.600000000000000E8    -1.927727179613805E1   2.175881466886458E1   4.367008512968022E1   1.583745650700761  -3.595467019380677E1   4.290116164887922E1   3.670057969696074   7.555504550272441E1  
 4.700000000000000E8    -2.041379782229383E1  -1.352504749353319   4.403795008394049E1  -8.849420356969640  -3.697841005379328E1   7.909952873039078E-1  -1.074908638111922   1.844507244284916E1  
 4.800000000000000E8    -3.283403931662528E1  -1.040267679813028E1   4.299913590097398E1  -1.310432239403043E1  -4.693811647721978E1   8.961989805259763E1  -2.337975784712829   8.843247187071877E1  
 4.900000000000000E8    -2.290090572509196E1   5.760543744944152E1   4.272780186287363E1  -1.866812513020385E1  -5.159721902425882E1   7.949293346150780E1  -1.543003433342471  -1.705025516862575E2  
 5.000000000000000E8    -4.083819350284761E1  -1.785464534905384E2   4.302942695530256E1  -2.728609533275919E1  -4.137032083240583E1  -2.082050577896114  -2.934976261232764   9.913940554132047E1  
 5.100000000000000E8    -2.611076459414379E1   1.098312984394587E1   4.250132257789539E1  -3.380443452032523E1  -4.223048738083899E1   1.630262326642463E1  -3.454732663951265   1.401785510070034E2  
 5.200000000000000E8    -2.136161819641147E1  -4.888262633703293E1   4.285275874019842E1  -4.553053041393393E1  -4.309143618850005E1   7.907196568721135E1  -3.460843725686241E-1   1.352944039113118E2  
 5.300000000000000E8    -1.995443006261880E1   4.330300566547139E1   4.241652492104060E1  -5.433976303719116E1  -4.338579603314357E1  -4.606408775737383E1  -1.529295225353172   1.675113040233272E2  
 5.400000000000000E8    -2.507098520766416E1  -2.705913334334167E1   4.231743708643276E1  -6.099216788112135E1  -6.487007977937169E1  -4.747902649241004E1  -1.514166519301431E1   1.359959602280792E2  
 5.500000000000000E8    -1.778926691678748E1  -1.156879850797075E2   4.147465942816456E1  -6.106697645079546E1  -4.142250211268027E1  -1.280560278825854E2  -2.411016236314864  -2.543626076127975E1  
 5.600000000000000E8    -3.795803455190274E1   6.787887358346235E1   4.167372197410838E1  -8.021419643940098E1  -5.181573728814122E1   3.947725071762626E1  -1.448312460539995  -1.490070034535867E2  
 5.700000000000000E8    -2.482014678061062E1   3.953691109930954E1   4.114680303057490E1  -8.252638679960289E1  -5.125069692340445E1   3.983571534918068E1  -8.866758775817150E-1   1.465613760957929E2  
 5.800000000000000E8    -1.929886522491054E1   2.146750409205293E1   4.309831272246488E1  -8.743389031916264E1  -5.148385326233854E1   6.944062083184788E1  -2.198155815978245   4.654160183310469E1  
 5.900000000000000E8    -2.516595099366935E1  -1.744229716288486E2   4.205269728277717E1  -1.026388670874933E2  -4.148574052778106E1  -5.409182519092902E1  -1.734802281077070E1  -1.343255124797159E1  
 6.000000000000000E8    -2.284277224441331E1   7.684761610285626E1   4.198135091244878E1  -1.125492302214729E2  -4.197259834207636E1  -7.561158818148951E1  -6.787584696678942E-1  -1.614312596984141E1  
 6.100000000000000E8    -2.958255974289421E1  -9.077645671230289E1   4.171596783643693E1  -1.104099363985236E2  -4.714190058943922E1   3.238769005823196  -4.244752581187508  -1.210108527095063E2  
 6.200000000000000E8    -2.526631014556919E1   1.154647430262860E2   4.218508856439809E1  -1.208421851309884E2  -4.672751417210345E1  -1.129053687720187E1  -3.458418872405944  -2.666447704951726  
 6.300000000000000E8    -2.216950068888567E1  -1.045536479682852E2   4.116272863892062E1  -1.250987447768875E2  -4.471349218799309E1  -1.600144308571157E2   2.324005888398329  -9.633491094755609  
 6.400000000000000E8    -2.419830369256352E1   9.809297595190260E1   4.253587590104642E1  -1.308949983435348E2  -5.494478181683111E1   1.035671030178266E2  -7.138558883550286  -6.627627800922680E1  
 6.500000000000000E8    -3.381360526294922E1   9.701246444005646E1   4.226104331413580E1  -1.466550399232144E2  -4.902934365154826E1  -1.379359926559265E2   9.634948675728211E-1   1.520705192208157E2  
 6.600000000000000E8    -2.399935069565381E1   6.094240645280091E1   4.178606836193906E1  -1.483165521661371E2  -5.191828307863143E1   3.171216594780303E1   3.153162862045893   4.767577082136342E1  
 6.700000000000000E8    -3.486144115056019E1   7.685599830116306E1   4.168655657409526E1  -1.574508517079188E2  -4.598489458637478E1   8.806467098830115  -1.637369824815957   7.503417265803383E1  
 6.800000000000000E8    -2.464945386561753E1   1.261405736662126E2   4.237478655033175E1  -1.650166158908343E2  -4.238836272501082E1  -8.276130815115116E1   3.219019350496232  -3.544291074926549E1  
 6.900000000000000E8    -2.113640548938376E1   7.593554454589821E1   4.210736991832486E1  -1.714320716089231E2  -4.280795198720673E1   1.785723721013563E2  -2.168359179585059   2.892715933612958E1  
 7.000000000000000E8    -1.731813877782760E1   7.807965021892201E1   4.217783960605054E1  -1.798694949566545E2  -4.139121400985836E1  -1.506658831008069E2   3.997444890616095   2.216660539050544E1  
 7.100000000000000E8    -2.234740017191161E1   7.187823848537647E1   4.200016982061802E1   1.737988420163026E2  -5.759555224323333E1  -1.519714637323950E2  -7.485776390196579   5.849066141453039E1  
 7.200000000000000E8    -2.060068166944012E1   6.562337539141259E1   4.238266025943857E1   1.646099790903429E2  -6.716819939968032E1   1.773889251114175E2   3.092327740606727  -3.826119983285646E1  
 7.300000000000000E8    -1.838090904181547E1   5.907930964934969E1   4.214750545224530E1   1.538726887477133E2  -5.606273483156473E1  -8.512612595702410E1  -4.833242520609183E-1  -1.412449434171838E1  
 7.400000000000000E8    -1.513750808464435E1   4.644416505236098E1   4.110200297159762E1   1.517615718449049E2  -5.085621613649201E1  -8.897173821251921E1  -4.736863248383540E-1  -1.105376446009216E2  
 7.500000000000000E8    -1.465163487215705E1   4.959375899645349E1   4.232739720693652E1   1.418615327651376E2  -5.391789539485509E1  -1.411566866526170E2  -3.944334414964342   5.023761348253860E-1  
 7.600000000000000E8    -1.359867262082621E1   2.859469181763825E1   4.256012717161991E1   1.390249792037097E2  -5.143604210374323E1  -7.897760028878720E1  -3.154148084494628  -1.334875462475185E2  
 7.700000000000000E8    -1.370260015102344E1   2.285021541173256E1   4.297155839365201E1   1.290193227848760E2  -6.003487153554621E1  -7.233777143145323  -1.876078673790453  -1.536981462203176E2  
 7.800000000000000E8    -1.431456416838825E1   1.640017275460167E1   4.156584376919193E1   1.222973336156286E2  -5.546183980760720E1   1.269473684454346E1  -2.370569125802642  -3.956346403839375E1  
 7.900000000000000E8    -1.135818963785162E1   2.411822248128610E1   4.101047300394187E1   1.106130367036252E2  -5.028539217396664E1   1.698301485354392E2  -8.881384834449658   3.933383440258105E1  
 8.000000000000000E8    -1.278959628287236E1  -1.021467962615584E1   4.189579477856519E1   1.119740654714237E2  -4.766181970726417E1   7.918812533636942E1   2.207880704041783   8.275938408166780  
 8.100000000000000E8    -1.818055056570460E1  -6.662601437085886   4.295255987775445E1   9.103094700737164E1  -4.632710165440245E1   7.747589530160637E1   6.807480094890309E-1  -9.860232067571897E1  
 8.200000000000000E8    -1.340771516734130E1   3.847359545885637E1   4.062884852087495E1   8.074091699371515E1  -4.670249751604017E1   1.602653706185491   2.869978448021828E-1  -1.590848570605749E2  
 8.300000000000000E8    -1.132270463255747E1   9.778379515187638   4.228864137282678E1   7.852999216786004E1  -5.956571749312067E1   1.431885989784730E2  -2.028745397542787   2.317785206454096E-1  
 8.400000000000000E8    -1.003073970476768E1  -1.533356446789793E1   4.142734490373652E1   7.009745877097481E1  -4.316830212612632E1  -9.543323717324202E1   8.526792542539747E-1  -6.350442434901933E1  
 8.500000000000000E8    -1.212404661721959E1  -1.638533543942058E1   4.133465088247622E1   6.660227068696803E1  -4.370815900512430E1  -1.488090681419486E2  -3.332721780553697  -1.038495095051710E2  
 8.600000000000000E8    -1.147797686037425E1  -1.942671868223032E1   4.104269740553463E1   6.093772629074270E1  -5.731155024535195E1   7.220424612032440E1  -5.378747851798270E-1  -1.010910327841209E2  
 8.700000000000000E8    -1.100187765387253E1  -1.761294465544551E1   4.091358436389409E1   5.179040561664932E1  -5.078076646424941E1   1.424489188246719E2  -9.885451427250537E-1  -5.393902210350929E1  
 8.800000000000000E8    -1.040660151533289E1  -2.841656909545279E1   4.107824645632155E1   4.384171802852121E1  -4.723778546910963E1   8.048861962472380E1  -5.467011109936544  -1.095319863032364E2  
 8.900000000000000E8    -1.118613025467268E1  -2.915013583868465E1   4.093261139112985E1   3.545017943748255E1  -5.217277594549667E1   8.607279451681207E1  -6.480560557089235  -7.172735792668564E1  
 9.000000000000000E8    -1.069172371370254E1  -3.386084180128503E1   4.026762153264178E1   2.577461221771426E1  -5.896344344290602E1  -1.617737417675972E2  -1.546755412878145E1   1.731644006332344E1  
 9.100000000000000E8    -1.113241051238191E1  -4.147035514806910E1   4.042187222847958E1   1.840846867647310E1  -6.437961810280697E1  -1.299692369757693E2  -1.076265768499146E1  -1.627200445818867E2  
 9.200000000000000E8    -9.746194108024463  -4.760508086576554E1   4.001101997463135E1   1.172218480599032E1  -4.415365555818377E1   1.145759025748261E2  -1.494186819261839E1  -9.583379488716084E1  
 9.300000000000000E8    -1.364942042720253E1  -5.288655957607072E1   4.109859479576539E1   1.556487117283498  -4.594149677145025E1   2.475595954768637E1   1.089877123672362  -1.382317216878113E2  
 9.400000000000000E8    -1.301113647425852E1  -6.695751625278830E1   4.189451824625319E1  -5.725608298479065  -4.996090292516804E1   1.080976683993455E2   1.249721521500624  -9.748601796679475E1  
 9.500000000000000E8    -1.294276866796357E1  -6.087410148768952E1   4.139987831812413E1  -1.554174418670025E1  -5.517727065006069E1  -4.462459385081083E1  -3.690883454468715E-1  -9.872723785548305E1  
 9.600000000000000E8    -1.539232159245205E1  -8.097348902087701E1   4.079957163041387E1  -2.130624910682867E1  -4.993444807293957E1   1.186161752212229E2  -6.486136720444662  -1.682001651691976E2  
 9.700000000000000E8    -1.425213237817641E1  -6.193792967639591E1   4.109747523771074E1  -2.907502766104960E1  -4.605442187265908E1   6.309864848102131E1  -1.596369320192821E1  -4.435784863226555E1  
 9.800000000000000E8    -1.370896447100471E1  -9.415977833807915E1   4.089775736007033E1  -3.627230062726309E1  -4.487733433109668E1  -2.940409654394681E1  -1.447067972924910E1   1.555058375684319E2  
 9.900000000000000E8    -1.635810957834659E1  -7.299391748836892E1   4.049167368601789E1  -3.998593716938820E1  -5.899223756969630E1  -6.151944826728967   1.323723368461980E-1  -1.388211598005187E2  
