#  HZ   S   DB   R     50.00 
! Rohde & Schwarz ZVA24 2Ports - Version 3.90 - 1145.1110k24 SN: 100222
! Date: 2019-05-10 15:15:03
! Measurements: S11 S21 S12 S22 
! 
 1.000000000000000E7    -1.279231594115089   2.020730379155562   1.713743252547028E1  -2.419163098133805E1  -6.834878337481666  -1.317911814019272E2   1.342801826870831E1  -1.182039835433252E2  
 2.000000000000000E7    -5.935058075414569   5.548124757031754E1   2.086111582029551E1   1.631714202510196E2  -2.628781189095605E1   1.232606162316802E2  -1.411973504343692E1   2.137492778933553E1  
 3.000000000000000E7    -3.933346965744703   7.877741138927981E1   2.626012389719982E1  -1.586590034483509E2  -2.502546293800124E1   4.823566906647176E1  -2.360321648717034E1   1.201360502391287E1  
 4.000000000000000E7    -2.105207846536847E1  -1.570207119808821E2   2.410235833067203E1  -1.798927194915129E2  -1.875428833131076E1  -5.247896731921534E1  -6.177749220865727  -1.689424675104066E2  
 5.000000000000000E7    -2.344653061973248E1   8.699883572805813E1   2.183554468144648E1   1.725762326316633E2  -2.452285153622832E1  -3.711308997130206E1  -5.870041971133769   1.536585760815644E2  
 6.000000000000000E7    -2.041107664690760E1   8.396039292189762E1   2.302140620328530E1   1.737051635445374E2  -2.694968854602756E1   1.359161230682460  -9.486345923154772  -1.554707048965406E2  
 7.000000000000000E7    -1.916201539738236E1  -1.122506451190621E2   2.134688620326896E1   1.484255716752295E2  -2.134410260579718E1  -3.242282629026524E1  -1.289500168367451E1   1.486465297547349E2  
 8.000000000000000E7    -1.714484949854383E1   1.508857521109951E2   2.159318990603835E1   1.473201119041661E2  -2.514598689031121E1  -3.520095810523218E1  -1.112684264623649E1  -1.136457543153791E2  
 9.000000000000000E7    -2.475693161075783E1   1.675645290440002E2   2.094395984368889E1   1.487453645926398E2  -2.274343389018679E1  -4.436022833831251E1  -8.475953733607025   1.308737427957672E2  
 1.000000000000000E8    -2.060113152895397E1  -4.885414204870417E1   2.190386385106449E1   1.325974362797395E2  -3.002071893932810E1  -6.614196832109116E1  -1.940618290723412E1   3.305642600083628E1  
 1.100000000000000E8    -2.202202331759019E1  -6.021323871246116E1   2.318100158457484E1   1.313921234332342E2  -3.410989703218522E1  -5.749731378682248E1  -1.562926422480020E1   8.066023794803404E1  
 1.200000000000000E8    -1.885673698501585E1  -4.524633170193137E1   2.376349813311520E1   1.354064982082649E2  -2.489876960580400E1  -5.305305488669290E1  -1.378953491885645E1   3.322561285949353E1  
 1.300000000000000E8    -2.522553239078932E1  -6.992809867867815E1   2.288135228396412E1   1.265748007211863E2  -2.962767145671311E1  -4.391052620304814E1  -1.580292663262066E1  -1.778996269300339E2  
 1.400000000000000E8    -1.867082167032621E1   1.573446690659773E2   2.208897619956559E1   1.223443634498643E2  -2.630225714949040E1  -6.567190638774426E1  -1.421249807188935E1   7.661731491204039E1  
 1.500000000000000E8    -2.234433965855991E1  -1.320159813164275E2   2.278853519916232E1   1.207860754538297E2  -2.741831323384083E1  -5.661979314625838E1  -1.284434953986538E1   1.061606290187618E2  
 1.600000000000000E8    -3.019328269655435E1   2.357344704447874E1   2.215618583840304E1   1.110091102540435E2  -2.777135976417022E1  -6.868275851074424E1  -1.678480435951241E1   6.954147292261078E1  
 1.700000000000000E8    -2.083000784798297E1   1.253244546510955E2   2.152495109947603E1   1.040588498371100E2  -2.446860058211028E1  -6.606304355642632E1  -1.475580107954808E1   1.279882743113154E2  
 1.800000000000000E8    -2.844156411350269E1  -1.323603489298796E2   2.265618964912300E1   1.027677492047232E2  -2.903003300936720E1  -6.798173422870123E1  -1.228355137918559E1   7.156712615469543E1  
 1.900000000000000E8    -1.899543252584339E1  -1.440876369048949E2   2.192313703506477E1   1.006228928904560E2  -2.458795959465337E1  -6.503728044105431E1  -1.133433488631202E1   1.122251886060156E2  
 2.000000000000000E8    -3.139939396992492E1  -1.223369967066843E2   2.245282510431678E1   1.020673702874618E2  -2.856874710104610E1  -6.635252506285897E1  -1.371916660266444E1   1.419430667564973E2  
 2.100000000000000E8    -3.237966229690190E1   9.040463084650277   2.251763035485270E1   9.852521210634886E1  -2.419912022878299E1  -6.919457873046704E1  -1.143140269089327E1   1.302482386648384E2  
 2.200000000000000E8    -1.896615599022487E1   5.043727618892460E1   2.378967754410346E1   8.924741446885632E1  -2.352699627177131E1  -7.981115225952560E1  -1.316779886304877E1   8.260404982597503E1  
 2.300000000000000E8    -2.553121396640741E1  -9.229738627723853E1   2.243922150478116E1   8.721299120785524E1  -2.628295486618983E1  -7.884234991201087E1  -1.200942620361134E1   1.400846225490299E2  
 2.400000000000000E8    -2.240503312950055E1   3.825131729965253E1   2.214945938218128E1   7.820577450306647E1  -2.613225744643557E1  -8.599601301615989E1  -9.710212361929335   7.471264623042377E1  
 2.500000000000000E8    -3.087087221274649E1  -1.468009690210006E2   2.254121897442391E1   7.292143062918531E1  -2.620471832039770E1  -8.271312067549307E1  -1.035961720888208E1   9.633017280494425E1  
 2.600000000000000E8    -3.718724358518561E1   1.037793410447838E2   2.216287549238444E1   7.208996143039235E1  -2.550796356869408E1  -8.498842048857566E1  -1.521204819550915E1   1.073760888547959E2  
 2.700000000000000E8    -3.042807066633742E1   1.428100753717779E2   2.196160143219088E1   6.652304111204381E1  -2.617789135341538E1  -1.093238564609282E2  -1.352308873372072E1   5.761813714180922E1  
 2.800000000000000E8    -3.981943503128211E1   1.428502785836016E1   2.203767536139592E1   6.722249123971882E1  -2.602678613607758E1  -1.069165451823677E2  -2.047723766899877E1   4.329322023486737E1  
 2.900000000000000E8    -3.893639535028754E1  -1.468392356481517E2   2.308166023018993E1   6.710448891676583E1  -2.495262138709256E1  -1.102291898879889E2  -1.175563802186914E1   9.219103359563484E1  
 3.000000000000000E8    -2.879641156849648E1   1.565417983644201E2   2.247920420769169E1   5.979767699930029E1  -2.584621554237075E1  -9.700568837962953E1  -1.228271433865201E1   8.622716353979180E1  
 3.100000000000000E8    -3.089645965245773E1   2.743339697854747E1   2.227401461134105E1   4.991036672360610E1  -2.814866553462393E1  -1.143829123240313E2  -1.394365888690588E1   8.511763060287824E1  
 3.200000000000000E8    -3.439061789816844E1   6.615109478009859E1   2.211672307988757E1   4.604650619095299E1  -2.850774632696677E1  -1.218958645833892E2  -1.438916580249588E1   2.350136324119124E1  
 3.300000000000000E8    -2.594846093443144E1   1.310160511396981E2   2.183640341761547E1   5.609931799045246E1  -2.619246567623497E1  -1.135704266406716E2  -1.858237617536498E1   3.477414479364896E1  
 3.400000000000000E8    -2.383078915462710E1   1.671723145490904E2   2.232866982749820E1   3.917229196096073E1  -2.623789308597375E1  -1.203409657091422E2  -1.110080112011631E1   4.854849747442505E1  
 3.500000000000000E8    -3.085055543568594E1   1.275491456111579E2   2.232152911385021E1   3.464429972515711E1  -2.764018350956692E1  -1.292230558566193E2  -2.029823473198811E1   6.445951392119198  
 3.600000000000000E8    -2.388298503702387E1   1.681566614953793E2   2.213909150653974E1   2.888775707040664E1  -2.349885682801430E1  -1.278779139380051E2  -1.110090693258899E1   7.927909113992089E1  
 3.700000000000000E8    -2.671975125526699E1   7.885297303558038E1   2.196325322006629E1   2.595349468166570E1  -2.657990367649090E1  -1.400401691582953E2  -1.156985608264698E1   3.370947462204793E1  
 3.800000000000000E8    -2.954487595128438E1   6.321903433874283   2.187884904356167E1   2.098248912205274E1  -2.833699097527065E1  -1.384262987977330E2  -9.527033386233146   2.591704440117874E1  
 3.900000000000000E8    -3.362897893439565E1  -1.009817307736437E2   2.209614673260086E1   1.930460407990866E1  -2.816524444585789E1  -1.418205668723155E2  -1.066308467252751E1   6.351150418608317E1  
 4.000000000000000E8    -2.251884580573785E1   1.241627600779444E2   2.209396133824695E1   9.615565379263353  -2.868795630225989E1  -1.340981483271507E2  -1.096417921748831E1   3.827124546517420E1  
 4.100000000000000E8    -4.227353006800223E1  -3.782766494972366E1   2.216601435757005E1   1.846665196248201E1  -2.838134510021353E1  -1.371178194411925E2  -1.232239752424067E1   5.709680682060301E1  
 4.200000000000000E8    -2.583787889500774E1  -1.314521560895234E2   2.160252844390749E1   1.463490461347437E1  -2.677388534188563E1  -1.578864060633498E2  -1.121691558038051E1   1.676300243272108E1  
 4.300000000000000E8    -2.163634059564920E1   1.011529165410838E2   2.262187766483482E1   3.300249233006063  -2.652871995532470E1  -1.505218420379644E2  -1.196533247582851E1   3.139430442160888E1  
 4.400000000000000E8    -2.170651524858896E1   1.093985891585592E2   2.239153097545785E1   2.176510261093686  -2.696186850525135E1  -1.669975547740990E2  -1.368920696893604E1   1.183944302351024E1  
 4.500000000000000E8    -3.783883317226636E1  -3.172322170519120E1   2.249810105463285E1  -4.861439858691744  -2.790172544562295E1  -1.617736691878793E2  -1.293964532319487E1   8.310599620294534  
 4.600000000000000E8    -3.174088839679913E1   2.502177077428307E1   2.214988924414068E1  -1.010536906128729E1  -2.673210649883638E1  -1.592078600044747E2  -1.223635160687640E1   1.824574500906483E1  
 4.700000000000000E8    -2.851002024736454E1   1.422202643541770E2   2.190194194883481E1  -8.797768101449657  -2.696696822730130E1  -1.714015815797951E2  -1.302074683236258E1  -8.583566438784908  
 4.800000000000000E8    -2.656969174915626E1   1.174861988489905E2   2.190352276694020E1  -1.473091871832058E1  -2.660338201083765E1  -1.652915025900686E2  -1.661370145472979E1   7.058303741307987E1  
 4.900000000000000E8    -2.442999112783231E1   1.035052690899420E2   2.169122598938422E1  -2.007460225520870E1  -2.707960788698038E1  -1.674971003679221E2  -1.104650447504003E1   5.983669939166211  
 5.000000000000000E8    -2.261247465536541E1   9.045345560221446E1   2.123533171830842E1  -2.450970176513403E1  -2.704393311571318E1   1.722246197140892E2  -1.123746475715454E1   1.853789909005193E1  
 5.100000000000000E8    -3.652729610520607E1   8.328776390934124E1   2.211800539767411E1  -2.810167457026821E1  -2.752519142584784E1   1.633037124443463E2  -1.482514887189221E1   2.990983015276749E1  
 5.200000000000000E8    -3.880779338040205E1  -1.078757418119305E2   2.133504197927516E1  -3.070668841506794E1  -2.655944444711295E1   1.732262270896582E2  -1.237950962382704E1   2.711685187927095E1  
 5.300000000000000E8    -2.574667224220674E1   8.941308931060014E1   2.187467073250023E1  -3.534926549411890E1  -2.706777506263850E1   1.736733933275507E2  -8.954560802979108   5.909388386693701  
 5.400000000000000E8    -2.973391939116641E1  -5.784159519468785   2.215821272357739E1  -3.798396164727784E1  -2.588428631740857E1   1.575206048354503E2  -1.171692752608441E1   1.179849000849881  
 5.500000000000000E8    -2.801276697691216E1  -1.750111171101775E2   2.161978204238168E1  -4.797383766630365E1  -2.691316684267293E1   1.577772955715889E2  -1.552493364877125E1   3.931041541569742E1  
 5.600000000000000E8    -3.326159941083699E1   1.216220946457154E2   2.158712457030772E1  -5.301381189245153E1  -2.753538447887262E1   1.466755777089400E2  -1.288264228313498E1  -5.122958687318106  
 5.700000000000000E8    -2.626320137317376E1   4.458504781283940E1   2.147016146984570E1  -5.480999237323519E1  -2.795840711744227E1   1.533994818100095E2  -1.165564887863486E1  -1.207932653328656E1  
 5.800000000000000E8    -2.550871489542067E1   1.555313120665965E2   2.186135333837303E1  -5.274948095886043E1  -2.656873934249779E1   1.518899147727178E2  -7.702351866477308   1.316775395528300E1  
 5.900000000000000E8    -2.412138341401413E1   8.496742804903413E1   2.179890150389542E1  -6.144792663268676E1  -2.536596776037639E1   1.412901594411053E2  -9.626929391388092   1.501490487424546  
 6.000000000000000E8    -2.830377740731802E1   2.317577597042218E1   2.178511252355860E1  -6.420131679457231E1  -2.734688221148297E1   1.403340081246079E2  -9.387774167451799  -2.659241065275087  
 6.100000000000000E8    -2.215310524113266E1   7.912767424413899E1   2.215799848613466E1  -6.685057834918146E1  -2.598736772721659E1   1.457960670208420E2  -1.404631656225510E1   7.726554600507807  
 6.200000000000000E8    -2.648037089387723E1   8.321895119854128E1   2.183885994061271E1  -7.012655607126469E1  -2.685813604913830E1   1.365371186084218E2  -1.138414498419998E1  -4.631294584394444  
 6.300000000000000E8    -2.314030438974603E1   4.064392514406104E1   2.167136687219763E1  -7.791463779395274E1  -2.707697515981746E1   1.346019800926107E2  -1.366768578742856E1  -5.000756582377602E1  
 6.400000000000000E8    -2.406268580292343E1   6.708386287340137E1   2.181598766370667E1  -8.030498780293038E1  -2.661933077020584E1   1.288765679124667E2  -1.090059103001537E1  -2.013794381821812E1  
 6.500000000000000E8    -2.492450664196008E1   6.656458046507031E1   2.166556966836319E1  -8.323933262221438E1  -2.672394878962400E1   1.330582476939984E2  -8.897748544773416  -4.232866581351478E1  
 6.600000000000000E8    -2.724019376049389E1   6.331180670029274E1   2.153795127425283E1  -8.743866052406256E1  -2.571376799864843E1   1.253271192066291E2  -1.078741958557727E1  -3.668926887450174E1  
 6.700000000000000E8    -2.457195391065816E1   6.698951102636892E1   2.152611538104515E1  -9.361970759810313E1  -2.651211321622978E1   1.177069716367391E2  -9.783474914335658  -5.878557733675771E1  
 6.800000000000000E8    -2.253385351433177E1   6.765004394641950E1   2.156737344371426E1  -9.583555192033731E1  -2.686288454024607E1   1.187422552762015E2  -1.405980576083083E1  -3.951952428331357E1  
 6.900000000000000E8    -2.202980131093359E1   7.074769109953449E1   2.165424675228338E1  -9.935038318277887E1  -2.735837602333199E1   1.184586773319042E2  -1.406993090401720E1  -3.005124543108338E1  
 7.000000000000000E8    -2.140752800987094E1   6.071889823225916E1   2.156326107113057E1  -1.042289603796780E2  -2.718006852324383E1   1.033503097742154E2  -1.228363399956963E1  -3.792325087291692E1  
 7.100000000000000E8    -2.272279962622539E1   6.729940533480809E1   2.150248809775202E1  -1.077042979641391E2  -2.714046823159998E1   1.009974762676975E2  -1.065502777676896E1  -4.423897063553589E1  
 7.200000000000000E8    -2.086100468467080E1   4.588601922607344E1   2.140357057430664E1  -1.145555051282577E2  -2.765521874907022E1   1.008565891426063E2  -1.052109537709061E1  -4.917383823154356E1  
 7.300000000000000E8    -1.872274466160050E1   4.537108936442980E1   2.142718423449498E1  -1.167094766277481E2  -2.635499530603955E1   9.746264526921351E1  -1.139923946387893E1  -4.975543459234562E1  
 7.400000000000000E8    -2.048676981194345E1   3.922700766046213E1   2.160380785247387E1  -1.209010674552689E2  -2.711207022827508E1   9.679496206277861E1  -1.062461662898592E1  -4.126795029063350E1  
 7.500000000000000E8    -1.902546721043274E1   4.816384630806264E1   2.116208089329582E1  -1.259039921448127E2  -2.717739340587055E1   9.467822908005078E1  -9.801386888471658  -3.359301860848198E1  
 7.600000000000000E8    -1.841527857276540E1   3.787408207405505E1   2.147323940100984E1  -1.298002462583898E2  -2.722575706563045E1   9.446902464603841E1  -1.142166250522262E1  -4.546489497761635E1  
 7.700000000000000E8    -1.767353557371867E1   4.037464309494457E1   2.137011457380622E1  -1.315037382483606E2  -2.620916202976845E1   7.671990840099748E1  -1.061494020463104E1  -4.344609735051696E1  
 7.800000000000000E8    -1.776793365677570E1   3.414820095651248E1   2.133536598965127E1  -1.382637786426473E2  -2.705266887864393E1   7.648015816603832E1  -1.234670925926828E1  -4.983967424453159E1  
 7.900000000000000E8    -1.817016061196529E1   3.534484218555696E1   2.152147930881037E1  -1.395142461921149E2  -2.737821087518907E1   7.403062454865008E1  -1.033219657342060E1  -6.108543402797240E1  
 8.000000000000000E8    -1.682162389947129E1   3.787841103930009E1   2.168139118605822E1  -1.427810227214973E2  -2.674776245857695E1   7.265308745446234E1  -1.026247524488442E1  -7.692001580992617E1  
 8.100000000000000E8    -1.886413748185650E1   2.156518789642473E1   2.119628012816670E1  -1.462472795557778E2  -2.662812287957084E1   6.147130512120455E1  -1.172329735970454E1  -5.833821875478422E1  
 8.200000000000000E8    -1.727384134397599E1   2.473206780996221E1   2.137207903460026E1  -1.518340191091868E2  -2.670020264387346E1   6.585450030889123E1  -9.720162295523206  -4.713056102073774E1  
 8.300000000000000E8    -1.728344243826695E1   2.699621317179820E1   2.119461478279592E1  -1.583070651156595E2  -2.770230264959035E1   7.175924042070299E1  -1.111238803083636E1  -5.782259581236390E1  
 8.400000000000000E8    -1.781389331498441E1   2.712217953365214E1   2.108214645725872E1  -1.596275657267915E2  -2.753370023276973E1   5.561348841734895E1  -1.350037232473755E1  -6.742441638901769E1  
 8.500000000000000E8    -1.538000404505126E1   2.318916348569373E1   2.134917222756097E1  -1.613006309388459E2  -2.712409201635626E1   5.080533564851364E1  -1.475992507829592E1  -7.389179321777857E1  
 8.600000000000000E8    -1.525505301676445E1   1.232114706453490E1   2.102869938744331E1  -1.674184777246949E2  -2.797350779875947E1   4.515479841534063E1  -1.134090209201419E1  -7.674261768153313E1  
 8.700000000000000E8    -1.570522274744615E1   7.516802155797219   2.088627337499410E1  -1.721190317414876E2  -2.596693114641387E1   5.250416361104461E1  -1.095461132539262E1  -8.337282292172398E1  
 8.800000000000000E8    -1.517575037823379E1   8.693611843025430   2.104863594397103E1  -1.743986882651667E2  -2.683422498512833E1   4.666682900629557E1  -1.242798162442911E1  -7.997383180952369E1  
 8.900000000000000E8    -1.627760425693169E1   8.393423768515714   2.105966135528483E1  -1.787968061913489E2  -2.679161376756683E1   4.006274004302976E1  -1.123283670930058E1  -7.554858942907244E1  
 9.000000000000000E8    -1.678457105106365E1  -3.742098393314966E-2   2.126538418341326E1   1.772967579643231E2  -2.707853614784779E1   3.580765121438660E1  -1.137409085924623E1  -8.750822855777773E1  
 9.100000000000000E8    -1.526888617748518E1  -4.711860508821006   2.122239126809794E1   1.709791368846276E2  -2.700871555437469E1   3.336680542787146E1  -1.322084280968295E1  -8.968226029730948E1  
 9.200000000000000E8    -1.373907971102437E1  -8.633678395729859   2.105453755113587E1   1.699812619454150E2  -2.730215661389881E1   2.461841085666133E1  -1.210246827407938E1  -9.035314356667564E1  
 9.300000000000000E8    -1.433568596049797E1  -9.629279344921153   2.088963855179703E1   1.665621849272456E2  -2.733783778243342E1   2.319829664352064E1  -1.240597486018310E1  -9.951954552666297E1  
 9.400000000000000E8    -1.415178318642915E1  -1.685785281967799E1   2.098273824194564E1   1.619633918985818E2  -2.737990685451107E1   2.314329919124311E1  -1.211509898318510E1  -9.072498811408340E1  
 9.500000000000000E8    -1.461746389606231E1  -1.765251102185856E1   2.062010376424992E1   1.565209370956333E2  -2.734589724914124E1   1.970897958441731E1  -1.287065459199559E1  -1.020148951319789E2  
 9.600000000000000E8    -1.353689473591160E1  -1.805253742447967E1   2.105812576611088E1   1.535779263006085E2  -2.624676491080292E1   1.506460385280603E1  -1.493959573599998E1  -1.151367113450155E2  
 9.700000000000000E8    -1.515571111128197E1  -2.195554521420910E1   2.075828440741454E1   1.475069176227703E2  -2.698631034664916E1   1.771830601372818E1  -9.955466396770023  -1.007546523457399E2  
 9.800000000000000E8    -1.405293044893476E1  -3.062770794388392E1   2.080613333034043E1   1.457275931100374E2  -2.676273707872687E1   7.731429116979607  -1.093531318431908E1  -1.276522188926652E2  
