#  HZ   S   DB   R     50.00 
! Rohde & Schwarz ZVA24 2Ports - Version 3.90 - 1145.1110k24 SN: 100222
! Date: 2019-05-10 15:16:30
! Measurements: S11 S21 S12 S22 
! 
 1.000000000000000E7    -3.052717290401595   1.595685218799275E1   1.709076329527780E1   4.532042878905606E1  -5.124897228160442E1   2.093275341713343  -5.342268458662026  -1.849799769513386E1  
 2.000000000000000E7     1.374049267572556E1   1.010979092038008E2   3.618792060915203E1   1.851334619875288  -1.000554604080752E1  -2.594643165290462E1   1.160715631498051E1   1.562628121967667E2  
 3.000000000000000E7    -1.126236189061245E1   6.956354636307461E1   1.915929812926979E1   1.769796690440199E2  -2.917600831815060E1  -3.609883367016705E1  -1.388636052488106E1   9.144394293416309E1  
 4.000000000000000E7    -8.317573795449388  -7.831385453521293E1   2.296225817392060E1   1.643007749687722E2  -2.502336157025735E1   2.753442936157630E1  -4.648382161554483  -1.791815667395246E2  
 5.000000000000000E7    -1.341622191160531E1  -1.069783359552589E2   1.946980772605056E1   1.572699334328170E2  -3.344772026187618E1   6.322403853819002E1  -8.983353114770630  -1.647350653102018E2  
 6.000000000000000E7    -1.564055370973073E1   1.493017751512319E2   1.991033292555654E1   1.598433983030567E2  -2.400231796382245E1  -2.518054805477787E1  -5.343215148498876  -1.562667233331147E2  
 7.000000000000000E7    -1.088259525966480E1  -1.272365175029778E1   2.602258608667772E1   1.755315452282583E2  -2.936378908052306E1   3.874694610989103E1  -1.101188076376006E1  -1.711541111551998E2  
 8.000000000000000E7    -2.154668452567509E1  -7.549348067665902E1   2.020674900177629E1   1.536122530127981E2  -2.594692666099719E1  -3.716201973117566E1  -8.284614596414805   1.123709858016104E2  
 9.000000000000000E7    -2.042580131246123E1  -9.848744953543800E1   2.431320075409825E1   1.460360416696731E2  -2.780393066532430E1  -4.400970111932519E1  -1.010064559896061E1   1.216799952128198E2  
 1.000000000000000E8    -2.106370115162935E1  -1.447719251240168E2   2.190438380093069E1   1.369321005904055E2  -3.236352480619426E1  -3.473682946600857E1  -1.749281456063964E1   1.588658409350037E2  
 1.100000000000000E8    -1.965503851849791E1  -1.303649642060438E2   2.332470486842365E1   1.310018177686164E2  -2.489404811499410E1  -1.158121474909245E1  -1.457467650731862E1   1.706002715248309E2  
 1.200000000000000E8    -2.025176432913690E1  -1.455989220520693E2   2.244821921839483E1   1.407030869894259E2  -2.803441532786203E1  -3.557626975333938E1  -1.099652453656863E1   1.583412231749276E2  
 1.300000000000000E8    -1.999392433308240E1  -3.683155682825886   2.236687408340752E1   1.365564152715390E2  -2.587095805773781E1  -7.255822354394250E1  -1.314317877800225E1  -1.688061148934386E2  
 1.400000000000000E8    -2.436390901410138E1  -1.374490387073787E1   2.300289336154427E1   1.148521910973292E2  -2.604839429019018E1  -5.739668509911139E1  -1.714662735016557E1   1.463838873946919E2  
 1.500000000000000E8    -1.551291517177852E1   6.014343784511192E1   2.197616780909263E1   1.126109039898347E2  -2.629977172343459E1  -5.415291977383723E1  -1.345533816038372E1   1.105281310279097E2  
 1.600000000000000E8    -2.595784040766091E1   7.105076408931027   2.265022572911395E1   1.244565733334401E2  -2.578926156242104E1  -5.669929274829117E1  -1.108353337230412E1   1.102882799815674E2  
 1.700000000000000E8    -1.447887403280952E1  -6.924478864165073E1   2.353284171740360E1   1.048145124859738E2  -2.590244131058186E1  -7.189519887642841E1  -1.825344401311943E1   1.110625473935633E2  
 1.800000000000000E8    -2.372471620283596E1  -1.510893663873025E2   2.242723213877548E1   1.026954236973334E2  -2.680053048590579E1  -6.674923035653603E1  -2.093946294022202E1   4.454152128174060E1  
 1.900000000000000E8    -3.404560815352136E1   3.868028136573153E1   2.204179044260296E1   9.769263989009724E1  -2.541256605655100E1  -6.098184501189422E1  -1.185938009291239E1   1.168217799462785E2  
 2.000000000000000E8    -2.550749231499356E1  -2.388653429715322E1   2.256895481932443E1   9.350462428683032E1  -2.654540424351639E1  -6.011108478506779E1  -1.021991656706568E1   1.242156126454188E2  
 2.100000000000000E8    -1.975100205610962E1   6.361601127209306E1   2.244005628080788E1   9.848801035730070E1  -2.598137099609922E1  -7.624258941542304E1  -1.156671178434873E1   6.899980645136496E1  
 2.200000000000000E8    -3.002773438396674E1   3.136873009825842E1   2.298097982314877E1   8.336496540195843E1  -2.520656569216608E1  -6.540084320498771E1  -1.226508311366349E1   1.248309103826934E2  
 2.300000000000000E8    -3.095064456898434E1  -4.439011450883337E1   2.151691547272199E1   8.675298575019180E1  -2.910948895532506E1  -8.549025206024083E1  -2.390431840838901E1   4.130934765114631E1  
 2.400000000000000E8    -3.250191200450227E1  -6.208642899262018   2.218733622146118E1   7.999647278504678E1  -2.585711794091278E1  -8.113705224140773E1  -1.451877833235961E1   8.883181412895904E1  
 2.500000000000000E8    -2.782057047940538E1  -5.664211361138283E1   2.240525149886946E1   8.241516506868160E1  -2.826266356655818E1  -8.223817950781776E1  -1.414510135826837E1   8.210982542951130E1  
 2.600000000000000E8    -2.306874222510031E1  -8.663079734219537   2.183664493146445E1   7.165220960206689E1  -2.562939217684293E1  -9.128378751471861E1  -1.113371993937304E1   6.346093699374462E1  
 2.700000000000000E8    -1.990463672320175E1  -1.280310671944152E2   2.262294644471866E1   6.779404992101239E1  -2.784455748812331E1  -1.008072383476710E2  -1.794982407829130E1   6.973688030968162E1  
 2.800000000000000E8    -2.943500687330338E1  -4.234120741470679E1   2.192137533179535E1   6.604621248950869E1  -2.601349701114502E1  -1.065031931466159E2  -6.417310408693757   8.625227798134766E1  
 2.900000000000000E8    -3.475351894804265E1   1.039136526036535E2   2.255444147564669E1   6.592878889791660E1  -2.503305709601585E1  -1.018876240558202E2  -1.129727491949508E1   1.105925904404088E2  
 3.000000000000000E8    -2.861162993797995E1  -3.494879140829924E1   2.195958618114499E1   5.964886589660917E1  -2.848953364317103E1  -1.184392737448593E2  -1.380745952829506E1   2.337019081018957E1  
 3.100000000000000E8    -3.765034320888326E1  -1.282174218417161E2   2.213767572072971E1   5.374647564482640E1  -2.481426820068173E1  -1.107615287406220E2  -1.147406342433593E1   1.012237180132378E2  
 3.200000000000000E8    -2.294752573481616E1   1.301101856782335E1   2.182494518481607E1   4.660482955515402E1  -2.733270042326401E1  -1.303383991483032E2  -1.132600863968652E1   8.365353816653300E1  
 3.300000000000000E8    -2.606009956924112E1   9.172914105478469E1   2.214480346141303E1   4.038680635455116E1  -2.863596711473629E1  -1.152749400228827E2  -1.139532170312781E1   8.865198362855874E1  
 3.400000000000000E8    -2.298662969276363E1  -6.212561766977829E1   2.172554594158928E1   3.742511317970512E1  -2.707361486218793E1  -1.236934858046371E2  -1.121538254023852E1   8.595438193070098E1  
 3.500000000000000E8    -3.213936756301334E1   6.386464545474702E1   2.344223938988251E1   3.734427054701899E1  -2.695574203439984E1  -1.529694307304555E2  -1.221041468697284E1   5.295956518245669E1  
 3.600000000000000E8    -2.030976515606130E1   1.654539455740644E1   2.215563985101263E1   3.127211719505739E1  -2.843216554924346E1  -1.226523234826886E2  -8.953295700291331   8.003268148753364E1  
 3.700000000000000E8    -2.991653837170857E1   8.600205379252748E1   2.276928714108983E1   3.065806505896823E1  -2.637023234147080E1  -1.160558284568826E2  -8.753759695061911   7.282060506806843E1  
 3.800000000000000E8    -3.211106375784448E1   5.012260552833137   2.189430629301439E1   2.315519882316220E1  -2.679032163626779E1  -1.555023040711010E2  -1.380446040782457E1   3.419821828595637E1  
 3.900000000000000E8    -2.606623401000343E1   1.610305268383870E1   2.235713777074029E1   2.216834578690543E1  -2.632323259407871E1  -1.386814423385509E2  -9.029175337695572   4.008603240647735E1  
 4.000000000000000E8    -2.585175480290234E1   6.278378621509069E1   2.263124097886047E1   1.693983803764608E1  -2.929856742629539E1  -1.471620758940748E2  -1.341446888033319E1   1.814500496075314E1  
 4.100000000000000E8    -2.295892679614989E1   8.235993997603103E1   2.233976795031095E1   1.281884317220265E1  -2.626249596693775E1  -1.412409733030462E2  -1.065101079354472E1   5.092172895226141E1  
 4.200000000000000E8    -2.705871169410599E1   5.920380092540553E1   2.179375564650117E1   6.807631262545746  -2.621475301413758E1  -1.517143598372303E2  -1.433880831215012E1   6.730635681885913E1  
 4.300000000000000E8    -3.875097295462557E1   1.222497976800334E2   2.155035039719443E1  -2.386596441646648  -2.767017412043575E1  -1.597379937434062E2  -1.259166195199421E1   2.906795786730705E1  
 4.400000000000000E8    -2.645188217631274E1   3.562849988834150   2.171025364036499E1  -1.840368482027323  -2.805587583637311E1  -1.522199347680351E2  -1.083365211486964E1   3.574611958708837E1  
 4.500000000000000E8    -2.785456255342101E1  -1.323963386767845   2.213968568718251E1  -1.947912220019231  -2.832522225974254E1  -1.599620414389819E2  -8.588792416079722   2.550912927975057E1  
 4.600000000000000E8    -3.090781194374925E1  -2.460717606638264E1   2.190528040395880E1  -8.011071306930187  -2.679151955293100E1  -1.656468931440421E2  -1.310959447909706E1   3.343057489637978E1  
 4.700000000000000E8    -3.148832456079571E1   2.970632067646402E1   2.203485763036764E1  -1.433463265401503E1  -2.748434069610312E1  -1.775199791087235E2  -1.297383299625460E1   1.181148314033134E1  
 4.800000000000000E8    -2.052445889699311E1   2.589430556732769E1   2.176923159591286E1  -1.929726830048466E1  -2.760172898133219E1  -1.697129988697683E2  -1.621671610090536E1  -2.860214278809172  
 4.900000000000000E8    -2.772882018306009E1   6.959872868687741E1   2.197853828318717E1  -1.811528978081257E1  -2.631655930760826E1  -1.784771732470257E2  -1.333938978558080E1   1.504430827416223E1  
 5.000000000000000E8    -2.598957290290376E1   4.630892325376937E1   2.134064145583425E1  -2.658335395811812E1  -2.814762650140203E1  -1.774617913505853E2  -1.401703719479572E1   3.060378923884375E1  
 5.100000000000000E8    -2.215113808674773E1   2.075980418262811E1   2.141340023239722E1  -3.012164656574114E1  -2.791625829264167E1   1.685665910715278E2  -1.241931514762980E1  -1.006710416769244E1  
 5.200000000000000E8    -2.798854291979384E1   4.236262169249868E1   2.211225327977384E1  -3.327532478068932E1  -2.554188911690531E1   1.687047554113689E2  -1.158562467663790E1   5.885911133558829  
 5.300000000000000E8    -3.293820840529606E1  -3.748513975504937E1   2.144526108654592E1  -3.655933446079769E1  -2.642598259670866E1   1.652993689832882E2  -1.231800635202439E1   9.089751855915116  
 5.400000000000000E8    -2.604140518783117E1   1.066193685352810E1   2.225514431711303E1  -4.502478959519867E1  -2.706686610980901E1   1.676917877632947E2  -1.384836074529294E1  -3.410918036452523  
 5.500000000000000E8    -2.832064961049202E1   5.232691985667824E1   2.236914739132053E1  -4.115059257942124E1  -2.813534483304801E1   1.615040344639621E2  -1.209977323480986E1  -1.591639288266689E1  
 5.600000000000000E8    -2.864667981355580E1   7.462916875010301   2.160965783906745E1  -4.641710306496501E1  -2.735866812842637E1   1.476816094142696E2  -1.541079460547221E1   1.567061649716749E1  
 5.700000000000000E8    -2.370487142425608E1   4.975767109194432E1   2.169455631568135E1  -5.538892970601450E1  -2.775781184344609E1   1.412337573068774E2  -9.121821522823392  -2.544144973639217E1  
 5.800000000000000E8    -3.132820711904331E1   8.455163064454017E1   2.187165874639576E1  -5.495436404348429E1  -2.613810029850269E1   1.554091113887468E2  -9.045345292025059   3.585587190975951  
 5.900000000000000E8    -3.407147419831480E1   4.183711461751986E1   2.202271962750316E1  -6.082445951542537E1  -2.685229094114026E1   1.607908577000420E2  -1.300371597003282E1  -2.288000271518043  
 6.000000000000000E8    -2.984414844377198E1   5.176749863974123E1   2.254690025443309E1  -6.778483227994161E1  -2.668526697636903E1   1.578835765126389E2  -7.310150502128754  -5.998848169021007  
 6.100000000000000E8    -2.539042985287219E1   1.025748764728765E2   2.161513659575531E1  -6.956733979723478E1  -2.675881421582786E1   1.412301069871424E2  -1.196146724318662E1  -1.932439195285923E1  
 6.200000000000000E8    -2.777328489826919E1   7.598516363286780E1   2.145922334142743E1  -7.375845663595398E1  -2.706031523918443E1   1.438158658096158E2  -1.195580460627529E1  -9.931385500964174  
 6.300000000000000E8    -2.432374703827870E1   1.301894318775361E1   2.192553370462683E1  -7.574205444036544E1  -2.639232741792799E1   1.354461011732322E2  -1.234832708759286E1  -2.551825788229965E1  
 6.400000000000000E8    -2.292307820107764E1   8.227492901070525   2.188284883288432E1  -7.695056871239019E1  -2.908498161601316E1   1.317143133867385E2  -1.151889732900314E1  -3.317882749868846E1  
 6.500000000000000E8    -2.444338399380647E1   4.688894251365885E1   2.155952255731408E1  -8.520712739864892E1  -2.683277995185299E1   1.266849406419212E2  -9.329768259349189  -3.102681491640939E1  
 6.600000000000000E8    -2.731072489716432E1   2.044157978052237E1   2.148791491540392E1  -8.920607939214378E1  -2.643825764539477E1   1.252850581787629E2  -9.401277654603646  -6.237263745818554E1  
 6.700000000000000E8    -2.272651225240453E1   3.749360118219105E1   2.144396716688788E1  -9.018993019454771E1  -2.668910684653766E1   1.137095402975315E2  -1.329893342258990E1  -2.307575495701552E1  
 6.800000000000000E8    -2.004278218294068E1   5.944016981816224E1   2.134140454774483E1  -9.740902309339066E1  -2.607012145581592E1   1.174744163900101E2  -1.094366961371930E1  -1.787243312660295E1  
 6.900000000000000E8    -2.456268783559317E1   5.031469317513794E1   2.155736188880598E1  -1.007139901383786E2  -2.749405832743959E1   1.111499140531911E2  -1.295890896484631E1  -1.464754353093728E1  
 7.000000000000000E8    -2.199260037598011E1   4.050785556450444E1   2.140253451787750E1  -1.017802690959916E2  -2.707704428057477E1   1.053951321651321E2  -1.105789497586020E1  -2.815903964275830E1  
 7.100000000000000E8    -1.923531351591828E1   5.193160388380375E1   2.141120142442693E1  -1.086930912867781E2  -2.743806966336843E1   1.058321925376815E2  -9.168676623022749  -5.142161258120031E1  
 7.200000000000000E8    -1.975488652736071E1   4.365924140180551E1   2.151846448474077E1  -1.123040583478062E2  -2.691136755509725E1   9.511323393054980E1  -1.073451459969106E1  -4.316902394214122E1  
 7.300000000000000E8    -1.850298440121506E1   5.217328109559887E1   2.158721590291541E1  -1.129862869254896E2  -2.808306511764117E1   9.344969312671374E1  -1.381299282961266E1  -3.411875942279501E1  
 7.400000000000000E8    -2.161623221167226E1   3.414292955052530E1   2.125632475611530E1  -1.188312696116098E2  -2.688750879050139E1   9.767078283403910E1  -1.009253302611123E1  -6.091102246228373E1  
 7.500000000000000E8    -2.091816552170431E1   2.401434326526906E1   2.129038427646315E1  -1.236803299614139E2  -2.647558011164684E1   8.629230118376154E1  -1.193768307072195E1  -5.612181068679485E1  
 7.600000000000000E8    -2.061709746556310E1   2.835039633832774E1   2.084347399723152E1  -1.279576652232481E2  -2.681364440945045E1   7.856849431709337E1  -9.970473724348242  -5.178307215934071E1  
 7.700000000000000E8    -1.938167422811486E1   1.670783918954003E1   2.120241201440634E1  -1.320483425681419E2  -2.677225643429460E1   8.679195245057001E1  -9.196841936654089  -5.804430387534223E1  
 7.800000000000000E8    -1.757267101971705E1   2.314853383492179E1   2.133330198923945E1  -1.355985852042319E2  -2.535664085818053E1   7.755401705482936E1  -1.646516470492307E1  -5.914451134128468E1  
 7.900000000000000E8    -1.849557169237701E1   3.073192328790561E1   2.129192652863548E1  -1.396302399051356E2  -2.790406329631036E1   7.545909979885992E1  -1.590628058029997E1  -6.061682809343067E1  
 8.000000000000000E8    -1.613338609223554E1   2.804645372298623E1   2.159769653852583E1  -1.437892188130978E2  -2.639744344346086E1   8.045863536676157E1  -1.039932180236566E1  -5.981615128195772E1  
 8.100000000000000E8    -1.755515358087372E1   2.016634259269937E1   2.115634200107529E1  -1.474041839926194E2  -2.920971917689344E1   6.040313471981165E1  -1.156419840696712E1  -6.058841870749566E1  
 8.200000000000000E8    -1.730035949833163E1   2.663626488785081E1   2.096954470609767E1  -1.514685875055139E2  -2.781617193144625E1   6.692694733673909E1  -1.409172011090675E1  -7.393763934016511E1  
 8.300000000000000E8    -1.614299810918466E1  -8.949052650993954E-2   2.109795038201647E1  -1.550925000762440E2  -2.677278389006388E1   6.144097832065270E1  -1.046782499066664E1  -4.719563277648981E1  
 8.400000000000000E8    -1.531701592429049E1  -5.468599345012195E-1   2.098198904820209E1  -1.607949573655276E2  -2.693471961245735E1   5.717429709322377E1  -1.441284453207658E1  -6.638381238556551E1  
 8.500000000000000E8    -1.444043702436870E1  -1.666822249295574   2.111982797931680E1  -1.628942710284239E2  -2.623484648808968E1   4.785840559794526E1  -1.173820279695628E1  -5.886907690442342E1  
 8.600000000000000E8    -1.557421991183241E1  -1.579870886018934   2.100494871002032E1  -1.673894445469862E2  -2.759997910622373E1   5.493405826228117E1  -1.254369910111759E1  -7.774165916043354E1  
 8.700000000000000E8    -1.534896100685563E1  -6.593586041974536   2.123109801624841E1  -1.721737353394319E2  -2.684098554581944E1   4.625810150191625E1  -1.375925722312475E1  -7.876447188140587E1  
 8.800000000000000E8    -1.437047153837768E1  -6.902458973544987E-1   2.078529560906726E1  -1.743447211428047E2  -2.767057883782733E1   4.567374942416410E1  -1.349987455522006E1  -7.121651937094569E1  
 8.900000000000000E8    -1.419582253357733E1  -1.157708471972160E1   2.112873322462379E1  -1.775890901610982E2  -2.690113131281600E1   3.909617572605619E1  -1.065673734496211E1  -8.417634606685762E1  
 9.000000000000000E8    -1.450774294769817E1  -1.093493647050999E1   2.102193177971702E1   1.771904453765277E2  -2.661125015861408E1   3.747315810004922E1  -1.286984458724387E1  -7.826683911967473E1  
 9.100000000000000E8    -1.334982081301618E1  -2.156261136713874E1   2.080528903625310E1   1.728209053451112E2  -2.638876721606547E1   2.829699729754351E1  -1.097934135397825E1  -1.130230591718660E2  
 9.200000000000000E8    -1.423696722169432E1  -2.006059000217996E1   2.071864047512603E1   1.683510671693552E2  -2.772713405060662E1   2.536372290529628E1  -1.229671037027220E1  -7.447210114666598E1  
 9.300000000000000E8    -1.330001838481441E1  -2.362271891482354E1   2.090311761720992E1   1.654465389479763E2  -2.751822163706300E1   2.518581045515606E1  -1.082686864084029E1  -9.165698266591514E1  
 9.400000000000000E8    -1.262385014264860E1  -2.756857549992138E1   2.072424642870364E1   1.612528057813981E2  -2.670222371235051E1   2.526375210267509E1  -1.170275757536324E1  -1.063472784570592E2  
 9.500000000000000E8    -1.251674090671809E1  -3.348027554899277E1   2.064664074276001E1   1.563378255136102E2  -2.777890350222841E1   1.310733486153126E1  -1.363178843361241E1  -8.819261762396947E1  
 9.600000000000000E8    -1.353386099829991E1  -3.212879786962683E1   2.077075239733072E1   1.536660774691864E2  -2.734404930579394E1   1.942638473609631E1  -1.155001495882976E1  -1.001687114584746E2  
 9.700000000000000E8    -1.318688956754052E1  -4.498099654968875E1   2.060363776672729E1   1.491816321658810E2  -2.757468900389485E1   1.683143471755759E1  -1.326119987946325E1  -1.094902742256954E2  
 9.800000000000000E8    -1.276787027380470E1  -4.098750246789357E1   2.070841205668264E1   1.449123328074234E2  -2.647105150152461E1   4.641140208678420  -1.085292014377875E1  -1.036135288019483E2  
