#  HZ   S   DB   R     50.00 
! Rohde & Schwarz ZVA24 2Ports - Version 3.90 - 1145.1110k24 SN: 100222
! Date: 2019-05-10 15:22:21
! Measurements: S11 S21 S12 S22 
! 
 1.000000000000000E7     9.011227010184918E-2   9.989903748257344   3.374504848991227E1  -6.481941778631094E1  -2.747560190349597E1  -8.581965209549864E1   1.569727641953273   6.979097335204196E1  
 2.000000000000000E7    -1.338891490788768E1  -1.357733362784315E2   3.928279959456279E1  -2.184536764237761  -2.199144277807378E1   8.876783898608957E1   1.405695284167819E1   1.302302917173848E2  
 3.000000000000000E7    -1.110765873761479E1  -7.598215856544684E1   3.949391678999900E1  -6.024551217111826  -2.213356110055847E1  -1.416468765686164E2   1.234972469734839E1   3.808565487615112E1  
 4.000000000000000E7    -2.545609111072591  -1.585931515232904E2   4.799423365903600E1  -7.408674339353480E1  -2.428286291255995E1  -5.836178450996120E1   8.998220749446078  -1.526951983850716E2  
 5.000000000000000E7    -1.434291496895646E1   9.144892224576066E1   4.307672277574391E1  -1.602860645182494E1  -4.454696612772563E1   1.468114416463266E2   5.506161989275118  -1.575163985453382E2  
 6.000000000000000E7    -5.661006311841749  -3.956861992451958   5.298475791141431E1  -3.986488892958065E1  -3.257842577584696E1  -1.265189011619752E1   8.382958255018325E-1  -1.446469824736118E2  
 7.000000000000000E7    -1.724690995370119E1  -1.098982421119199   4.374794089222237E1  -4.548351616061206E1  -3.888356480192473E1   9.160097473025854   4.829303586671231  -1.426443431281084E2  
 8.000000000000000E7    -1.742514724655767E1  -2.524188707483776E1   4.256687098050146E1  -3.926234338378023E1  -5.972619361275478E1  -2.206906559774825E1   2.470227293126579   1.264430916557918E2  
 9.000000000000000E7    -2.653459743011819E1  -4.151635302237229E1   4.190718827647782E1  -6.264543226357407E1  -3.716097125295756E1   1.377358030962682E2  -6.922722717363415  -1.166172582961792E2  
 1.000000000000000E8    -1.419923869948096E1   6.244731972691592E1   4.272000943697883E1  -7.363599347399787E1  -4.626753731993428E1   1.033474875126850E2   3.556880182617116E-1   8.202987612094427E1  
 1.100000000000000E8    -1.637348232602911E1  -1.026093700763395E1   4.275351850210563E1  -6.184455766098967E1  -3.123608943754025E1  -1.708640679458058E2  -2.899274855449977   6.279349699083185E1  
 1.200000000000000E8    -1.143250079008027E1  -1.451859266364482E1   4.307245048961206E1  -8.698806369907595E1  -3.273839117516984E1  -1.575101332283832E2   4.252953599372052   1.655454898879185E2  
 1.300000000000000E8    -1.772355167639659E1  -3.623534564430642E1   4.454644940639599E1  -1.025057250337904E2  -3.686666385112919E1  -1.516345859425737E2  -3.449317274202860  -1.064768089052759E2  
 1.400000000000000E8    -1.708099965314399E1  -4.530966733663110E1   4.213970589844970E1  -1.049860623688904E2  -3.605055942548045E1  -1.241240499936318E2   9.170879842953905  -1.050769331350702E1  
 1.500000000000000E8    -1.268436834062156E1  -5.947267676471812E1   4.390177917614993E1  -1.060774245170244E2  -3.546173062804233E1  -1.161325852254443E2   4.644555272191410  -9.769154337118641E1  
 1.600000000000000E8    -1.573103489055558E1  -4.970679891657358E1   4.416264261072474E1  -1.261741895220596E2  -3.617072979470304E1  -6.591624455251444E1   2.507294572104367  -1.369568342800327E2  
 1.700000000000000E8    -9.936663481189104  -3.209307663973571E1   4.559595944417227E1  -1.353821443768232E2  -3.795478058626158E1   4.867267832531422E1  -6.879761531496350  -2.155608081167376E1  
 1.800000000000000E8    -1.522572196612008E1  -1.290512614415901E2   4.559183793786936E1  -1.399004588669735E2  -3.763876976668252E1  -8.240930630171290E1   5.455425859379655  -8.038413597847222E1  
 1.900000000000000E8    -3.011416740182945E1  -7.725410677015093E1   4.524553181631564E1  -1.445360249790239E2  -5.030411052265411E1  -1.785649251828298E2   2.743556530903672  -2.100670482483675  
 2.000000000000000E8    -3.954573153584965E1   1.298824696608052E2   4.565067759630112E1  -1.624787510710704E2  -4.420824653945015E1  -5.288810018561028E1   3.946916240015089E-1  -7.363071414160851E1  
 2.100000000000000E8    -1.322641123739013E1  -8.633021979209728E1   4.469798754282038E1  -1.667692816277293E2  -4.111286600740736E1   1.115658538770657E2  -8.572042865867392  -2.461889509314073E1  
 2.200000000000000E8    -2.149995014891634E1   4.445337446718216E1   4.495798931648395E1  -1.751264976759772E2  -4.517366580459316E1  -5.462152015145520E1  -3.295581764999270E-1  -6.512290081982367E1  
 2.300000000000000E8    -1.677190260324746E1  -7.591326130952058E1   4.462634630504023E1  -1.738808254656715E2  -3.949039004725815E1  -9.723180764255686E1  -1.213927475054915  -1.103058922990100E2  
 2.400000000000000E8    -1.794214389054687E1  -5.911983767486080E1   4.391141685953293E1   1.729011828963960E2  -4.160549691627508E1  -8.278903569034164E1   2.136243313595506   4.527183600122430E1  
 2.500000000000000E8    -2.236423878058144E1  -1.799643094413875E2   4.377923447999669E1   1.651869866280616E2  -3.636881547650383E1   1.649236463572464E2   2.599003652041326   7.965097413272895E1  
 2.600000000000000E8    -3.576441334076854E1   8.954136343135740E1   4.331768789739669E1   1.631268990903592E2  -4.049970564079570E1  -1.444918423849709E2   4.757553903774999   4.058725224698053E1  
 2.700000000000000E8    -3.655708885562464E1   7.638474935092015E1   4.458977535662967E1   1.474941343482018E2  -4.081180492988234E1   1.383212655997468E2  -9.057881986377188   7.489064091816252E1  
 2.800000000000000E8    -1.856755234386496E1  -1.234017646299288E2   4.433099899839910E1   1.458889905750972E2  -3.543697459037928E1   1.518861393143998E2   9.718287195514240   3.957662386992549E1  
 2.900000000000000E8    -3.062610305764583E1   2.107360849036506E1   4.415972910728042E1   1.406225756006056E2  -5.511708779545910E1   8.147404927552306E1   2.062466828592334  -1.670251867484047E2  
 3.000000000000000E8    -1.797169391262666E1   1.605054612500819E2   4.408547044998276E1   1.178593162441216E2  -3.989566660149594E1  -1.565281060859911E2   4.358415613338395   1.184570053275647E2  
 3.100000000000000E8    -1.200039764832279E1   1.669215358773805E2   4.248288723519237E1   1.292471481594182E2  -3.751512721714951E1  -1.363417724287718E2   4.244956355344450  -8.021513998167997  
 3.200000000000000E8    -1.255295403806598E1   1.174302016896241E2   4.348282034059858E1   1.110926333833542E2  -4.267358426502167E1  -1.306009871673559E2  -3.180888038852406   4.647519326579671E1  
 3.300000000000000E8    -1.623688439054425E1  -1.072788536804824E2   4.196323729601280E1   8.378037782247900E1  -4.108131719423403E1   1.309638329617555E2   5.393921790653087   1.772678757752181E2  
 3.400000000000000E8    -9.327421609412161   1.197100075935661E1   4.392403816554915E1   1.007429925515414E2  -3.833998929192421E1  -8.155556210183190E1  -3.737384197711156   1.311507291714268E2  
 3.500000000000000E8    -2.312595493989347E1   1.663039339726188E2   4.341004209762863E1   8.317294776373242E1  -5.157564062405483E1   1.302658401838740E2  -2.935263685105699  -2.979936250641363E1  
 3.600000000000000E8    -1.445152895011787E1  -1.001326014554029E2   4.258206798034847E1   7.560676804233121E1  -3.959466887044481E1  -9.567448705114258E1  -1.608343880900728  -2.860250655441850E1  
 3.700000000000000E8    -1.415402965704702E1   1.113500020098180E2   4.355141759054053E1   6.389308178308522E1  -4.007220102331045E1   1.595201582644212E2  -4.848465268138916   5.994088499225215E1  
 3.800000000000000E8    -1.654617820182732E1   1.634225377249876E2   4.263437551713148E1   6.593716454958803E1  -4.868856587499987E1  -1.063462598743367E2  -1.437218881179186E1  -1.184407802710906E2  
 3.900000000000000E8    -2.390907497272493E1   1.796820020392468E2   4.395945247731662E1   5.236855079995729E1  -4.521572453389728E1   5.221030450045765E1  -4.862680022201722   1.006987672635819E2  
 4.000000000000000E8    -1.467822173272428E1  -9.855920515972599E1   4.192940778276098E1   5.262725591111386E1  -3.618508787394425E1   7.496536314089225E1   2.952270056533946   2.789377578501971E1  
 4.100000000000000E8    -1.993553837789172E1   1.308687323743522E2   4.155205514084941E1   3.566336336083480E1  -4.161789102061472E1   3.694085734225855E1   3.243482267438393   1.299585860491519E2  
 4.200000000000000E8    -1.963008137089059E1   7.445249451196169E1   4.243396923576726E1   2.368256592217557E1  -5.966567101905377E1  -6.790004648769556E1   7.150097395035374E-1  -1.790656089888728E2  
 4.300000000000000E8    -2.142322426484604E1   1.344269607265308E2   4.227138843391189E1   1.808771947057582E1  -5.120216362937851E1   1.250773129988918E2   1.093559165846759  -1.337963656097190E2  
 4.400000000000000E8    -2.658602543297630E1   1.686869730921910E2   4.203836300934948E1   1.417079501746052E1  -4.423366840884046E1  -1.466291201343061E2  -4.556722342975145  -1.590592390067799E2  
 4.500000000000000E8    -2.159717118156053E1   7.037271304557942E1   4.271379740472707E1   1.183267739350275E1  -4.789520804228145E1   4.748628202176054E1  -3.332965578053614  -9.050793803402772  
 4.600000000000000E8    -2.813362217271592E1   1.822032923576587E1   4.336641499557084E1   1.939736852677543  -4.149777452389312E1   2.070279741084372E1  -4.542074021611030  -2.361420949961931E1  
 4.700000000000000E8    -2.667098886658986E1   7.645880838372904E1   4.326931622578680E1  -5.331613459783774  -4.905161586535802E1   6.346377954941695E1  -1.921951020350308  -8.912465857705547E1  
 4.800000000000000E8    -2.317881293133874E1  -2.158668353768888E1   4.321897674862897E1  -1.790075938529631E1  -3.902993845313032E1   3.460978202695309E1   9.274975212784836E-1  -1.154062386409735E2  
 4.900000000000000E8    -1.623657788766544E1   4.205735712658104E1   4.198067297787411E1  -2.547993210661040E1  -4.306499293533406E1   1.590248280450182E2  -1.938858662108029E1   9.533310293138484E1  
 5.000000000000000E8    -1.669254963998429E1   8.820837377066995   4.198640260710611E1  -3.039980965206914E1  -4.099209414140991E1   1.492715984235950E2  -1.686521292970826  -4.519595083492341E1  
 5.100000000000000E8    -1.488428939283214E1   2.032736563757169   4.276473511699623E1  -3.776869949170559E1  -4.189939537852182E1   1.511846884139370E2  -1.236225784181988E1   3.156064597243804E1  
 5.200000000000000E8    -2.882121040529064E1   1.907077670953163E1   4.306571616373356E1  -4.517933557556022E1  -4.436214308292663E1   4.173549252262649E1  -1.075217037678242   4.052109852714071E1  
 5.300000000000000E8    -3.147829142341452E1  -3.333279381517959E1   4.368481068561894E1  -4.829650201541530E1  -5.040582182120966E1   2.839975424156082E1   4.704939705647600E-1  -1.562065978727398E2  
 5.400000000000000E8    -2.209928739932561E1   1.145989652523007E2   4.244942615193623E1  -5.601086083932349E1  -4.305216055072508E1   5.491439339950681E1  -3.690907299088835  -3.152837317710208E1  
 5.500000000000000E8    -2.506793980458260E1  -1.376134611343967E2   4.189951964183275E1  -6.625559612539702E1  -5.043975295336613E1   1.648198869199422E2  -3.951428661393168   8.630758323918887E1  
 5.600000000000000E8    -1.646266993831288E1   2.315483040030986   4.187476332133621E1  -6.905303960012313E1  -4.515247188401371E1  -7.800406739238249E-1   1.865863465874008   6.443714808556049E1  
 5.700000000000000E8    -2.266472800690618E1   8.992614293145137E1   4.203924513484505E1  -7.831859510807315E1  -4.932190407400174E1  -1.729196402243711E2  -1.455778202784804   6.885567247121810E1  
 5.800000000000000E8    -2.884895698178243E1  -3.199754111935843E1   4.358746342968823E1  -9.057947638664335E1  -4.638390673114858E1  -3.625843944828981E1   6.736233426441930E-3  -3.336258053731189E1  
 5.900000000000000E8    -2.953706169186600E1   3.948605955013563E1   4.230364062233232E1  -1.008941182640877E2  -4.791600499766374E1  -7.536330445506975E1  -1.573476710656581  -5.661848909934398E1  
 6.000000000000000E8    -2.085497134233404E1  -1.123476553056593E2   4.333759209876375E1  -1.050946398589658E2  -4.229352789375379E1   4.131103581336269E1  -7.249164915202736E-1   5.096982727031290E1  
 6.100000000000000E8    -2.171037151125423E1   6.703512684669046E1   4.178277954975616E1  -1.066927818522015E2  -4.399694250342195E1  -5.867974673624559E1  -7.193033169625304  -6.265169648684406E1  
 6.200000000000000E8    -1.682536024811961E1   2.234952214268319E1   4.305601536122475E1  -1.191123715109957E2  -4.067806998364005E1  -5.644130305578710E1  -3.853222664559048   1.566826816621224E2  
 6.300000000000000E8    -2.388399813791541E1  -5.217380831816145   4.215711859655436E1  -1.246524479239240E2  -4.499180779884519E1  -7.872103485370887E1  -2.279968974665907  -4.073445540158362E1  
 6.400000000000000E8    -2.442743848131435E1  -1.418621451232747E1   4.240063495525502E1  -1.332924064434576E2  -4.265024039102559E1  -3.789890510435670E1  -5.615223630047165  -4.406785935338669E1  
 6.500000000000000E8    -2.644838859667055E1   7.827966103943358E1   4.227394539761119E1  -1.372068725939369E2  -5.093703608744993E1   8.136410300246054E1  -1.740099487254513E-1  -1.541401086239611E1  
 6.600000000000000E8    -4.829976542089584E1   6.177861096668053E1   4.221616650664361E1  -1.477753616760404E2  -4.446346120467619E1  -4.049167612056780E1  -1.528289559859413E1   5.395145306570661E1  
 6.700000000000000E8    -2.573148932979327E1   8.928520364060545E1   4.191443560247620E1  -1.512071096731241E2  -5.249375567789840E1  -1.000460672723359E2   3.140971733952303   3.184591823533634E1  
 6.800000000000000E8    -2.090136599115801E1   1.135702109429224E2   4.207844850391152E1  -1.633795075816335E2  -4.108621350778151E1  -1.504151262451975E2  -5.112769989590584   1.338476820790167E1  
 6.900000000000000E8    -2.577162013789192E1   8.130749186865708E1   4.236278777062501E1  -1.712352172888675E2  -4.655411437355556E1  -2.694314535420729E1  -1.433922886548328E-1  -4.858334255550737E1  
 7.000000000000000E8    -2.755634558722396E1   9.003384059624341E1   4.216542031611928E1  -1.798699078950426E2  -4.234621918767073E1  -4.820156217395873  -2.086324031119748  -1.179749756327544E2  
 7.100000000000000E8    -1.821106813928564E1   8.858060988708600E1   4.231709193676230E1   1.724429915228475E2  -5.140310475601226E1  -5.349000157715084E1  -2.869604357716308  -5.337648946022071E1  
 7.200000000000000E8    -1.779532550817542E1   7.013699631647859E1   4.223883601984808E1   1.674529991809493E2  -5.061136061422091E1  -1.055165944929540E2  -4.241144703859142  -8.591064890131200  
 7.300000000000000E8    -1.618309127214950E1   6.472964270326155E1   4.156034411355008E1   1.585590218570039E2  -4.815988708209076E1  -1.171771117857298E2  -1.262257884203141E1  -9.110165790256092  
 7.400000000000000E8    -1.263379677793077E1   6.468973291432208E1   4.152177120265899E1   1.526244859968825E2  -4.411853485986242E1  -3.722545818493331E1  -2.707369013347166  -1.574013384917985  
 7.500000000000000E8    -1.519960906497095E1   6.427024513121667E1   4.171506959215159E1   1.450644478228212E2  -5.086955868125590E1  -1.722947166274295E2  -6.460203233473319   2.500960060598042E1  
 7.600000000000000E8    -1.149768207982321E1   4.245393822446854E1   4.093303830998035E1   1.383231345708462E2  -4.843556772412439E1   3.198534811875622  -7.950477911700802  -3.835848698618104E1  
 7.700000000000000E8    -1.310022537963276E1   4.736800605199336E1   4.012843910561602E1   1.344176003732291E2  -5.419600548168011E1  -1.279050283897610E2   2.209943268706311  -3.798976450258663E1  
 7.800000000000000E8    -1.179398887647488E1   3.733721379873311E1   4.068541874580572E1   1.178154362308309E2  -5.886518431058237E1  -1.487524239027878E2  -1.014920299388662E1   9.022509549233796E1  
 7.900000000000000E8    -9.663523676828717   2.942321203938947E1   4.061174109718126E1   1.168991217607650E2  -4.445426060424700E1   1.337759624643301E2  -5.755775738360210  -3.193786673106515E1  
 8.000000000000000E8    -1.317791924812635E1   1.811479247477780E1   4.028633519004037E1   1.115811047084773E2  -4.566821155775953E1   4.677030016574937E1  -3.455734661838344   5.069504911062594E1  
 8.100000000000000E8    -1.381364358147124E1   1.909377498089741E1   4.066994878804245E1   9.792757637315917E1  -5.250225560916486E1   1.725237703477755E1  -7.634988856117899   1.558179690909560E2  
 8.200000000000000E8    -1.690852303481672E1   1.795423626706481E1   4.238951884238145E1   9.154787897207910E1  -4.753338121192028E1   1.018927901086489E2  -2.909539517376320   3.787880810159447E1  
 8.300000000000000E8    -1.223124302036049E1  -1.708718160430137E-1   4.147743786432009E1   8.189477810631887E1  -4.330462430209037E1  -1.721823164265241E2  -7.481973556872865  -3.180448713604023E1  
 8.400000000000000E8    -9.903122554971279  -4.999967289329725   4.221233607868922E1   7.906476380010382E1  -4.824459746795971E1  -3.330673074269554E1  -2.303788570936862   1.244402514296383E2  
 8.500000000000000E8    -1.202053645514307E1  -8.079019764221468E-1   4.133770008988810E1   6.908582871911534E1  -4.280814909215775E1   1.315994053338819E2  -2.384075621537224  -9.641747162413645E1  
 8.600000000000000E8    -1.226899620591844E1  -1.483862138411730E1   4.140226130476162E1   5.910113945729209E1  -4.915683149980133E1  -1.578111534408529E2  -6.383720192382417E-2  -6.640818318625169E1  
 8.700000000000000E8    -1.101065090997139E1  -2.486752294239753E1   4.197545231460587E1   5.201538761093269E1  -5.581016266167717E1   1.779078813792218E2  -2.551008351525234  -1.525148392609652E2  
 8.800000000000000E8    -1.170328235504884E1  -2.709091656858273E1   4.173414853303251E1   4.403910693550562E1  -4.587232803055959E1   6.909834482039568E1  -1.211167082299022E1  -1.058591665764075E2  
 8.900000000000000E8    -1.185851332563342E1  -3.103060588678926E1   4.140225447563596E1   3.603943244125047E1  -5.752906967079331E1   9.126084340821201E1  -3.588381251465296  -7.823701307488976E1  
 9.000000000000000E8    -1.241277411939986E1  -4.026296261539167E1   4.142759770501243E1   2.453372907521273E1  -5.061230103766027E1  -1.357042807068782E2  -1.138246267353829E1   7.237444886494276E1  
 9.100000000000000E8    -1.182069899504792E1  -4.794081489092586E1   4.147238161016068E1   2.062916293584934E1  -4.667430709714648E1   9.771308199255002E1  -8.106447115229102  -6.753305598576152E1  
 9.200000000000000E8    -1.073500843696003E1  -4.634834194577420E1   4.140845697718406E1   1.216355369660880E1  -4.836865576145187E1   1.400811512837089E2  -6.802093000638600   5.043798306733847E1  
 9.300000000000000E8    -1.351869653707989E1  -4.623609756556054E1   4.071855225566944E1   2.257158561726102  -4.670434016993946E1  -5.898857358243068E1  -3.179535655693182   7.739607197208972E1  
 9.400000000000000E8    -1.385717092727510E1  -7.070818007763377E1   4.094690738685134E1  -3.586149100219576  -4.558469195132599E1   1.051618510368038E2  -8.498629835206621  -1.656787821644240E2  
 9.500000000000000E8    -1.317800757918388E1  -8.459127324974131E1   4.064245451099548E1  -1.625626407465458E1  -4.536359118339556E1   1.515212472453836E2   1.176481380435938  -1.664421168523479E2  
 9.600000000000000E8    -1.337171184824721E1  -7.174190507022102E1   4.124927636095351E1  -1.651880547971393E1  -5.949219097995047E1   1.385058744153109E2  -1.377562043489913E1  -2.311924511405557E1  
 9.700000000000000E8    -1.599211595455472E1  -6.988414768565343E1   4.109123337560582E1  -2.784273950409043E1  -4.690390157892545E1   1.055131959135627E2  -8.264735968490097  -9.916452732521759E1  
 9.800000000000000E8    -1.610733382592311E1  -6.109095273701714E1   4.084893633968467E1  -3.405196016094210E1  -4.627049883628813E1   1.422900264534451E2  -1.333277622821838E1  -1.035014073011089E2  
 9.900000000000000E8    -1.539995515397280E1  -6.412714951048952E1   4.073497065622664E1  -4.121332568593623E1  -5.225385635147833E1   1.426414493065602E2  -8.408710983968360  -1.242249398173629E2  
