! Mini-Circuits  
! S2P DATA File Format
! Type: MMIC Amplifier
! Model: GALI-39     Reference Data:RDF-1232
! Note: All S Parameters are in dB deg format
! TEST CONDITIONS: INPUT POWER = -25dBm, Icc = 42mA, Vd = 3.63V @Temperature = +25degC
! 401 Frequency points
!
# MHz S DB R 50
!    FREQ       dB(S11)   PHS(S11)  dB(S21)   PHS(S21)  dB(S12)   PHS(S12)  dB(S22)   PHS(S22) 
   50.000000   -24.225   172.537    23.777   173.143   -25.914    -4.021   -20.888   174.511 
   56.000000   -24.226   174.958    23.798   172.449   -25.917    -4.164   -20.786   174.201 
   62.000000   -24.713   173.356    23.816   171.684   -25.897    -4.572   -20.972   174.000 
   68.000000   -24.701   174.309    23.822   170.979   -25.912    -4.890   -20.961   173.623 
   74.000000   -24.377   171.540    23.792   170.296   -25.896    -5.211   -20.988   173.399 
   80.000000   -24.051   171.526    23.785   169.586   -25.917    -5.637   -20.785   172.742 
   86.000000   -24.549   168.960    23.776   168.869   -25.927    -6.017   -20.722   172.419 
   92.000000   -24.771   170.268    23.799   168.077   -25.925    -6.391   -20.699   171.920 
   98.000000   -24.410   171.899    23.772   167.265   -25.906    -6.767   -20.850   171.633 
  104.000000   -24.377   171.853    23.781   166.622   -25.914    -7.119   -20.898   171.135 
  110.000000   -24.530   168.824    23.754   165.951   -25.907    -7.402   -20.864   170.748 
  116.000000   -24.134   170.707    23.737   165.200   -25.940    -7.791   -20.725   170.396 
  122.000000   -24.429   170.094    23.736   164.459   -25.929    -8.124   -20.649   169.921 
  128.000000   -24.110   168.952    23.749   163.700   -25.927    -8.504   -20.684   169.404 
  134.000000   -24.299   168.824    23.748   162.995   -25.914    -8.947   -20.788   168.930 
  140.000000   -24.687   168.122    23.750   162.171   -25.909    -9.361   -20.820   168.455 
  146.000000   -24.674   168.292    23.729   161.514   -25.895    -9.732   -20.725   167.960 
  152.000000   -24.365   167.311    23.719   160.751   -25.923   -10.105   -20.624   167.275 
  160.000000   -24.227   167.636    23.724   159.741   -25.927   -10.646   -20.565   166.719 
  175.000000   -24.087   165.979    23.724   157.905   -25.927   -11.598   -20.528   165.431 
  190.000000   -24.133   163.201    23.689   156.146   -25.917   -12.590   -20.589   164.228 
  205.000000   -24.037   161.690    23.657   154.328   -25.896   -13.460   -20.590   163.325 
  220.000000   -24.499   161.858    23.673   152.390   -25.886   -14.492   -20.550   162.241 
  235.000000   -24.160   158.583    23.641   150.701   -25.891   -15.364   -20.453   161.288 
  250.000000   -24.333   156.721    23.627   148.789   -25.889   -16.373   -20.483   160.050 
  265.000000   -24.102   157.948    23.592   146.896   -25.873   -17.338   -20.428   158.957 
  280.000000   -24.363   156.618    23.566   145.121   -25.864   -18.335   -20.475   157.873 
  295.000000   -24.503   155.979    23.554   143.322   -25.856   -19.224   -20.304   156.342 
  310.000000   -24.162   153.636    23.529   141.494   -25.870   -20.209   -20.155   154.967 
  325.000000   -23.987   151.807    23.513   139.710   -25.869   -21.131   -20.157   153.779 
  340.000000   -24.054   151.157    23.480   137.960   -25.861   -22.114   -20.212   152.544 
  355.000000   -23.842   150.954    23.443   136.175   -25.860   -23.100   -20.057   151.076 
  370.000000   -23.879   149.413    23.435   134.272   -25.855   -24.075   -19.973   149.524 
  390.000000   -23.745   147.848    23.421   131.957   -25.853   -25.408   -19.887   148.014 
  405.000000   -23.710   145.921    23.393   130.247   -25.834   -26.387   -19.959   146.744 
  425.000000   -24.003   145.152    23.358   127.773   -25.811   -27.743   -19.952   144.782 
  440.000000   -24.012   143.601    23.326   126.072   -25.814   -28.673   -19.852   143.302 
  460.000000   -23.795   140.766    23.307   123.677   -25.806   -30.013   -19.862   141.418 
  475.000000   -23.747   140.931    23.269   121.949   -25.796   -31.006   -19.814   139.975 
  495.000000   -23.971   138.788    23.228   119.624   -25.773   -32.321   -19.728   138.048 
  510.000000   -23.868   137.427    23.208   117.910   -25.783   -33.320   -19.572   136.607 
  530.000000   -23.313   134.304    23.157   115.568   -25.788   -34.628   -19.507   134.493 
  545.000000   -23.378   134.096    23.142   113.807   -25.782   -35.627   -19.431   132.870 
  565.000000   -23.576   130.799    23.123   111.515   -25.774   -36.978   -19.358   130.983 
  580.000000   -23.568   130.389    23.081   109.728   -25.771   -37.972   -19.456   129.802 
  600.000000   -23.381   128.038    23.047   107.453   -25.745   -39.352   -19.473   127.857 
  615.000000   -23.429   128.606    23.017   105.713   -25.735   -40.339   -19.421   126.238 
  635.000000   -23.655   125.067    22.999   103.378   -25.727   -41.647   -19.317   124.391 
  650.000000   -23.533   123.533    22.949   101.736   -25.718   -42.651   -19.383   122.990 
  670.000000   -23.584   122.538    22.909    99.420   -25.703   -44.024   -19.404   121.228 
  685.000000   -23.617   121.866    22.873    97.732   -25.692   -45.065   -19.253   119.638 
  705.000000   -23.537   118.663    22.839    95.471   -25.701   -46.338   -19.117   117.687 
  720.000000   -23.379   116.537    22.807    93.774   -25.696   -47.382   -19.139   116.118 
  740.000000   -23.275   115.421    22.773    91.442   -25.690   -48.679   -19.077   114.080 
  755.000000   -23.316   114.328    22.756    89.818   -25.670   -49.787   -19.161   112.692 
  775.000000   -23.666   113.392    22.697    87.506   -25.653   -51.130   -19.191   110.989 
  790.000000   -23.696   111.011    22.666    85.865   -25.648   -52.142   -19.037   109.305 
  810.000000   -23.343   108.200    22.636    83.536   -25.662   -53.405   -18.970   106.781 
  825.000000   -23.452   107.929    22.597    81.884   -25.650   -54.390   -19.008   105.491 
  845.000000   -23.462   104.964    22.557    79.679   -25.634   -55.814   -18.961   103.682 
  860.000000   -23.483   103.647    22.522    77.971   -25.639   -56.766   -18.944   102.374 
  880.000000   -23.296   102.821    22.494    75.717   -25.622   -58.164   -18.882   100.210 
  895.000000   -23.512   101.046    22.467    74.074   -25.620   -59.188   -18.958    98.893 
  915.000000   -23.585    99.693    22.409    71.897   -25.595   -60.610   -19.009    97.144 
  930.000000   -23.734    97.849    22.391    70.190   -25.580   -61.614   -18.953    95.687 
  950.000000   -23.710    96.264    22.354    67.975   -25.583   -62.923   -18.974    93.755 
  965.000000   -23.460    95.727    22.328    66.305   -25.572   -63.991   -18.925    92.174 
  985.000000   -23.772    94.055    22.277    64.148   -25.549   -65.349   -19.024    90.448 
 1000.000000   -23.803    93.035    22.234    62.494   -25.545   -66.403   -18.900    88.958 
 1020.000000   -23.606    91.008    22.197    60.278   -25.549   -67.702   -18.882    86.990 
 1035.000000   -23.683    89.021    22.168    58.642   -25.544   -68.717   -18.904    85.605 
 1055.000000   -23.690    87.025    22.120    56.484   -25.537   -70.114   -18.865    83.758 
 1070.000000   -23.727    86.565    22.093    54.814   -25.530   -71.138   -18.859    82.084 
 1090.000000   -23.631    85.538    22.062    52.630   -25.518   -72.512   -18.808    80.318 
 1105.000000   -23.741    84.740    22.025    50.965   -25.513   -73.569   -18.852    78.980 
 1125.000000   -23.899    82.307    21.989    48.788   -25.492   -74.988   -18.918    77.127 
 1140.000000   -23.917    81.531    21.952    47.158   -25.489   -76.020   -18.898    75.716 
 1160.000000   -23.922    80.650    21.914    45.011   -25.481   -77.354   -18.953    73.892 
 1175.000000   -24.095    79.036    21.881    43.426   -25.468   -78.359   -18.966    72.213 
 1195.000000   -24.292    77.498    21.830    41.259   -25.453   -79.762   -19.017    70.507 
 1210.000000   -24.137    76.659    21.793    39.668   -25.449   -80.812   -18.938    68.983 
 1230.000000   -24.163    75.727    21.754    37.480   -25.448   -82.147   -18.916    67.248 
 1245.000000   -24.266    74.170    21.717    35.913   -25.432   -83.175   -18.951    66.130 
 1265.000000   -24.240    72.375    21.675    33.730   -25.422   -84.554   -18.944    64.162 
 1280.000000   -24.156    71.425    21.640    32.118   -25.425   -85.620   -18.949    62.869 
 1300.000000   -24.045    70.710    21.611    29.980   -25.421   -86.996   -18.923    60.826 
 1315.000000   -24.378    69.531    21.575    28.420   -25.412   -88.022   -19.008    59.603 
 1335.000000   -24.449    67.567    21.537    26.324   -25.379   -89.465   -19.072    58.086 
 1350.000000   -24.488    67.566    21.505    24.695   -25.372   -90.538   -19.053    56.695 
 1370.000000   -24.526    67.423    21.467    22.617   -25.366   -91.917   -19.106    55.136 
 1385.000000   -24.629    66.235    21.438    21.023   -25.351   -93.000   -19.141    53.781 
 1405.000000   -24.851    65.032    21.377    18.856   -25.333   -94.452   -19.194    52.158 
 1420.000000   -24.709    64.393    21.347    17.303   -25.335   -95.504   -19.111    50.646 
 1440.000000   -24.762    64.162    21.308    15.173   -25.336   -96.810   -19.080    48.736 
 1455.000000   -24.819    62.347    21.270    13.601   -25.329   -97.905   -19.114    47.532 
 1475.000000   -24.722    59.772    21.228    11.525   -25.323   -99.316   -19.148    45.635 
 1490.000000   -24.777    60.105    21.201     9.951   -25.320  -100.373   -19.128    44.417 
 1510.000000   -24.862    60.024    21.158     7.792   -25.296  -101.894   -19.212    42.662 
 1525.000000   -25.093    58.475    21.129     6.165   -25.301  -102.831   -19.181    41.126 
 1545.000000   -24.923    55.334    21.090     4.112   -25.311  -104.169   -19.184    39.249 
 1560.000000   -25.092    54.142    21.036     2.599   -25.301  -105.110   -19.331    37.735 
 1580.000000   -25.254    55.857    21.003     0.530   -25.267  -106.573   -19.329    36.388 
 1595.000000   -25.323    54.452    20.981    -1.036   -25.269  -107.644   -19.350    35.217 
 1615.000000   -25.317    53.096    20.941    -3.124   -25.259  -109.048   -19.410    33.600 
 1630.000000   -25.295    51.773    20.903    -4.695   -25.245  -110.162   -19.502    32.790 
 1650.000000   -25.313    52.341    20.871    -6.791   -25.228  -111.634   -19.535    31.035 
 1665.000000   -25.644    51.268    20.834    -8.306   -25.230  -112.680   -19.547    29.701 
 1685.000000   -25.570    50.172    20.793   -10.418   -25.213  -114.014   -19.655    28.093 
 1700.000000   -25.588    49.829    20.758   -11.895   -25.205  -115.172   -19.739    26.839 
 1720.000000   -25.824    51.391    20.715   -13.966   -25.182  -116.595   -19.738    25.182 
 1735.000000   -25.983    50.647    20.685   -15.481   -25.188  -117.602   -19.692    23.871 
 1755.000000   -25.793    48.332    20.643   -17.580   -25.180  -118.993   -19.761    22.496 
 1770.000000   -25.811    47.348    20.602   -19.117   -25.172  -120.084   -19.808    21.619 
 1790.000000   -25.780    47.390    20.568   -21.212   -25.165  -121.579   -19.755    19.690 
 1805.000000   -25.966    46.235    20.535   -22.702   -25.171  -122.532   -19.825    18.280 
 1825.000000   -26.087    44.963    20.506   -24.731   -25.156  -123.925   -19.961    16.832 
 1840.000000   -25.960    45.117    20.462   -26.269   -25.145  -125.060   -20.089    15.762 
 1860.000000   -26.190    46.985    20.427   -28.300   -25.119  -126.562   -20.161    14.375 
 1875.000000   -26.377    46.432    20.396   -29.811   -25.111  -127.574   -20.178    13.256 
 1895.000000   -26.345    45.216    20.376   -31.834   -25.108  -129.003   -20.244    12.096 
 1910.000000   -25.981    45.217    20.326   -33.350   -25.091  -130.112   -20.314    10.655 
 1930.000000   -26.228    46.070    20.277   -35.431   -25.067  -131.620   -20.355     9.275 
 1945.000000   -26.157    46.768    20.254   -36.957   -25.076  -132.633   -20.344     7.970 
 1965.000000   -26.287    44.056    20.226   -38.970   -25.069  -134.027   -20.375     6.313 
 1980.000000   -26.124    43.400    20.182   -40.531   -25.064  -135.127   -20.424     5.300 
 2000.000000   -26.194    44.807    20.147   -42.576   -25.047  -136.638   -20.427     3.815 
 2015.000000   -26.205    43.689    20.122   -44.054   -25.042  -137.686   -20.448     2.777 
 2035.000000   -26.372    42.470    20.097   -46.126   -25.041  -139.153   -20.523     1.175 
 2050.000000   -26.167    41.097    20.052   -47.676   -25.036  -140.309   -20.603    -0.104 
 2070.000000   -26.022    43.407    20.012   -49.700   -25.022  -141.842   -20.680    -1.857 
 2085.000000   -26.230    41.921    19.987   -51.291   -25.029  -142.904   -20.735    -3.657 
 2105.000000   -26.403    40.931    19.946   -53.151   -25.021  -144.213   -20.978    -4.805 
 2120.000000   -26.472    41.644    19.908   -54.652   -24.999  -145.323   -21.082    -5.525 
 2140.000000   -26.376    43.325    19.872   -56.687   -24.982  -146.796   -21.109    -6.677 
 2155.000000   -26.361    42.751    19.841   -58.165   -24.982  -147.860   -21.109    -8.046 
 2175.000000   -26.186    40.835    19.799   -60.226   -24.983  -149.267   -21.170    -9.453 
 2190.000000   -26.150    40.145    19.763   -61.641   -24.973  -150.473   -21.287   -10.712 
 2210.000000   -26.310    41.547    19.721   -63.728   -24.977  -151.889   -21.310   -12.871 
 2225.000000   -26.602    41.685    19.696   -65.216   -24.975  -152.856   -21.471   -14.113 
 2245.000000   -26.551    41.472    19.664   -67.194   -24.960  -154.242   -21.688   -14.849 
 2260.000000   -26.514    41.838    19.641   -68.626   -24.935  -155.435   -21.823   -15.201 
 2280.000000   -26.148    43.474    19.612   -70.559   -24.918  -156.967   -21.910   -16.308 
 2295.000000   -26.090    41.016    19.582   -72.128   -24.910  -158.078   -21.941   -17.331 
 2315.000000   -26.064    41.929    19.552   -74.114   -24.904  -159.562   -22.081   -18.504 
 2330.000000   -25.764    41.353    19.516   -75.591   -24.892  -160.658   -22.164   -19.277 
 2350.000000   -25.604    42.117    19.477   -77.618   -24.883  -162.270   -22.143   -20.832 
 2365.000000   -25.584    41.098    19.452   -79.086   -24.881  -163.263   -22.171   -22.161 
 2385.000000   -25.786    40.175    19.411   -81.125   -24.885  -164.763   -22.279   -23.708 
 2400.000000   -25.506    38.516    19.367   -82.641   -24.884  -165.931   -22.410   -24.813 
 2420.000000   -25.552    39.805    19.338   -84.585   -24.888  -167.413   -22.501   -26.582 
 2435.000000   -25.767    38.981    19.299   -86.056   -24.886  -168.367   -22.681   -28.146 
 2455.000000   -25.752    40.125    19.276   -88.001   -24.870  -169.703   -22.912   -28.688 
 2470.000000   -25.423    39.722    19.258   -89.444   -24.849  -170.910   -23.024   -28.569 
 2490.000000   -25.203    40.175    19.218   -91.404   -24.836  -172.480   -23.180   -29.661 
 2505.000000   -24.898    40.449    19.197   -92.872   -24.825  -173.609   -23.282   -30.717 
 2525.000000   -24.866    39.727    19.173   -94.850   -24.805  -175.043   -23.453   -30.679 
 2540.000000   -24.680    38.352    19.143   -96.416   -24.789  -176.297   -23.451   -31.204 
 2560.000000   -24.708    37.293    19.097   -98.395   -24.794  -177.999   -23.364   -34.011 
 2575.000000   -24.643    36.166    19.054   -99.858   -24.831  -179.005   -23.502   -35.870 
 2595.000000   -24.913    36.482    19.015  -101.764   -24.832   179.710   -23.819   -37.397 
 2610.000000   -24.783    36.566    18.992  -103.229   -24.822   178.688   -24.044   -37.807 
 2630.000000   -24.438    38.804    18.972  -105.034   -24.796   177.220   -24.191   -38.292 
 2645.000000   -24.153    36.743    18.939  -106.573   -24.778   176.127   -24.319   -38.708 
 2665.000000   -24.107    36.398    18.931  -108.580   -24.764   174.615   -24.447   -39.202 
 2680.000000   -24.010    34.889    18.899  -110.023   -24.748   173.387   -24.518   -39.275 
 2700.000000   -23.611    34.817    18.869  -112.033   -24.736   171.822   -24.590   -40.145 
 2715.000000   -23.498    34.023    18.844  -113.494   -24.725   170.644   -24.653   -40.829 
 2735.000000   -23.413    32.064    18.821  -115.501   -24.717   169.036   -24.747   -41.591 
 2750.000000   -23.435    30.937    18.778  -117.042   -24.728   167.744   -24.924   -44.086 
 2770.000000   -23.423    31.311    18.722  -118.860   -24.746   166.328   -25.239   -45.947 
 2785.000000   -23.283    31.941    18.704  -120.307   -24.744   165.390   -25.371   -47.116 
 2805.000000   -23.146    30.515    18.678  -122.185   -24.739   164.090   -25.648   -46.834 
 2820.000000   -22.917    30.267    18.649  -123.677   -24.722   162.906   -25.751   -46.592 
 2840.000000   -22.855    29.917    18.618  -125.597   -24.707   161.312   -25.822   -47.747 
 2855.000000   -22.559    28.824    18.610  -127.120   -24.698   160.223   -26.030   -47.845 
 2875.000000   -22.461    27.361    18.585  -129.049   -24.682   158.705   -26.141   -48.110 
 2890.000000   -22.500    25.908    18.553  -130.554   -24.681   157.366   -26.283   -48.861 
 2910.000000   -22.258    25.617    18.522  -132.406   -24.682   155.839   -26.510   -50.055 
 2925.000000   -21.994    24.844    18.510  -133.903   -24.677   154.743   -26.660   -50.388 
 2945.000000   -22.155    23.846    18.478  -135.913   -24.652   153.231   -26.849   -49.501 
 2960.000000   -21.881    23.014    18.447  -137.326   -24.644   152.041   -27.008   -50.393 
 2980.000000   -21.681    21.418    18.410  -139.331   -24.637   150.327   -27.038   -51.834 
 2995.000000   -21.499    20.765    18.386  -140.813   -24.641   149.258   -27.128   -53.419 
 3015.000000   -21.681    19.994    18.349  -142.788   -24.638   147.681   -27.445   -53.911 
 3030.000000   -21.503    19.216    18.318  -144.177   -24.648   146.598   -27.757   -54.948 
 3050.000000   -21.367    18.563    18.301  -146.006   -24.639   145.181   -28.010   -53.379 
 3065.000000   -21.150    17.361    18.280  -147.572   -24.620   143.918   -28.178   -53.576 
 3085.000000   -21.107    16.140    18.246  -149.539   -24.621   142.291   -28.328   -55.508 
 3100.000000   -20.977    15.579    18.214  -150.952   -24.628   141.205   -28.548   -56.031 
 3120.000000   -20.922    14.943    18.193  -152.845   -24.638   139.691   -28.771   -56.844 
 3135.000000   -20.878    14.150    18.170  -154.261   -24.633   138.542   -29.090   -56.946 
 3155.000000   -20.875    13.640    18.138  -156.135   -24.646   136.999   -29.414   -57.501 
 3170.000000   -20.798    13.272    18.095  -157.519   -24.655   135.957   -29.843   -56.429 
 3190.000000   -20.526    12.439    18.094  -159.366   -24.638   134.613   -30.185   -52.444 
 3205.000000   -20.331    11.316    18.082  -160.858   -24.614   133.415   -30.256   -50.395 
 3225.000000   -20.159    10.233    18.063  -162.861   -24.596   131.793   -30.151   -49.995 
 3240.000000   -19.986     8.595    18.045  -164.351   -24.588   130.622   -30.185   -50.512 
 3260.000000   -19.834     6.868    18.018  -166.246   -24.575   129.015   -30.237   -49.155 
 3275.000000   -19.813     5.920    17.996  -167.741   -24.571   127.758   -30.375   -49.877 
 3295.000000   -19.790     4.841    17.956  -169.656   -24.573   126.054   -30.671   -50.903 
 3310.000000   -19.748     4.253    17.928  -171.077   -24.587   124.964   -31.024   -51.213 
 3330.000000   -19.470     2.737    17.909  -173.004   -24.563   123.597   -30.935   -49.085 
 3345.000000   -19.573     1.395    17.883  -174.526   -24.568   122.229   -31.225   -50.177 
 3365.000000   -19.431     1.093    17.862  -176.333   -24.573   120.812   -31.362   -47.742 
 3380.000000   -19.290    -0.576    17.839  -177.828   -24.565   119.640   -31.332   -47.584 
 3400.000000   -19.257    -2.236    17.817  -179.703   -24.556   118.088   -31.356   -45.896 
