! Mini-Circuits  
! S2P DATA File Format
! Type: MMIC Amplifier
! Model: GALI-39     Reference Data:RDF-1232
! Note: All S Parameters are in dB deg format
! TEST CONDITIONS: INPUT POWER = -25dBm, Icc = 28mA, Vd = 3.77V @Temperature = -45degC
! 401 Frequency points
!
# MHz S DB R 50
!    FREQ       dB(S11)   PHS(S11)  dB(S21)   PHS(S21)  dB(S12)   PHS(S12)  dB(S22)   PHS(S22) 
   50.000000   -32.052    -3.518    23.058   173.119   -25.109    -4.039   -55.563  -107.536 
   56.000000   -31.697    -9.174    23.006   172.474   -25.105    -4.320   -49.515   -54.218 
   62.000000   -30.924   -11.218    23.045   171.760   -25.105    -4.735   -47.295   -54.054 
   68.000000   -29.974   -14.036    23.021   171.014   -25.120    -5.102   -44.736   -48.173 
   74.000000   -30.794   -13.068    23.070   170.315   -25.125    -5.506   -45.457   -69.451 
   80.000000   -30.650   -11.700    23.040   169.627   -25.103    -5.946   -44.594   -63.134 
   86.000000   -30.116   -11.436    23.059   168.907   -25.100    -6.341   -44.273   -71.473 
   92.000000   -29.803   -14.482    23.015   168.134   -25.096    -6.744   -41.600   -51.873 
   98.000000   -30.173   -22.306    23.012   167.350   -25.119    -7.134   -41.488   -56.899 
  104.000000   -29.437   -21.507    23.004   166.695   -25.107    -7.521   -39.583   -48.084 
  110.000000   -29.368   -19.260    23.035   165.991   -25.127    -7.892   -41.343   -63.152 
  116.000000   -29.956   -24.849    23.015   165.275   -25.103    -8.325   -39.640   -56.385 
  122.000000   -29.400   -24.714    23.019   164.530   -25.110    -8.704   -40.449   -63.383 
  128.000000   -29.665   -25.517    22.988   163.776   -25.091    -9.103   -38.126   -50.683 
  134.000000   -29.286   -25.832    22.992   163.083   -25.126    -9.514   -38.875   -54.569 
  140.000000   -28.373   -25.867    22.988   162.248   -25.108    -9.985   -37.268   -49.025 
  146.000000   -28.214   -28.540    23.014   161.581   -25.127   -10.398   -39.574   -63.494 
  152.000000   -28.647   -27.986    23.007   160.825   -25.090   -10.858   -38.459   -56.698 
  160.000000   -28.763   -29.751    22.980   159.813   -25.091   -11.337   -39.672   -65.650 
  175.000000   -29.057   -33.907    22.954   158.027   -25.083   -12.316   -37.614   -57.086 
  190.000000   -29.049   -34.597    22.945   156.237   -25.067   -13.477   -37.140   -56.770 
  205.000000   -30.000   -38.449    22.934   154.392   -25.094   -14.477   -37.801   -64.565 
  220.000000   -28.664   -42.183    22.931   152.479   -25.102   -15.496   -38.790   -78.851 
  235.000000   -29.175   -40.506    22.897   150.741   -25.102   -16.473   -38.509   -84.756 
  250.000000   -29.378   -43.126    22.877   148.850   -25.076   -17.553   -38.592   -95.153 
  265.000000   -30.194   -51.221    22.885   146.969   -25.078   -18.586   -38.508  -106.288 
  280.000000   -29.936   -53.869    22.896   145.150   -25.076   -19.652   -38.015  -131.781 
  295.000000   -30.367   -59.003    22.870   143.357   -25.082   -20.633   -36.868  -148.855 
  310.000000   -30.780   -61.178    22.833   141.522   -25.057   -21.701   -36.000  -155.140 
  325.000000   -32.293   -68.565    22.841   139.665   -25.030   -22.810   -35.398  -155.672 
  340.000000   -32.719   -75.808    22.817   137.887   -25.025   -23.863   -34.428  -163.737 
  355.000000   -32.867   -85.129    22.793   136.143   -25.041   -24.895   -33.465  -168.877 
  370.000000   -32.303   -89.210    22.754   134.286   -25.019   -25.987   -32.550  -175.593 
  390.000000   -32.885  -100.198    22.715   131.916   -25.009   -27.407   -32.561  -172.051 
  405.000000   -33.616  -103.858    22.713   130.198   -24.993   -28.480   -32.427  -173.628 
  425.000000   -32.559  -105.933    22.682   127.755   -25.020   -29.853   -31.564   178.971 
  440.000000   -31.878  -105.889    22.645   125.919   -25.031   -30.887   -31.391   177.125 
  460.000000   -32.400  -111.446    22.620   123.575   -24.995   -32.376   -31.362   175.747 
  475.000000   -31.800  -119.279    22.621   121.823   -25.001   -33.443   -31.231   173.749 
  495.000000   -31.223  -114.971    22.603   119.420   -24.995   -34.869   -30.170   165.599 
  510.000000   -31.177  -119.544    22.570   117.739   -25.003   -35.976   -29.691   162.665 
  530.000000   -31.580  -131.817    22.534   115.329   -24.963   -37.407   -30.001   162.337 
  545.000000   -31.055  -134.003    22.514   113.546   -24.964   -38.463   -29.372   157.395 
  565.000000   -31.517  -134.595    22.469   111.283   -24.935   -39.958   -29.729   158.460 
  580.000000   -30.880  -135.857    22.434   109.477   -24.931   -41.028   -29.884   159.162 
  600.000000   -31.076  -145.770    22.419   107.181   -24.947   -42.444   -29.488   155.548 
  615.000000   -30.289  -144.583    22.376   105.371   -24.957   -43.500   -29.020   151.862 
  635.000000   -30.416  -140.675    22.343   103.042   -24.938   -44.953   -28.932   151.533 
  650.000000   -30.671  -146.953    22.334   101.334   -24.923   -46.074   -29.011   151.172 
  670.000000   -30.258  -148.632    22.331    98.977   -24.929   -47.513   -28.282   146.472 
  685.000000   -30.062  -150.743    22.297    97.271   -24.922   -48.557   -27.846   143.504 
  705.000000   -30.041  -150.241    22.248    94.938   -24.892   -50.080   -27.696   142.238 
  720.000000   -30.739  -159.981    22.247    93.238   -24.874   -51.212   -27.580   139.743 
  740.000000   -30.166  -160.138    22.196    90.880   -24.876   -52.597   -27.524   137.914 
  755.000000   -29.809  -159.530    22.142    89.288   -24.883   -53.675   -28.303   140.871 
  775.000000   -29.691  -160.356    22.145    86.879   -24.883   -55.152   -27.796   135.883 
  790.000000   -29.467  -156.874    22.122    85.188   -24.893   -56.209   -27.529   132.480 
  810.000000   -29.481  -162.102    22.079    82.863   -24.867   -57.720   -27.942   130.895 
  825.000000   -29.291  -165.305    22.049    81.150   -24.834   -58.805   -28.087   129.754 
  845.000000   -29.642  -169.139    22.024    78.879   -24.841   -60.295   -27.905   126.971 
  860.000000   -29.399  -168.981    22.000    77.164   -24.842   -61.334   -27.637   123.906 
  880.000000   -28.932  -171.115    21.936    74.955   -24.825   -62.831   -28.096   123.975 
  895.000000   -29.228  -173.113    21.898    73.244   -24.804   -64.004   -28.331   123.512 
  915.000000   -29.112  -176.606    21.878    70.996   -24.824   -65.375   -28.110   120.083 
  930.000000   -29.012  -174.315    21.847    69.289   -24.835   -66.421   -27.884   117.993 
  950.000000   -28.791  -175.013    21.808    67.015   -24.826   -67.890   -27.808   115.800 
  965.000000   -28.650   179.855    21.777    65.383   -24.815   -69.048   -27.838   114.651 
  985.000000   -28.868   177.094    21.772    63.054   -24.807   -70.518   -27.338   110.616 
 1000.000000   -28.625   177.938    21.743    61.395   -24.814   -71.580   -26.924   108.165 
 1020.000000   -28.538   175.327    21.694    59.162   -24.778   -73.125   -27.089   107.783 
 1035.000000   -28.840   170.428    21.684    57.411   -24.765   -74.236   -26.937   105.835 
 1055.000000   -29.073   164.689    21.644    55.199   -24.769   -75.669   -26.660   103.516 
 1070.000000   -28.851   163.285    21.628    53.494   -24.770   -76.839   -26.393   100.406 
 1090.000000   -28.280   161.362    21.566    51.354   -24.748   -78.286   -26.634   101.118 
 1105.000000   -28.370   158.005    21.523    49.684   -24.736   -79.520   -26.644    99.974 
 1125.000000   -28.655   155.995    21.515    47.402   -24.761   -80.856   -26.395    96.256 
 1140.000000   -28.412   155.892    21.476    45.685   -24.771   -81.954   -26.316    94.943 
 1160.000000   -27.993   155.104    21.433    43.528   -24.744   -83.426   -26.419    93.357 
 1175.000000   -28.018   154.677    21.395    41.935   -24.738   -84.528   -26.561    92.362 
 1195.000000   -28.134   151.493    21.388    39.636   -24.733   -85.951   -26.025    87.490 
 1210.000000   -27.855   149.971    21.357    37.976   -24.746   -87.049   -25.795    85.353 
 1230.000000   -27.423   149.458    21.310    35.798   -24.705   -88.631   -25.973    85.239 
 1245.000000   -27.610   146.108    21.280    34.149   -24.691   -89.797   -25.844    83.992 
 1265.000000   -27.803   140.996    21.254    31.920   -24.696   -91.239   -25.667    81.467 
 1280.000000   -27.708   137.813    21.233    30.245   -24.697   -92.374   -25.388    79.233 
 1300.000000   -27.281   136.802    21.171    28.117   -24.682   -93.868   -25.701    79.101 
 1315.000000   -27.440   134.913    21.123    26.512   -24.662   -95.009   -25.778    78.664 
 1335.000000   -27.585   131.782    21.114    24.328   -24.686   -96.390   -25.485    76.076 
 1350.000000   -27.255   131.969    21.072    22.667   -24.685   -97.493   -25.436    74.931 
 1370.000000   -26.853   132.185    21.033    20.570   -24.663   -99.047   -25.447    74.084 
 1385.000000   -26.862   130.747    20.999    18.941   -24.655  -100.222   -25.612    74.119 
 1405.000000   -26.905   128.111    20.985    16.667   -24.655  -101.684   -25.206    70.075 
 1420.000000   -26.627   127.169    20.967    15.020   -24.668  -102.749   -25.005    67.811 
 1440.000000   -26.219   127.095    20.912    12.873   -24.639  -104.355   -25.196    66.834 
 1455.000000   -26.420   123.586    20.884    11.228   -24.619  -105.535   -25.184    65.370 
 1475.000000   -26.518   118.856    20.850     9.142   -24.628  -106.997   -25.224    63.354 
 1490.000000   -26.182   118.228    20.833     7.458   -24.624  -108.143   -25.011    61.224 
 1510.000000   -25.815   118.797    20.800     5.252   -24.643  -109.585   -25.051    58.699 
 1525.000000   -25.952   117.971    20.763     3.558   -24.650  -110.665   -25.108    56.866 
 1545.000000   -25.883   117.385    20.716     1.537   -24.620  -112.199   -25.388    55.907 
 1560.000000   -25.847   114.289    20.685    -0.059   -24.613  -113.297   -25.385    53.927 
 1580.000000   -25.618   113.165    20.662    -2.238   -24.607  -114.748   -25.404    52.414 
 1595.000000   -25.513   113.232    20.626    -3.845   -24.592  -115.952   -25.434    51.375 
 1615.000000   -25.431   111.382    20.563    -5.915   -24.572  -117.495   -25.775    51.676 
 1630.000000   -25.376   109.807    20.536    -7.552   -24.571  -118.622   -25.724    50.775 
 1650.000000   -25.185   106.587    20.515    -9.717   -24.597  -120.047   -25.555    47.770 
 1665.000000   -25.234   108.216    20.459   -11.279   -24.600  -121.142   -25.681    47.171 
 1685.000000   -25.064   107.174    20.412   -13.392   -24.579  -122.664   -25.955    46.208 
 1700.000000   -25.016   105.231    20.399   -14.964   -24.586  -123.765   -26.011    45.109 
 1720.000000   -24.648   105.515    20.393   -17.123   -24.567  -125.229   -25.688    41.612 
 1735.000000   -24.763   104.731    20.362   -18.724   -24.574  -126.387   -25.668    40.427 
 1755.000000   -24.589   102.962    20.310   -20.865   -24.535  -128.034   -25.891    40.460 
 1770.000000   -24.654   100.248    20.292   -22.464   -24.530  -129.180   -25.782    38.825 
 1790.000000   -24.443    97.943    20.262   -24.642   -24.541  -130.687   -25.733    36.135 
 1805.000000   -24.482    97.920    20.212   -26.151   -24.535  -131.766   -25.953    34.861 
 1825.000000   -24.399    96.670    20.164   -28.170   -24.521  -133.315   -26.463    35.956 
 1840.000000   -24.115    95.234    20.132   -29.783   -24.510  -134.447   -26.584    34.847 
 1860.000000   -23.943    94.152    20.111   -31.884   -24.528  -135.859   -26.513    32.063 
 1875.000000   -23.837    94.313    20.061   -33.409   -24.523  -136.951   -26.659    32.001 
 1895.000000   -23.637    94.038    20.031   -35.481   -24.513  -138.579   -26.710    30.601 
 1910.000000   -23.411    90.756    20.017   -37.143   -24.507  -139.675   -26.797    28.138 
 1930.000000   -23.199    90.888    19.986   -39.282   -24.502  -141.201   -26.583    24.638 
 1945.000000   -23.053    89.543    19.965   -40.874   -24.495  -142.361   -26.624    23.553 
 1965.000000   -22.992    88.700    19.929   -42.934   -24.470  -144.002   -26.748    21.946 
 1980.000000   -22.961    85.484    19.904   -44.529   -24.464  -145.150   -26.615    19.590 
 2000.000000   -22.794    84.365    19.881   -46.670   -24.463  -146.663   -26.518    18.191 
 2015.000000   -22.772    83.259    19.843   -48.153   -24.450  -147.870   -26.520    17.604 
 2035.000000   -22.792    81.404    19.780   -50.227   -24.440  -149.584   -26.756    17.591 
 2050.000000   -22.675    79.475    19.751   -51.852   -24.448  -150.641   -26.706    15.492 
 2070.000000   -22.496    77.456    19.733   -53.973   -24.464  -152.086   -26.555    12.472 
 2085.000000   -22.559    76.884    19.680   -55.515   -24.477  -153.242   -26.746    11.721 
 2105.000000   -22.516    76.735    19.644   -57.483   -24.447  -154.717   -27.018    12.532 
 2120.000000   -22.475    75.353    19.629   -59.057   -24.456  -155.762   -26.876    11.578 
 2140.000000   -22.288    74.250    19.618   -61.176   -24.451  -157.284   -26.500     8.805 
 2155.000000   -22.283    72.745    19.590   -62.763   -24.438  -158.506   -26.489     7.884 
 2175.000000   -22.109    70.570    19.531   -64.868   -24.424  -160.200   -26.641     7.929 
 2190.000000   -22.199    68.565    19.512   -66.392   -24.412  -161.443   -26.674     5.842 
 2210.000000   -22.155    67.625    19.484   -68.495   -24.433  -162.835   -26.711     3.854 
 2225.000000   -22.179    68.028    19.441   -70.001   -24.423  -163.995   -26.927     4.023 
 2245.000000   -22.120    66.403    19.386   -72.007   -24.401  -165.575   -27.259     6.241 
 2260.000000   -21.911    65.527    19.373   -73.533   -24.397  -166.744   -27.271     6.145 
 2280.000000   -21.727    63.970    19.353   -75.520   -24.416  -168.122   -27.286     4.181 
 2295.000000   -21.661    62.599    19.305   -77.111   -24.398  -169.297   -27.358     4.727 
 2315.000000   -21.462    61.764    19.274   -79.193   -24.388  -170.986   -27.520     3.858 
 2330.000000   -21.349    59.704    19.261   -80.733   -24.394  -172.113   -27.479     2.456 
 2350.000000   -21.121    58.750    19.243   -82.877   -24.397  -173.627   -27.278    -2.152 
 2365.000000   -21.132    57.412    19.213   -84.367   -24.396  -174.864   -27.400    -3.116 
 2385.000000   -21.118    57.050    19.160   -86.461   -24.386  -176.605   -27.718    -3.289 
 2400.000000   -21.101    54.526    19.133   -88.012   -24.392  -177.811   -27.815    -5.509 
 2420.000000   -21.048    54.302    19.115   -89.970   -24.404  -179.165   -28.130    -6.627 
 2435.000000   -21.031    53.600    19.058   -91.475   -24.396   179.698   -28.468    -5.900 
 2455.000000   -20.973    53.255    19.019   -93.425   -24.379   178.252   -28.632    -2.334 
 2470.000000   -20.729    51.856    19.008   -94.936   -24.368   177.069   -28.453    -1.997 
 2490.000000   -20.604    50.094    18.985   -96.982   -24.374   175.664   -28.418    -2.993 
 2505.000000   -20.319    49.303    18.954   -98.471   -24.358   174.444   -28.473    -1.683 
 2525.000000   -20.223    47.957    18.917  -100.597   -24.341   172.775   -28.339    -0.703 
 2540.000000   -20.251    45.988    18.912  -102.178   -24.337   171.503   -28.188    -3.397 
 2560.000000   -20.231    45.237    18.888  -104.271   -24.362   169.914   -28.264    -9.238 
 2575.000000   -20.163    43.919    18.841  -105.736   -24.367   168.788   -28.526    -8.480 
 2595.000000   -20.150    43.273    18.804  -107.738   -24.361   167.132   -28.848    -6.499 
 2610.000000   -20.185    42.060    18.790  -109.288   -24.352   166.077   -28.928    -5.891 
 2630.000000   -19.991    41.680    18.775  -111.177   -24.344   164.573   -28.866    -5.246 
 2645.000000   -19.787    39.927    18.734  -112.698   -24.325   163.352   -28.919    -3.503 
 2665.000000   -19.798    38.810    18.702  -114.693   -24.309   161.688   -28.863    -0.489 
 2680.000000   -19.676    37.613    18.671  -116.263   -24.309   160.545   -28.782    -0.961 
 2700.000000   -19.499    36.062    18.653  -118.309   -24.316   159.120   -28.769    -1.990 
 2715.000000   -19.376    35.158    18.615  -119.790   -24.304   157.863   -28.754    -0.621 
 2735.000000   -19.268    33.798    18.579  -121.811   -24.298   156.141   -28.797     0.505 
 2750.000000   -19.331    32.427    18.568  -123.432   -24.321   154.992   -29.152    -1.174 
 2770.000000   -19.189    31.928    18.544  -125.346   -24.324   153.514   -29.237    -3.366 
 2785.000000   -19.078    31.105    18.522  -126.864   -24.310   152.366   -29.250    -3.411 
 2805.000000   -18.972    29.252    18.492  -128.852   -24.296   150.665   -29.122    -2.001 
 2820.000000   -18.906    28.057    18.479  -130.420   -24.287   149.472   -29.093    -3.160 
 2840.000000   -18.943    26.904    18.447  -132.414   -24.289   147.952   -29.087    -3.768 
 2855.000000   -18.676    25.564    18.419  -133.897   -24.276   146.668   -29.012    -1.708 
 2875.000000   -18.686    23.828    18.380  -135.900   -24.260   144.971   -28.676     0.725 
 2890.000000   -18.703    22.581    18.357  -137.389   -24.270   143.799   -28.693    -0.177 
 2910.000000   -18.622    21.192    18.337  -139.377   -24.289   142.417   -28.617    -1.785 
 2925.000000   -18.374    20.281    18.303  -140.911   -24.278   141.225   -28.379    -1.036 
 2945.000000   -18.415    19.012    18.274  -142.962   -24.262   139.470   -28.081    -0.572 
 2960.000000   -18.343    17.811    18.257  -144.433   -24.271   138.349   -28.260    -1.946 
 2980.000000   -18.182    16.045    18.246  -146.497   -24.264   136.732   -28.340    -4.781 
 2995.000000   -18.073    14.991    18.220  -148.039   -24.264   135.479   -28.277    -4.809 
 3015.000000   -18.270    14.016    18.178  -150.073   -24.268   133.981   -28.127    -2.501 
 3030.000000   -18.102    12.825    18.147  -151.525   -24.263   132.725   -27.940    -0.619 
 3050.000000   -17.897    11.944    18.117  -153.434   -24.259   131.112   -27.623     0.611 
 3065.000000   -17.800    10.806    18.092  -154.959   -24.262   129.931   -27.800    -0.243 
 3085.000000   -17.841     9.496    18.086  -157.027   -24.261   128.364   -27.920    -1.404 
 3100.000000   -17.642     8.638    18.071  -158.486   -24.258   127.080   -27.738    -0.058 
 3120.000000   -17.488     7.407    18.033  -160.452   -24.239   125.319   -27.397     1.179 
 3135.000000   -17.497     6.014    18.021  -161.952   -24.226   124.045   -27.459    -0.128 
 3155.000000   -17.664     4.827    17.991  -163.946   -24.251   122.394   -27.539    -0.580 
 3170.000000   -17.693     4.302    17.956  -165.443   -24.271   121.095   -27.502     2.687 
 3190.000000   -17.353     3.483    17.933  -167.220   -24.259   119.790   -26.734     6.245 
 3205.000000   -17.262     2.014    17.926  -168.781   -24.242   118.738   -26.505     4.920 
 3225.000000   -17.225     0.660    17.907  -170.860   -24.244   117.167   -26.541     2.452 
 3240.000000   -17.090    -0.930    17.883  -172.366   -24.235   115.910   -26.356     2.249 
 3260.000000   -16.874    -2.753    17.851  -174.327   -24.223   114.163   -26.208     1.407 
 3275.000000   -16.889    -4.034    17.820  -175.853   -24.238   112.934   -26.527     0.159 
 3295.000000   -16.897    -5.454    17.814  -177.819   -24.244   111.348   -26.629    -0.592 
 3310.000000   -16.789    -6.478    17.802  -179.307   -24.236   110.003   -26.494    -0.471 
 3330.000000   -16.588    -8.594    17.770   178.666   -24.203   108.272   -26.241    -2.374 
 3345.000000   -16.755   -10.105    17.748   177.073   -24.212   106.892   -26.592    -3.499 
 3365.000000   -16.820   -10.748    17.730   175.244   -24.239   105.487   -26.392    -3.191 
 3380.000000   -16.659   -12.250    17.715   173.677   -24.220   104.154   -26.013    -3.494 
 3400.000000   -16.544   -14.231    17.675   171.742   -24.212   102.450   -25.699    -4.073 
