! Mini-Circuits  
! S2P DATA File Format
! Type: MMIC Amplifier
! Model: GALI-39     Reference Data:RDF-1232
! Note: All S Parameters are in dB deg format
! TEST CONDITIONS: INPUT POWER = -25dBm, Icc = 35mA, Vd = 3.61V @Temperature = +25degC
! 401 Frequency points
!
# MHz S DB R 50
!    FREQ       dB(S11)   PHS(S11)  dB(S21)   PHS(S21)  dB(S12)   PHS(S12)  dB(S22)   PHS(S22) 
   50.000000   -34.834   172.745    23.373   173.180   -25.475    -3.945   -26.792   175.153 
   56.000000   -33.968   178.025    23.407   172.518   -25.499    -4.244   -26.540   175.234 
   62.000000   -36.382   173.424    23.417   171.779   -25.485    -4.587   -26.475   175.292 
   68.000000   -34.702  -176.231    23.431   171.041   -25.502    -4.873   -26.278   175.217 
   74.000000   -33.406   173.196    23.389   170.365   -25.516    -5.280   -26.434   175.466 
   80.000000   -32.504   173.848    23.382   169.654   -25.514    -5.655   -26.399   174.902 
   86.000000   -35.638   170.348    23.372   168.962   -25.493    -6.109   -26.572   174.978 
   92.000000   -36.243   174.964    23.405   168.211   -25.483    -6.476   -26.276   174.412 
   98.000000   -34.201  -175.028    23.381   167.330   -25.492    -6.862   -26.286   174.422 
  104.000000   -33.125   177.107    23.390   166.714   -25.512    -7.161   -26.041   173.877 
  110.000000   -33.089   173.726    23.361   166.031   -25.521    -7.553   -26.323   173.962 
  116.000000   -32.369   179.056    23.339   165.321   -25.521    -7.894   -26.249   173.944 
  122.000000   -34.411  -179.727    23.340   164.630   -25.498    -8.302   -26.537   173.992 
  128.000000   -33.445   179.787    23.363   163.834   -25.491    -8.698   -26.061   173.182 
  134.000000   -33.890  -179.020    23.366   163.141   -25.500    -9.125   -26.103   172.725 
  140.000000   -33.500  -179.294    23.359   162.327   -25.511    -9.484   -25.757   172.111 
  146.000000   -33.417  -179.321    23.334   161.666   -25.508    -9.881   -26.099   172.249 
  152.000000   -33.121   177.984    23.320   160.900   -25.496   -10.280   -26.000   171.617 
  160.000000   -33.443   179.675    23.335   159.876   -25.497   -10.776   -26.356   171.610 
  175.000000   -33.269   179.988    23.334   158.087   -25.487   -11.785   -25.979   170.441 
  190.000000   -33.497   177.389    23.306   156.308   -25.481   -12.784   -25.628   169.153 
  205.000000   -32.711   172.516    23.270   154.484   -25.461   -13.727   -25.525   168.543 
  220.000000   -33.762   179.063    23.296   152.575   -25.478   -14.724   -25.535   168.047 
  235.000000   -32.510   171.373    23.266   150.892   -25.488   -15.653   -25.276   167.375 
  250.000000   -32.622   168.662    23.247   149.005   -25.483   -16.613   -25.129   166.254 
  265.000000   -31.742   173.190    23.203   147.142   -25.475   -17.658   -24.817   165.072 
  280.000000   -32.502   173.706    23.187   145.382   -25.469   -18.605   -25.060   164.800 
  295.000000   -32.082   172.949    23.165   143.571   -25.469   -19.531   -25.184   163.915 
  310.000000   -31.887   171.227    23.150   141.766   -25.477   -20.467   -24.997   162.589 
  325.000000   -31.335   167.880    23.115   139.972   -25.456   -21.538   -24.857   161.542 
  340.000000   -31.967   171.094    23.090   138.214   -25.438   -22.500   -24.982   160.734 
  355.000000   -31.362   172.051    23.067   136.457   -25.438   -23.535   -24.867   159.568 
  370.000000   -31.214   172.596    23.065   134.605   -25.433   -24.515   -24.846   158.240 
  390.000000   -31.136   170.427    23.045   132.243   -25.418   -25.846   -24.342   156.157 
  405.000000   -31.186   168.204    23.021   130.557   -25.406   -26.868   -24.159   154.553 
  425.000000   -31.294   168.304    23.000   128.121   -25.402   -28.214   -24.204   152.926 
  440.000000   -30.843   165.408    22.963   126.364   -25.425   -29.188   -24.013   151.284 
  460.000000   -30.186   158.966    22.942   124.032   -25.411   -30.516   -23.808   149.028 
  475.000000   -29.822   161.248    22.892   122.339   -25.398   -31.571   -23.563   147.232 
  495.000000   -30.364   160.915    22.862   119.998   -25.396   -32.897   -23.709   146.025 
  510.000000   -29.727   156.919    22.843   118.280   -25.401   -33.898   -23.683   144.993 
  530.000000   -29.063   153.074    22.792   115.930   -25.390   -35.226   -23.492   142.613 
  545.000000   -29.414   156.324    22.779   114.191   -25.362   -36.315   -23.708   141.739 
  565.000000   -29.848   152.940    22.767   111.904   -25.355   -37.624   -23.392   139.309 
  580.000000   -29.767   155.146    22.726   110.140   -25.348   -38.669   -23.211   137.644 
  600.000000   -29.353   151.022    22.692   107.909   -25.326   -40.073   -23.125   135.562 
  615.000000   -29.032   151.955    22.670   106.143   -25.339   -41.065   -23.114   134.027 
  635.000000   -29.328   148.308    22.654   103.799   -25.342   -42.361   -22.799   131.805 
  650.000000   -29.059   144.234    22.594   102.156   -25.333   -43.388   -22.747   130.208 
  670.000000   -29.052   145.643    22.557    99.855   -25.317   -44.787   -22.879   128.919 
  685.000000   -28.715   142.980    22.525    98.161   -25.324   -45.792   -22.952   127.901 
  705.000000   -28.831   140.572    22.493    95.867   -25.323   -47.137   -22.785   125.961 
  720.000000   -28.874   139.094    22.451    94.247   -25.283   -48.255   -22.836   124.595 
  740.000000   -28.636   138.762    22.431    91.892   -25.278   -49.566   -22.864   122.728 
  755.000000   -28.264   135.382    22.416    90.233   -25.290   -50.589   -22.323   119.737 
  775.000000   -28.488   136.420    22.359    87.968   -25.279   -51.966   -22.473   118.509 
  790.000000   -28.819   134.387    22.330    86.321   -25.278   -53.001   -22.502   117.205 
  810.000000   -28.253   129.555    22.299    84.002   -25.290   -54.336   -22.441   114.470 
  825.000000   -28.282   129.828    22.257    82.313   -25.255   -55.360   -22.404   113.223 
  845.000000   -28.539   128.391    22.214    80.130   -25.241   -56.805   -22.384   111.695 
  860.000000   -28.732   128.838    22.186    78.435   -25.239   -57.762   -22.501   110.843 
  880.000000   -28.277   128.343    22.167    76.198   -25.222   -59.186   -22.220   107.929 
  895.000000   -28.550   126.941    22.141    74.532   -25.221   -60.244   -22.083   106.149 
  915.000000   -28.519   125.509    22.083    72.342   -25.196   -61.642   -22.137   104.544 
  930.000000   -28.875   124.545    22.062    70.677   -25.212   -62.644   -22.107   103.177 
  950.000000   -28.424   121.162    22.041    68.444   -25.220   -63.973   -22.029   100.894 
  965.000000   -27.886   118.543    22.011    66.767   -25.207   -65.080   -21.811    98.850 
  985.000000   -28.162   117.990    21.952    64.636   -25.200   -66.383   -22.023    97.645 
 1000.000000   -28.112   117.779    21.913    63.011   -25.187   -67.479   -22.075    96.708 
 1020.000000   -27.921   115.546    21.878    60.734   -25.185   -68.790   -22.046    94.700 
 1035.000000   -27.988   112.806    21.850    59.123   -25.170   -69.897   -22.011    93.200 
 1055.000000   -28.149   112.646    21.795    56.989   -25.155   -71.320   -22.004    91.517 
 1070.000000   -28.192   113.928    21.769    55.293   -25.149   -72.366   -22.126    90.200 
 1090.000000   -27.869   113.419    21.756    53.092   -25.132   -73.776   -21.876    87.939 
 1105.000000   -27.958   113.169    21.716    51.422   -25.135   -74.863   -21.714    86.033 
 1125.000000   -28.162   110.510    21.679    49.264   -25.127   -76.221   -21.773    84.201 
 1140.000000   -28.162   110.605    21.653    47.608   -25.138   -77.269   -21.781    82.924 
 1160.000000   -27.744   107.945    21.617    45.476   -25.138   -78.567   -21.774    80.861 
 1175.000000   -27.855   106.765    21.578    43.888   -25.121   -79.648   -21.651    78.728 
 1195.000000   -28.061   105.211    21.525    41.753   -25.113   -81.008   -21.799    77.468 
 1210.000000   -27.746   103.786    21.489    40.130   -25.112   -82.051   -21.906    76.508 
 1230.000000   -27.698   104.584    21.456    37.957   -25.107   -83.462   -21.865    74.753 
 1245.000000   -27.770   102.522    21.416    36.373   -25.085   -84.551   -21.830    73.615 
 1265.000000   -27.906   102.955    21.374    34.204   -25.069   -85.979   -21.869    71.871 
 1280.000000   -27.693   101.631    21.341    32.626   -25.065   -87.054   -21.972    70.972 
 1300.000000   -27.521   101.898    21.325    30.455   -25.052   -88.430   -21.804    68.360 
 1315.000000   -27.748   101.923    21.281    28.853   -25.050   -89.491   -21.707    66.630 
 1335.000000   -27.849    99.907    21.247    26.762   -25.029   -90.904   -21.770    65.276 
 1350.000000   -27.688   100.570    21.214    25.119   -25.038   -91.910   -21.768    64.007 
 1370.000000   -27.449    98.461    21.182    23.071   -25.035   -93.329   -21.744    62.255 
 1385.000000   -27.387    97.223    21.158    21.473   -25.022   -94.435   -21.665    60.672 
 1405.000000   -27.517    96.277    21.094    19.311   -25.020   -95.819   -21.815    59.479 
 1420.000000   -27.321    94.725    21.065    17.726   -25.013   -96.899   -21.889    58.484 
 1440.000000   -27.187    95.913    21.028    15.602   -25.011   -98.284   -21.822    56.311 
 1455.000000   -27.246    93.843    20.987    14.054   -24.994   -99.462   -21.805    55.086 
 1475.000000   -27.316    92.334    20.938    11.974   -24.980  -100.878   -21.930    53.485 
 1490.000000   -27.148    93.948    20.911    10.383   -24.984  -101.959   -21.994    52.761 
 1510.000000   -26.929    92.124    20.882     8.227   -24.995  -103.311   -21.850    50.217 
 1525.000000   -27.168    90.338    20.853     6.594   -24.995  -104.338   -21.907    48.871 
 1545.000000   -27.114    87.672    20.814     4.532   -24.988  -105.790   -21.814    46.778 
 1560.000000   -27.255    86.997    20.755     3.011   -24.967  -106.804   -22.032    45.448 
 1580.000000   -27.010    91.122    20.721     0.955   -24.945  -108.264   -22.152    44.760 
 1595.000000   -27.083    90.179    20.709    -0.660   -24.942  -109.314   -22.175    43.614 
 1615.000000   -26.954    88.496    20.673    -2.732   -24.921  -110.829   -22.027    41.373 
 1630.000000   -27.012    88.250    20.640    -4.316   -24.917  -111.897   -21.998    40.386 
 1650.000000   -26.738    88.139    20.602    -6.393   -24.926  -113.263   -22.087    38.865 
 1665.000000   -26.952    88.093    20.568    -7.943   -24.932  -114.329   -22.066    37.525 
 1685.000000   -26.874    84.522    20.530   -10.019   -24.919  -115.661   -22.072    35.563 
 1700.000000   -26.708    83.203    20.494   -11.500   -24.911  -116.802   -22.128    34.337 
 1720.000000   -26.583    86.269    20.450   -13.578   -24.900  -118.145   -22.343    33.524 
 1735.000000   -26.690    84.388    20.420   -15.111   -24.897  -119.236   -22.348    32.509 
 1755.000000   -26.580    82.526    20.380   -17.198   -24.875  -120.738   -22.370    31.135 
 1770.000000   -26.463    81.646    20.339   -18.743   -24.863  -121.875   -22.422    30.484 
 1790.000000   -26.291    82.827    20.302   -20.837   -24.859  -123.365   -22.477    29.019 
 1805.000000   -26.366    82.462    20.271   -22.346   -24.864  -124.351   -22.553    27.622 
 1825.000000   -26.398    81.104    20.250   -24.360   -24.846  -125.852   -22.500    25.440 
 1840.000000   -26.049    81.336    20.210   -25.946   -24.842  -126.945   -22.552    24.221 
 1860.000000   -25.980    82.725    20.170   -27.972   -24.833  -128.333   -22.674    23.116 
 1875.000000   -25.997    81.991    20.146   -29.496   -24.837  -129.316   -22.668    22.108 
 1895.000000   -26.085    79.254    20.128   -31.494   -24.836  -130.755   -22.607    20.550 
 1910.000000   -25.738    77.313    20.077   -33.031   -24.819  -131.904   -22.651    19.101 
 1930.000000   -25.640    78.874    20.023   -35.093   -24.810  -133.320   -22.906    18.831 
 1945.000000   -25.439    77.038    19.996   -36.677   -24.809  -134.414   -22.972    17.899 
 1965.000000   -25.550    75.530    19.974   -38.678   -24.789  -135.880   -22.934    16.094 
 1980.000000   -25.340    74.299    19.929   -40.193   -24.773  -137.057   -22.991    15.285 
 2000.000000   -25.061    76.784    19.889   -42.263   -24.765  -138.549   -23.114    14.483 
 2015.000000   -25.045    75.740    19.876   -43.734   -24.764  -139.598   -23.121    13.550 
 2035.000000   -25.111    74.240    19.843   -45.804   -24.748  -141.189   -22.992    11.009 
 2050.000000   -24.931    73.374    19.805   -47.378   -24.751  -142.307   -22.994     9.422 
 2070.000000   -24.548    73.561    19.768   -49.393   -24.759  -143.742   -23.124     7.936 
 2085.000000   -24.738    72.511    19.745   -50.951   -24.777  -144.763   -23.189     6.010 
 2105.000000   -24.959    70.688    19.712   -52.895   -24.760  -146.137   -23.350     4.699 
 2120.000000   -24.847    70.142    19.663   -54.369   -24.747  -147.181   -23.431     4.135 
 2140.000000   -24.599    70.745    19.619   -56.409   -24.749  -148.587   -23.641     4.289 
 2155.000000   -24.598    69.467    19.596   -57.899   -24.734  -149.731   -23.720     3.381 
 2175.000000   -24.399    67.335    19.552   -59.943   -24.732  -151.302   -23.750     1.896 
 2190.000000   -24.319    66.217    19.515   -61.419   -24.709  -152.505   -23.895     0.945 
 2210.000000   -24.213    67.675    19.474   -63.521   -24.718  -153.966   -24.049    -0.639 
 2225.000000   -24.234    68.314    19.460   -64.963   -24.718  -154.964   -24.239    -1.678 
 2245.000000   -24.187    67.407    19.422   -66.930   -24.694  -156.407   -24.278    -3.010 
 2260.000000   -23.912    67.617    19.405   -68.407   -24.685  -157.555   -24.317    -3.310 
 2280.000000   -23.540    66.969    19.378   -70.319   -24.681  -158.956   -24.453    -3.867 
 2295.000000   -23.594    64.828    19.347   -71.910   -24.677  -160.010   -24.430    -4.957 
 2315.000000   -23.616    63.492    19.316   -73.903   -24.673  -161.539   -24.464    -6.576 
 2330.000000   -23.420    61.922    19.285   -75.385   -24.661  -162.661   -24.521    -7.076 
 2350.000000   -23.089    61.673    19.242   -77.389   -24.658  -164.137   -24.684    -7.292 
 2365.000000   -23.179    60.315    19.210   -78.916   -24.654  -165.269   -24.776    -8.213 
 2385.000000   -23.230    59.551    19.176   -80.927   -24.648  -166.872   -24.858    -9.897 
 2400.000000   -23.042    57.935    19.119   -82.406   -24.643  -168.104   -25.037   -10.517 
 2420.000000   -22.808    58.670    19.101   -84.383   -24.651  -169.538   -25.277   -11.102 
 2435.000000   -22.923    58.039    19.067   -85.853   -24.656  -170.566   -25.500   -12.460 
 2455.000000   -22.791    58.203    19.045   -87.831   -24.631  -171.979   -25.528   -13.819 
 2470.000000   -22.516    57.130    19.027   -89.280   -24.619  -173.161   -25.507   -13.700 
 2490.000000   -22.331    56.196    18.989   -91.249   -24.622  -174.557   -25.713   -13.884 
 2505.000000   -22.088    55.394    18.970   -92.675   -24.613  -175.682   -25.796   -14.831 
 2525.000000   -22.166    53.900    18.949   -94.725   -24.597  -177.105   -25.794   -15.150 
 2540.000000   -22.061    51.950    18.919   -96.280   -24.577  -178.337   -25.738   -15.550 
 2560.000000   -22.009    51.037    18.867   -98.264   -24.598  -179.990   -25.859   -17.136 
 2575.000000   -22.064    49.347    18.825   -99.704   -24.623   178.959   -26.114   -18.471 
 2595.000000   -22.134    49.417    18.789  -101.620   -24.626   177.523   -26.458   -19.601 
 2610.000000   -21.976    48.748    18.757  -103.120   -24.610   176.425   -26.719   -18.861 
 2630.000000   -21.583    49.579    18.737  -104.928   -24.581   174.996   -26.944   -17.260 
 2645.000000   -21.344    47.657    18.717  -106.442   -24.576   173.910   -27.002   -17.408 
 2665.000000   -21.274    46.448    18.707  -108.410   -24.545   172.241   -26.907   -19.450 
 2680.000000   -21.121    45.459    18.676  -109.944   -24.540   171.104   -26.848   -19.764 
 2700.000000   -20.900    44.384    18.652  -111.915   -24.537   169.649   -26.926   -19.620 
 2715.000000   -20.776    43.203    18.624  -113.406   -24.527   168.553   -26.932   -20.434 
 2735.000000   -20.832    40.907    18.597  -115.424   -24.526   166.895   -26.875   -22.077 
 2750.000000   -20.894    39.470    18.550  -116.943   -24.536   165.645   -27.155   -24.372 
 2770.000000   -20.838    39.434    18.491  -118.792   -24.561   164.263   -27.699   -23.097 
 2785.000000   -20.775    39.221    18.476  -120.178   -24.566   163.244   -27.892   -23.222 
 2805.000000   -20.622    37.791    18.454  -122.098   -24.547   161.793   -28.033   -22.251 
 2820.000000   -20.422    36.832    18.427  -123.587   -24.529   160.561   -28.041   -20.984 
 2840.000000   -20.243    36.311    18.391  -125.519   -24.513   159.032   -28.156   -20.303 
 2855.000000   -19.957    35.039    18.390  -127.028   -24.513   157.925   -28.260   -19.775 
 2875.000000   -19.943    33.401    18.368  -129.007   -24.488   156.260   -28.165   -22.203 
 2890.000000   -19.887    32.045    18.336  -130.483   -24.491   155.034   -28.249   -23.219 
 2910.000000   -19.770    31.113    18.302  -132.377   -24.505   153.623   -28.483   -23.074 
 2925.000000   -19.547    29.924    18.292  -133.877   -24.507   152.571   -28.565   -23.245 
 2945.000000   -19.732    28.769    18.261  -135.863   -24.491   151.017   -28.488   -23.098 
 2960.000000   -19.575    27.514    18.226  -137.273   -24.483   149.817   -28.619   -23.420 
 2980.000000   -19.375    25.680    18.183  -139.301   -24.480   148.249   -28.674   -21.854 
 2995.000000   -19.298    24.634    18.166  -140.778   -24.479   147.063   -28.804   -22.420 
 3015.000000   -19.207    24.109    18.133  -142.763   -24.477   145.428   -29.045   -23.800 
 3030.000000   -19.120    22.914    18.107  -144.139   -24.489   144.416   -29.334   -24.123 
 3050.000000   -19.081    22.094    18.095  -146.055   -24.476   142.927   -29.292   -23.284 
 3065.000000   -18.957    20.496    18.067  -147.556   -24.456   141.669   -29.352   -22.634 
 3085.000000   -18.994    19.029    18.025  -149.516   -24.470   140.139   -29.492   -20.831 
 3100.000000   -18.841    18.307    18.001  -150.914   -24.474   139.024   -29.619   -19.933 
 3120.000000   -18.863    17.199    17.977  -152.857   -24.475   137.331   -29.751   -20.648 
 3135.000000   -18.749    16.319    17.955  -154.275   -24.471   136.123   -29.886   -18.910 
 3155.000000   -18.706    15.544    17.912  -156.119   -24.484   134.561   -29.958   -16.442 
 3170.000000   -18.582    14.828    17.882  -157.540   -24.495   133.559   -30.111   -14.847 
 3190.000000   -18.320    13.706    17.882  -159.421   -24.470   132.129   -30.002   -13.739 
 3205.000000   -18.191    12.579    17.875  -160.896   -24.461   130.920   -29.786   -12.929 
 3225.000000   -18.016    11.272    17.848  -162.878   -24.451   129.477   -29.497   -12.919 
 3240.000000   -17.934     9.639    17.826  -164.339   -24.448   128.350   -29.507   -14.203 
 3260.000000   -17.871     7.908    17.810  -166.311   -24.439   126.744   -29.401   -14.919 
 3275.000000   -17.875     6.716    17.784  -167.817   -24.433   125.437   -29.434   -15.040 
 3295.000000   -17.904     5.377    17.743  -169.735   -24.439   123.841   -29.354   -12.599 
 3310.000000   -17.838     4.653    17.712  -171.108   -24.454   122.695   -29.473   -11.593 
 3330.000000   -17.681     3.071    17.697  -173.079   -24.425   121.169   -29.226   -11.935 
 3345.000000   -17.712     1.724    17.668  -174.574   -24.425   119.735   -29.341   -11.674 
 3365.000000   -17.548     1.114    17.648  -176.345   -24.435   118.349   -28.979    -9.140 
 3380.000000   -17.390    -0.574    17.621  -177.894   -24.420   117.185   -28.944   -10.268 
 3400.000000   -17.319    -2.307    17.610  -179.810   -24.410   115.504   -29.016   -11.942 
