! Mini-Circuits  
! S2P DATA File Format
! Type: MMIC Amplifier
! Model: GALI-39     Reference Data:RDF-1232
! Note: All S Parameters are in dB deg format
! TEST CONDITIONS: INPUT POWER = -25dBm, Icc = 28mA, Vd = 3.59V @Temperature = +25degC
! 401 Frequency points
!
# MHz S DB R 50
!    FREQ       dB(S11)   PHS(S11)  dB(S21)   PHS(S21)  dB(S12)   PHS(S12)  dB(S22)   PHS(S22) 
   50.000000   -26.231    -5.218    22.683   173.262   -24.875    -3.919   -33.347    -9.086 
   56.000000   -26.485    -9.217    22.647   172.613   -24.845    -4.266   -32.923   -10.631 
   62.000000   -25.753    -9.230    22.726   171.881   -24.859    -4.695   -33.876   -13.557 
   68.000000   -26.449   -11.811    22.713   171.173   -24.838    -4.976   -31.921   -14.085 
   74.000000   -27.352    -9.613    22.733   170.488   -24.864    -5.412   -32.273   -16.811 
   80.000000   -27.418   -11.475    22.670   169.817   -24.854    -5.801   -31.449   -17.040 
   86.000000   -26.289   -10.703    22.672   169.122   -24.887    -6.206   -33.660   -21.332 
   92.000000   -26.041   -12.550    22.658   168.341   -24.843    -6.563   -33.261   -22.079 
   98.000000   -26.209   -18.215    22.691   167.522   -24.856    -6.935   -33.975   -25.287 
  104.000000   -27.172   -18.810    22.693   166.952   -24.831    -7.330   -32.136   -23.736 
  110.000000   -27.379   -16.537    22.695   166.217   -24.879    -7.677   -32.193   -25.797 
  116.000000   -27.493   -21.508    22.638   165.529   -24.864    -8.084   -31.660   -26.927 
  122.000000   -26.636   -21.221    22.637   164.789   -24.888    -8.429   -33.525   -31.952 
  128.000000   -26.641   -22.061    22.633   164.074   -24.849    -8.819   -33.456   -32.788 
  134.000000   -26.806   -23.617    22.671   163.366   -24.859    -9.286   -33.909   -35.164 
  140.000000   -26.662   -24.058    22.672   162.555   -24.827    -9.658   -32.391   -33.612 
  146.000000   -27.076   -27.189    22.669   161.929   -24.875   -10.113   -32.294   -35.252 
  152.000000   -26.976   -26.324    22.625   161.184   -24.855   -10.511   -32.236   -36.003 
  160.000000   -26.730   -28.490    22.626   160.203   -24.876   -11.015   -33.446   -40.723 
  175.000000   -26.504   -32.094    22.589   158.417   -24.840   -11.966   -33.087   -43.779 
  190.000000   -26.576   -30.692    22.605   156.632   -24.827   -13.063   -34.325   -51.527 
  205.000000   -26.658   -34.474    22.602   154.840   -24.830   -14.022   -34.234   -56.259 
  220.000000   -26.566   -38.565    22.607   152.946   -24.834   -15.070   -33.892   -61.050 
  235.000000   -27.665   -39.161    22.565   151.300   -24.818   -16.012   -32.904   -61.237 
  250.000000   -27.383   -41.336    22.563   149.415   -24.807   -17.040   -32.451   -63.411 
  265.000000   -27.191   -46.016    22.540   147.555   -24.801   -18.017   -32.853   -69.760 
  280.000000   -26.978   -48.968    22.547   145.773   -24.830   -18.964   -32.773   -73.624 
  295.000000   -27.189   -51.813    22.505   144.054   -24.837   -19.992   -32.076   -72.782 
  310.000000   -27.723   -53.648    22.462   142.254   -24.823   -20.960   -32.153   -76.508 
  325.000000   -27.523   -55.557    22.452   140.469   -24.812   -22.030   -32.200   -81.414 
  340.000000   -26.796   -57.834    22.442   138.714   -24.827   -22.971   -32.842   -89.392 
  355.000000   -26.949   -62.438    22.402   137.016   -24.818   -24.093   -33.123   -97.201 
  370.000000   -27.128   -65.424    22.383   135.129   -24.814   -25.033   -33.075   -99.719 
  390.000000   -26.774   -68.484    22.345   132.851   -24.775   -26.493   -32.792  -105.553 
  405.000000   -27.066   -69.829    22.359   131.165   -24.773   -27.474   -32.916  -110.553 
  425.000000   -26.667   -72.639    22.342   128.732   -24.777   -28.844   -33.066  -118.865 
  440.000000   -27.184   -76.178    22.301   127.023   -24.767   -29.894   -32.672  -115.896 
  460.000000   -27.639   -79.445    22.286   124.685   -24.732   -31.276   -32.283  -115.133 
  475.000000   -27.358   -83.394    22.266   123.003   -24.735   -32.306   -32.491  -122.052 
  495.000000   -27.384   -86.431    22.250   120.610   -24.753   -33.652   -32.334  -126.241 
  510.000000   -27.547   -89.274    22.197   118.969   -24.762   -34.698   -32.127  -129.285 
  530.000000   -28.118   -94.494    22.146   116.660   -24.736   -36.082   -31.941  -128.880 
  545.000000   -27.221   -95.232    22.120   114.930   -24.766   -37.051   -32.297  -143.379 
  565.000000   -27.316   -95.695    22.087   112.709   -24.722   -38.479   -32.077  -144.285 
  580.000000   -26.715   -97.085    22.079   110.889   -24.703   -39.553   -31.971  -150.860 
  600.000000   -27.015  -101.402    22.079   108.630   -24.700   -40.974   -31.906  -157.754 
  615.000000   -27.165  -107.262    22.044   106.884   -24.702   -42.010   -31.871  -158.398 
  635.000000   -27.500  -107.987    22.005   104.583   -24.679   -43.416   -31.589  -155.097 
  650.000000   -27.531  -110.702    21.992   102.911   -24.652   -44.463   -31.577  -158.168 
  670.000000   -27.375  -113.595    21.975   100.596   -24.679   -45.844   -31.388  -163.012 
  685.000000   -27.639  -118.887    21.923    98.985   -24.683   -46.884   -31.232  -162.563 
  705.000000   -27.720  -120.505    21.864    96.712   -24.677   -48.250   -31.005  -163.760 
  720.000000   -27.209  -119.420    21.854    95.063   -24.685   -49.314   -30.940  -177.005 
  740.000000   -27.223  -123.903    21.795    92.788   -24.686   -50.692   -30.810   179.602 
  755.000000   -27.534  -128.357    21.807    91.043   -24.625   -51.840   -30.865  -178.392 
  775.000000   -27.075  -128.801    21.780    88.810   -24.654   -53.197   -30.654   177.064 
  790.000000   -27.321  -130.208    21.762    87.154   -24.666   -54.263   -30.658   178.301 
  810.000000   -27.740  -136.156    21.695    84.883   -24.652   -55.657   -30.812   177.216 
  825.000000   -27.387  -137.802    21.654    83.232   -24.644   -56.682   -30.594   169.060 
  845.000000   -27.132  -137.198    21.640    81.041   -24.641   -58.107   -30.140   161.291 
  860.000000   -26.993  -138.996    21.604    79.348   -24.656   -59.090   -30.017   159.917 
  880.000000   -26.960  -143.782    21.554    77.123   -24.612   -60.609   -30.019   158.371 
  895.000000   -26.701  -143.057    21.515    75.534   -24.592   -61.687   -29.728   152.514 
  915.000000   -26.521  -145.396    21.516    73.273   -24.596   -63.072   -29.638   149.653 
  930.000000   -26.577  -145.698    21.501    71.593   -24.589   -64.164   -29.663   151.121 
  950.000000   -26.912  -152.493    21.454    69.381   -24.585   -65.536   -29.832   152.430 
  965.000000   -26.965  -156.700    21.433    67.725   -24.566   -66.685   -29.697   148.289 
  985.000000   -26.683  -156.235    21.401    65.536   -24.584   -67.973   -29.613   145.895 
 1000.000000   -26.745  -158.963    21.376    63.886   -24.589   -69.066   -29.576   147.757 
 1020.000000   -26.744  -163.252    21.310    61.768   -24.571   -70.486   -29.575   146.733 
 1035.000000   -26.832  -164.197    21.278    60.122   -24.578   -71.549   -29.308   139.636 
 1055.000000   -26.467  -164.352    21.253    57.889   -24.573   -72.948   -28.899   133.360 
 1070.000000   -26.316  -166.462    21.221    56.250   -24.581   -73.990   -28.973   131.776 
 1090.000000   -26.107  -170.633    21.181    54.127   -24.541   -75.526   -28.884   130.664 
 1105.000000   -25.803  -170.652    21.133    52.476   -24.530   -76.622   -28.565   124.862 
 1125.000000   -25.783  -171.361    21.140    50.194   -24.541   -78.002   -28.488   122.088 
 1140.000000   -25.752  -173.492    21.116    48.564   -24.535   -79.115   -28.644   123.918 
 1160.000000   -25.874  -179.421    21.068    46.486   -24.519   -80.531   -28.923   125.826 
 1175.000000   -25.859  -179.984    21.036    44.856   -24.497   -81.645   -28.887   122.817 
 1195.000000   -25.716   179.868    21.015    42.666   -24.524   -82.899   -28.709   119.008 
 1210.000000   -25.850   175.451    20.985    41.031   -24.541   -83.940   -28.823   120.660 
 1230.000000   -25.614   172.867    20.915    38.956   -24.515   -85.465   -28.804   120.053 
 1245.000000   -25.517   172.205    20.886    37.393   -24.511   -86.491   -28.445   114.654 
 1265.000000   -25.214   172.460    20.859    35.202   -24.514   -87.909   -28.181   109.454 
 1280.000000   -25.189   169.243    20.823    33.591   -24.525   -88.980   -28.105   108.242 
 1300.000000   -25.010   166.020    20.778    31.462   -24.488   -90.493   -28.196   106.836 
 1315.000000   -24.781   166.946    20.735    29.884   -24.469   -91.592   -27.962   102.557 
 1335.000000   -24.727   165.418    20.737    27.706   -24.475   -92.973   -27.838   100.535 
 1350.000000   -24.574   163.693    20.713    26.081   -24.466   -94.089   -27.990   101.882 
 1370.000000   -24.604   159.390    20.662    24.058   -24.454   -95.573   -28.126   103.304 
 1385.000000   -24.553   157.837    20.644    22.424   -24.430   -96.713   -28.092   101.692 
 1405.000000   -24.439   157.336    20.609    20.214   -24.447   -98.049   -27.951    98.813 
 1420.000000   -24.491   153.489    20.591    18.631   -24.468   -99.089   -27.992   100.021 
 1440.000000   -24.254   151.740    20.519    16.578   -24.444  -100.588   -28.037    98.233 
 1455.000000   -24.257   150.568    20.475    15.024   -24.446  -101.673   -27.756    93.314 
 1475.000000   -24.109   149.945    20.456    12.913   -24.450  -103.069   -27.626    89.331 
 1490.000000   -23.822   148.460    20.425    11.318   -24.462  -104.149   -27.516    88.456 
 1510.000000   -23.748   145.331    20.423     9.126   -24.452  -105.624   -27.674    88.237 
 1525.000000   -24.070   143.404    20.386     7.475   -24.455  -106.703   -27.690    87.154 
 1545.000000   -24.091   140.532    20.318     5.518   -24.445  -108.190   -27.764    86.531 
 1560.000000   -23.924   140.869    20.275     3.985   -24.454  -109.122   -27.768    82.427 
 1580.000000   -23.257   140.786    20.254     1.869   -24.443  -110.539   -27.544    80.211 
 1595.000000   -23.336   139.497    20.214     0.291   -24.431  -111.684   -27.579    80.459 
 1615.000000   -23.303   136.928    20.163    -1.729   -24.395  -113.287   -27.533    78.407 
 1630.000000   -23.065   136.515    20.141    -3.354   -24.400  -114.349   -27.402    77.330 
 1650.000000   -22.769   134.842    20.137    -5.505   -24.413  -115.744   -27.273    73.851 
 1665.000000   -23.013   133.312    20.098    -7.034   -24.396  -116.888   -27.425    75.476 
 1685.000000   -23.116   129.899    20.045    -9.137   -24.372  -118.348   -27.614    75.830 
 1700.000000   -22.960   128.427    20.026   -10.638   -24.375  -119.428   -27.604    74.421 
 1720.000000   -22.601   127.952    20.011   -12.734   -24.392  -120.751   -27.584    73.781 
 1735.000000   -22.796   126.050    19.975   -14.279   -24.392  -121.854   -27.503    72.635 
 1755.000000   -22.813   123.541    19.907   -16.299   -24.371  -123.374   -27.563    73.559 
 1770.000000   -22.565   122.964    19.878   -17.862   -24.376  -124.416   -27.301    69.565 
 1790.000000   -22.183   122.138    19.853   -19.957   -24.383  -125.907   -27.176    65.864 
 1805.000000   -22.240   121.003    19.804   -21.464   -24.384  -126.970   -27.312    65.972 
 1825.000000   -22.238   119.127    19.762   -23.443   -24.350  -128.522   -27.366    64.593 
 1840.000000   -21.873   118.240    19.734   -25.029   -24.347  -129.641   -27.398    63.579 
 1860.000000   -21.585   117.989    19.728   -27.124   -24.346  -131.071   -27.315    60.957 
 1875.000000   -21.745   115.965    19.699   -28.648   -24.332  -132.197   -27.345    63.049 
 1895.000000   -21.873   113.149    19.663   -30.655   -24.318  -133.739   -27.307    62.685 
 1910.000000   -21.752   111.159    19.637   -32.245   -24.317  -134.772   -27.375    61.073 
 1930.000000   -21.457   110.365    19.600   -34.307   -24.331  -136.141   -27.352    61.486 
 1945.000000   -21.496   108.119    19.577   -35.834   -24.331  -137.275   -27.314    61.085 
 1965.000000   -21.545   106.407    19.527   -37.822   -24.315  -138.759   -27.334    60.454 
 1980.000000   -21.327   105.312    19.490   -39.382   -24.321  -139.844   -27.206    56.377 
 2000.000000   -20.886   104.849    19.460   -41.491   -24.325  -141.311   -27.074    54.034 
 2015.000000   -20.931   103.738    19.427   -42.946   -24.312  -142.444   -27.057    54.513 
 2035.000000   -20.927   102.072    19.382   -44.966   -24.277  -144.164   -27.078    52.107 
 2050.000000   -20.695   100.751    19.354   -46.562   -24.288  -145.254   -27.085    49.973 
 2070.000000   -20.403    99.311    19.344   -48.645   -24.295  -146.681   -27.102    47.068 
 2085.000000   -20.689    97.658    19.309   -50.205   -24.295  -147.875   -27.354    48.708 
 2105.000000   -20.864    95.875    19.264   -52.102   -24.281  -149.338   -27.487    50.465 
 2120.000000   -20.721    95.061    19.242   -53.616   -24.283  -150.310   -27.415    49.433 
 2140.000000   -20.440    93.529    19.217   -55.692   -24.300  -151.650   -27.300    49.369 
 2155.000000   -20.557    92.083    19.192   -57.207   -24.294  -152.780   -27.322    49.068 
 2175.000000   -20.467    89.544    19.121   -59.200   -24.283  -154.424   -27.287    49.812 
 2190.000000   -20.263    88.830    19.086   -60.665   -24.289  -155.511   -27.362    46.174 
 2210.000000   -20.030    88.630    19.065   -62.727   -24.298  -156.891   -27.464    43.092 
 2225.000000   -20.030    88.330    19.020   -64.234   -24.302  -157.980   -27.600    44.344 
 2245.000000   -19.980    86.770    18.976   -66.139   -24.268  -159.573   -27.569    44.108 
 2260.000000   -19.715    86.070    18.959   -67.660   -24.254  -160.677   -27.454    43.893 
 2280.000000   -19.429    84.332    18.960   -69.665   -24.258  -162.139   -27.385    41.848 
 2295.000000   -19.628    82.276    18.929   -71.202   -24.237  -163.310   -27.295    43.888 
 2315.000000   -19.682    80.701    18.895   -73.198   -24.231  -164.900   -27.291    44.148 
 2330.000000   -19.512    78.847    18.881   -74.707   -24.232  -165.979   -27.218    42.906 
 2350.000000   -19.297    77.439    18.851   -76.731   -24.247  -167.348   -27.131    42.080 
 2365.000000   -19.387    75.669    18.822   -78.255   -24.249  -168.500   -27.125    41.797 
 2385.000000   -19.447    74.708    18.758   -80.227   -24.238  -170.149   -27.133    42.206 
 2400.000000   -19.188    73.064    18.714   -81.749   -24.252  -171.256   -27.250    39.145 
 2420.000000   -18.943    72.681    18.699   -83.716   -24.268  -172.643   -27.346    37.395 
 2435.000000   -19.044    71.714    18.651   -85.183   -24.270  -173.778   -27.479    38.724 
 2455.000000   -18.951    70.823    18.610   -87.083   -24.237  -175.311   -27.465    38.173 
 2470.000000   -18.677    69.570    18.604   -88.633   -24.226  -176.455   -27.253    37.448 
 2490.000000   -18.541    68.001    18.596   -90.650   -24.229  -177.885   -27.258    36.027 
 2505.000000   -18.498    66.630    18.568   -92.071   -24.216  -179.100   -27.141    38.452 
 2525.000000   -18.562    64.801    18.538   -94.123   -24.190   179.357   -26.841    39.368 
 2540.000000   -18.453    63.118    18.521   -95.652   -24.186   178.161   -26.720    37.262 
 2560.000000   -18.440    61.583    18.487   -97.682   -24.219   176.618   -26.821    34.873 
 2575.000000   -18.589    59.690    18.441   -99.135   -24.241   175.535   -26.991    35.177 
 2595.000000   -18.558    59.373    18.386  -101.044   -24.246   174.107   -27.016    37.367 
 2610.000000   -18.345    58.500    18.363  -102.505   -24.250   173.106   -27.121    35.561 
 2630.000000   -18.019    58.175    18.350  -104.320   -24.241   171.722   -27.002    34.869 
 2645.000000   -17.913    55.919    18.315  -105.853   -24.222   170.571   -26.803    35.918 
 2665.000000   -17.848    54.641    18.282  -107.769   -24.188   168.808   -26.740    34.293 
 2680.000000   -17.661    53.334    18.272  -109.355   -24.181   167.661   -26.614    32.968 
 2700.000000   -17.465    51.862    18.263  -111.406   -24.183   166.200   -26.591    30.861 
 2715.000000   -17.564    50.158    18.233  -112.822   -24.166   164.967   -26.327    32.389 
 2735.000000   -17.613    48.001    18.197  -114.843   -24.148   163.223   -26.155    31.604 
 2750.000000   -17.621    46.862    18.173  -116.416   -24.175   161.961   -26.493    30.293 
 2770.000000   -17.589    46.090    18.124  -118.264   -24.214   160.707   -26.502    31.630 
 2785.000000   -17.588    45.174    18.103  -119.673   -24.220   159.664   -26.488    31.744 
 2805.000000   -17.475    43.510    18.063  -121.568   -24.216   158.239   -26.170    32.985 
 2820.000000   -17.232    42.382    18.043  -123.033   -24.206   157.130   -26.214    30.551 
 2840.000000   -17.074    41.290    18.015  -125.012   -24.198   155.641   -26.214    28.949 
 2855.000000   -16.925    39.807    17.991  -126.476   -24.195   154.482   -25.984    29.881 
 2875.000000   -16.897    38.013    17.948  -128.471   -24.167   152.667   -25.942    28.123 
 2890.000000   -16.790    36.762    17.937  -129.975   -24.160   151.448   -25.988    27.088 
 2910.000000   -16.695    35.469    17.928  -131.927   -24.181   150.014   -26.119    25.650 
 2925.000000   -16.681    34.030    17.906  -133.385   -24.172   148.807   -25.808    27.139 
 2945.000000   -16.811    32.657    17.867  -135.399   -24.147   147.199   -25.456    27.079 
 2960.000000   -16.650    31.385    17.855  -136.817   -24.154   146.066   -25.514    26.048 
 2980.000000   -16.552    29.299    17.827  -138.874   -24.164   144.620   -25.388    25.094 
 2995.000000   -16.540    28.009    17.802  -140.331   -24.170   143.405   -25.415    24.436 
 3015.000000   -16.400    27.112    17.748  -142.304   -24.161   141.787   -25.832    22.109 
 3030.000000   -16.272    25.877    17.736  -143.734   -24.166   140.594   -25.609    23.927 
 3050.000000   -16.289    24.680    17.711  -145.600   -24.157   139.036   -25.264    23.860 
 3065.000000   -16.233    22.914    17.684  -147.119   -24.147   137.889   -25.308    22.770 
 3085.000000   -16.195    21.493    17.662  -149.114   -24.173   136.453   -25.199    22.462 
 3100.000000   -16.148    20.580    17.650  -150.553   -24.177   135.277   -25.083    22.610 
 3120.000000   -16.123    19.182    17.595  -152.410   -24.181   133.589   -24.967    22.206 
 3135.000000   -16.117    18.047    17.572  -153.845   -24.193   132.519   -25.166    21.078 
 3155.000000   -15.987    16.981    17.541  -155.733   -24.212   131.014   -25.149    20.632 
 3170.000000   -15.906    16.082    17.517  -157.155   -24.220   129.847   -24.898    21.613 
 3190.000000   -15.752    14.592    17.499  -159.004   -24.193   128.332   -24.699    21.127 
 3205.000000   -15.626    13.373    17.476  -160.462   -24.184   127.196   -24.546    20.252 
 3225.000000   -15.509    11.911    17.473  -162.489   -24.169   125.664   -24.469    18.248 
 3240.000000   -15.406    10.325    17.465  -164.002   -24.158   124.404   -24.202    17.882 
 3260.000000   -15.423     8.529    17.432  -165.938   -24.150   122.734   -24.025    16.777 
 3275.000000   -15.448     7.209    17.404  -167.443   -24.153   121.535   -24.116    15.634 
 3295.000000   -15.412     5.749    17.381  -169.363   -24.172   120.040   -23.927    15.427 
 3310.000000   -15.422     4.844    17.365  -170.768   -24.184   118.803   -23.859    15.436 
 3330.000000   -15.256     3.004    17.329  -172.685   -24.165   117.364   -23.640    14.214 
 3345.000000   -15.352     1.767    17.292  -174.168   -24.176   116.089   -23.953    13.028 
 3365.000000   -15.147     0.623    17.287  -176.042   -24.191   114.704   -23.801    12.416 
 3380.000000   -15.039    -0.825    17.264  -177.564   -24.175   113.429   -23.603    11.577 
 3400.000000   -15.033    -2.553    17.230  -179.417   -24.154   111.609   -23.629    10.156 
