! Mini-Circuits  
! S2P DATA File Format
! Type: MMIC Amplifier
! Model: GALI-39     Reference Data:RDF-1232
! Note: All S Parameters are in dB deg format
! TEST CONDITIONS: INPUT POWER = -25dBm, Icc = 42mA, Vd = 3.82V @Temperature = -45degC
! 401 Frequency points
!
# MHz S DB R 50
!    FREQ       dB(S11)   PHS(S11)  dB(S21)   PHS(S21)  dB(S12)   PHS(S12)  dB(S22)   PHS(S22) 
   50.000000   -23.205   172.895    24.013   173.095   -26.062    -3.854   -19.908   174.741 
   56.000000   -22.925   174.133    24.016   172.370   -26.073    -4.254   -19.947   174.510 
   62.000000   -23.561   173.835    24.030   171.653   -26.082    -4.602   -19.919   174.277 
   68.000000   -23.450   173.688    24.050   170.890   -26.072    -4.981   -19.921   173.916 
   74.000000   -23.358   171.188    24.035   170.201   -26.072    -5.346   -19.956   173.679 
   80.000000   -23.283   172.092    24.035   169.491   -26.072    -5.737   -20.070   173.119 
   86.000000   -23.885   169.961    24.016   168.763   -26.083    -6.103   -20.121   172.831 
   92.000000   -24.016   170.436    24.029   167.941   -26.078    -6.518   -20.206   172.279 
   98.000000   -23.603   172.461    23.996   167.069   -26.079    -6.888   -20.179   171.875 
  104.000000   -23.751   170.495    24.024   166.460   -26.076    -7.246   -20.237   171.342 
  110.000000   -23.867   169.311    24.006   165.785   -26.079    -7.567   -20.269   170.842 
  116.000000   -23.923   170.810    23.996   165.002   -26.078    -7.959   -20.409   170.477 
  122.000000   -24.134   169.517    23.979   164.268   -26.086    -8.425   -20.440   169.946 
  128.000000   -23.979   169.618    23.986   163.452   -26.087    -8.788   -20.492   169.320 
  134.000000   -23.978   168.397    23.979   162.778   -26.082    -9.250   -20.437   168.589 
  140.000000   -24.486   167.800    23.999   161.907   -26.071    -9.647   -20.494   167.980 
  146.000000   -24.631   168.475    23.988   161.246   -26.075   -10.069   -20.479   167.318 
  152.000000   -24.667   166.756    23.986   160.454   -26.060   -10.484   -20.604   166.604 
  160.000000   -24.493   167.379    23.965   159.386   -26.070   -11.019   -20.566   165.810 
  175.000000   -24.284   166.292    23.957   157.562   -26.068   -12.046   -20.713   164.276 
  190.000000   -24.399   162.703    23.932   155.746   -26.060   -13.047   -20.641   162.563 
  205.000000   -24.017   161.044    23.901   153.894   -26.052   -13.994   -20.496   161.179 
  220.000000   -24.347   160.791    23.912   151.931   -26.051   -15.071   -20.287   159.726 
  235.000000   -23.842   157.697    23.889   150.168   -26.061   -16.049   -20.101   158.473 
  250.000000   -23.908   155.800    23.876   148.215   -26.039   -17.019   -19.978   156.976 
  265.000000   -23.681   156.188    23.848   146.303   -26.022   -18.014   -19.808   155.669 
  280.000000   -23.496   154.635    23.831   144.449   -26.028   -19.062   -19.579   154.352 
  295.000000   -23.268   153.610    23.817   142.634   -26.020   -20.046   -19.430   152.856 
  310.000000   -23.030   150.731    23.790   140.790   -26.022   -21.010   -19.241   151.540 
  325.000000   -22.757   148.827    23.776   138.942   -26.007   -22.077   -19.189   150.307 
  340.000000   -22.717   148.904    23.737   137.131   -26.002   -23.099   -19.118   148.994 
  355.000000   -22.264   147.221    23.700   135.346   -26.019   -24.075   -18.904   147.530 
  370.000000   -22.142   146.695    23.682   133.433   -26.015   -25.119   -18.734   145.992 
  390.000000   -21.895   144.969    23.661   131.032   -25.996   -26.443   -18.617   144.347 
  405.000000   -21.837   142.864    23.634   129.366   -25.993   -27.510   -18.614   142.874 
  425.000000   -21.779   141.419    23.594   126.849   -25.988   -28.816   -18.437   140.627 
  440.000000   -21.771   140.327    23.581   125.018   -25.992   -29.879   -18.334   139.057 
  460.000000   -21.646   137.988    23.556   122.635   -25.959   -31.314   -18.321   136.912 
  475.000000   -21.597   138.185    23.524   120.907   -25.948   -32.304   -18.290   135.371 
  495.000000   -21.784   136.358    23.489   118.482   -25.944   -33.670   -18.206   133.192 
  510.000000   -21.606   134.672    23.468   116.724   -25.940   -34.704   -18.122   131.693 
  530.000000   -21.449   132.619    23.425   114.328   -25.935   -36.091   -18.187   129.628 
  545.000000   -21.446   131.752    23.390   112.547   -25.934   -37.076   -18.137   127.993 
  565.000000   -21.581   128.782    23.372   110.239   -25.928   -38.479   -18.150   126.099 
  580.000000   -21.652   128.183    23.330   108.411   -25.912   -39.541   -18.155   124.754 
  600.000000   -21.405   125.920    23.292   106.118   -25.909   -40.924   -18.046   122.652 
  615.000000   -21.309   125.194    23.262   104.279   -25.895   -41.962   -17.953   121.107 
  635.000000   -21.531   122.323    23.249   101.914   -25.881   -43.349   -17.895   119.337 
  650.000000   -21.550   120.565    23.210   100.256   -25.858   -44.408   -17.954   118.003 
  670.000000   -21.586   119.248    23.174    97.875   -25.860   -45.814   -17.901   116.141 
  685.000000   -21.509   117.693    23.147    96.138   -25.853   -46.832   -17.899   114.797 
  705.000000   -21.645   115.491    23.113    93.790   -25.836   -48.286   -17.895   112.985 
  720.000000   -21.637   113.375    23.077    92.133   -25.834   -49.325   -17.969   111.486 
  740.000000   -21.509   111.652    23.035    89.773   -25.830   -50.680   -17.953   109.373 
  755.000000   -21.532   110.696    23.017    88.063   -25.808   -51.779   -17.981   107.759 
  775.000000   -21.880   109.697    22.976    85.728   -25.795   -53.171   -17.954   105.637 
  790.000000   -22.000   107.607    22.946    84.049   -25.801   -54.226   -17.972   104.031 
  810.000000   -21.753   104.867    22.910    81.672   -25.786   -55.618   -18.060   101.457 
  825.000000   -22.033   104.997    22.881    79.924   -25.768   -56.699   -18.170    99.935 
  845.000000   -22.131   102.171    22.839    77.719   -25.776   -58.086   -18.153    97.923 
  860.000000   -22.164   100.907    22.799    75.990   -25.770   -59.120   -18.140    96.352 
  880.000000   -22.006    99.485    22.764    73.631   -25.751   -60.568   -18.207    94.190 
  895.000000   -22.230    97.805    22.737    71.980   -25.739   -61.660   -18.213    92.570 
  915.000000   -22.256    95.944    22.685    69.725   -25.738   -63.020   -18.144    90.443 
  930.000000   -22.273    93.655    22.656    68.039   -25.728   -64.086   -18.071    88.925 
  950.000000   -22.180    91.587    22.628    65.753   -25.712   -65.528   -18.068    86.880 
  965.000000   -22.059    90.554    22.605    64.014   -25.703   -66.648   -18.036    85.372 
  985.000000   -22.286    88.576    22.560    61.800   -25.690   -68.044   -18.004    83.483 
 1000.000000   -22.280    87.019    22.520    60.075   -25.681   -69.134   -17.982    82.191 
 1020.000000   -22.174    84.958    22.487    57.835   -25.666   -70.562   -18.064    80.423 
 1035.000000   -22.307    83.035    22.461    56.139   -25.660   -71.656   -18.087    79.021 
 1055.000000   -22.284    80.904    22.410    53.937   -25.661   -73.029   -18.033    77.247 
 1070.000000   -22.208    79.461    22.376    52.237   -25.661   -74.099   -17.993    75.557 
 1090.000000   -22.077    78.597    22.345    49.985   -25.639   -75.566   -18.033    74.005 
 1105.000000   -22.163    77.319    22.309    48.305   -25.637   -76.682   -18.003    72.478 
 1125.000000   -22.272    74.652    22.269    46.085   -25.636   -78.066   -17.931    70.227 
 1140.000000   -22.166    73.311    22.232    44.395   -25.631   -79.163   -17.894    68.737 
 1160.000000   -22.085    71.895    22.205    42.187   -25.604   -80.548   -17.942    66.719 
 1175.000000   -22.259    70.532    22.171    40.566   -25.590   -81.659   -17.955    65.051 
 1195.000000   -22.424    68.442    22.126    38.339   -25.580   -83.062   -17.908    63.056 
 1210.000000   -22.272    67.222    22.085    36.685   -25.578   -84.114   -17.911    61.703 
 1230.000000   -22.310    66.210    22.047    34.470   -25.553   -85.623   -17.980    60.146 
 1245.000000   -22.469    64.959    22.021    32.841   -25.545   -86.738   -17.997    59.030 
 1265.000000   -22.478    62.533    21.977    30.622   -25.548   -88.141   -17.962    57.161 
 1280.000000   -22.243    61.025    21.935    28.985   -25.549   -89.202   -17.925    55.817 
 1300.000000   -22.172    59.610    21.898    26.808   -25.538   -90.651   -17.971    53.977 
 1315.000000   -22.366    58.291    21.860    25.165   -25.518   -91.749   -17.976    52.690 
 1335.000000   -22.386    55.973    21.828    23.028   -25.510   -93.159   -17.919    50.999 
 1350.000000   -22.311    54.721    21.781    21.397   -25.504   -94.257   -17.892    49.651 
 1370.000000   -22.307    53.807    21.761    19.258   -25.479   -95.798   -17.930    48.128 
 1385.000000   -22.417    52.905    21.731    17.614   -25.464   -96.914   -17.987    46.862 
 1405.000000   -22.579    51.072    21.678    15.396   -25.453   -98.348   -17.954    44.940 
 1420.000000   -22.438    49.822    21.650    13.809   -25.459   -99.465   -17.961    43.588 
 1440.000000   -22.506    49.426    21.614    11.631   -25.436  -100.925   -18.048    41.713 
 1455.000000   -22.713    48.211    21.584     9.990   -25.427  -102.046   -18.106    40.378 
 1475.000000   -22.645    45.952    21.535     7.890   -25.427  -103.449   -18.158    38.490 
 1490.000000   -22.590    45.747    21.501     6.269   -25.426  -104.552   -18.124    37.034 
 1510.000000   -22.675    45.159    21.472     4.037   -25.419  -106.086   -18.113    34.823 
 1525.000000   -22.778    42.544    21.444     2.360   -25.415  -107.136   -18.125    33.027 
 1545.000000   -22.825    40.589    21.400     0.293   -25.410  -108.529   -18.264    31.105 
 1560.000000   -23.001    40.491    21.361    -1.261   -25.390  -109.616   -18.381    29.731 
 1580.000000   -23.194    40.946    21.315    -3.405   -25.375  -111.032   -18.406    28.046 
 1595.000000   -23.144    38.361    21.288    -5.023   -25.369  -112.118   -18.438    26.644 
 1615.000000   -23.180    36.864    21.248    -7.146   -25.346  -113.695   -18.481    24.857 
 1630.000000   -23.219    36.162    21.209    -8.774   -25.347  -114.780   -18.546    23.844 
 1650.000000   -23.260    35.548    21.174   -10.905   -25.339  -116.264   -18.498    21.846 
 1665.000000   -23.364    33.074    21.138   -12.452   -25.340  -117.326   -18.510    20.351 
 1685.000000   -23.415    31.559    21.097   -14.606   -25.318  -118.804   -18.635    18.444 
 1700.000000   -23.516    31.213    21.066   -16.159   -25.309  -119.928   -18.724    17.148 
 1720.000000   -23.793    32.116    21.032   -18.286   -25.290  -121.410   -18.754    15.544 
 1735.000000   -23.861    29.681    21.004   -19.857   -25.280  -122.518   -18.754    14.184 
 1755.000000   -23.813    27.920    20.964   -21.981   -25.265  -124.052   -18.902    12.759 
 1770.000000   -23.888    28.305    20.930   -23.595   -25.251  -125.143   -18.963    11.583 
 1790.000000   -23.967    27.603    20.889   -25.741   -25.260  -126.625   -18.944     9.464 
 1805.000000   -24.048    25.124    20.843   -27.238   -25.262  -127.643   -19.063     7.811 
 1825.000000   -24.116    23.907    20.815   -29.284   -25.240  -129.158   -19.210     6.011 
 1840.000000   -24.138    24.704    20.776   -30.879   -25.228  -130.228   -19.318     4.590 
 1860.000000   -24.331    25.322    20.740   -32.974   -25.213  -131.760   -19.294     2.607 
 1875.000000   -24.372    23.577    20.710   -34.521   -25.208  -132.852   -19.328     1.233 
 1895.000000   -24.458    22.080    20.688   -36.610   -25.196  -134.420   -19.388    -0.448 
 1910.000000   -24.292    23.103    20.655   -38.178   -25.176  -135.551   -19.430    -2.225 
 1930.000000   -24.601    23.520    20.604   -40.297   -25.162  -137.049   -19.492    -4.032 
 1945.000000   -24.522    22.916    20.582   -41.900   -25.159  -138.214   -19.487    -5.484 
 1965.000000   -24.576    20.982    20.552   -43.946   -25.143  -139.678   -19.571    -7.372 
 1980.000000   -24.486    21.526    20.518   -45.547   -25.135  -140.841   -19.602    -8.689 
 2000.000000   -24.633    22.075    20.473   -47.631   -25.122  -142.349   -19.593   -10.237 
 2015.000000   -24.624    19.823    20.444   -49.163   -25.117  -143.473   -19.594   -11.395 
 2035.000000   -24.708    17.587    20.410   -51.312   -25.111  -145.069   -19.609   -13.302 
 2050.000000   -24.594    16.928    20.368   -52.875   -25.110  -146.149   -19.626   -14.735 
 2070.000000   -24.585    17.687    20.338   -54.948   -25.107  -147.709   -19.573   -16.669 
 2085.000000   -24.695    13.970    20.297   -56.529   -25.115  -148.823   -19.575   -18.444 
 2105.000000   -24.934    12.437    20.274   -58.472   -25.090  -150.215   -19.774   -19.685 
 2120.000000   -24.981    13.228    20.235   -60.028   -25.079  -151.328   -19.824   -20.500 
 2140.000000   -25.017    13.860    20.205   -62.130   -25.066  -152.860   -19.847   -21.408 
 2155.000000   -25.032    12.018    20.177   -63.645   -25.049  -154.061   -19.838   -22.668 
 2175.000000   -24.899    10.389    20.131   -65.784   -25.051  -155.662   -19.944   -24.088 
 2190.000000   -24.951    10.223    20.093   -67.272   -25.042  -156.811   -20.051   -25.512 
 2210.000000   -25.229    10.379    20.055   -69.372   -25.049  -158.245   -20.095   -27.390 
 2225.000000   -25.546     8.530    20.027   -70.878   -25.038  -159.286   -20.236   -28.569 
 2245.000000   -25.491     7.483    19.991   -72.915   -25.018  -160.825   -20.386   -29.831 
 2260.000000   -25.501     8.749    19.966   -74.423   -25.006  -161.985   -20.487   -30.656 
 2280.000000   -25.466     9.210    19.932   -76.399   -24.994  -163.441   -20.525   -32.368 
 2295.000000   -25.408     6.519    19.902   -78.018   -24.979  -164.620   -20.557   -33.442 
 2315.000000   -25.466     6.247    19.879   -80.076   -24.969  -166.245   -20.674   -35.196 
 2330.000000   -25.296     7.277    19.852   -81.597   -24.960  -167.449   -20.729   -36.293 
 2350.000000   -25.320     8.149    19.814   -83.702   -24.956  -168.969   -20.742   -38.132 
 2365.000000   -25.349     6.653    19.783   -85.222   -24.956  -170.185   -20.795   -39.626 
 2385.000000   -25.650     5.848    19.734   -87.260   -24.950  -171.747   -20.993   -41.477 
 2400.000000   -25.405     5.914    19.694   -88.795   -24.953  -172.916   -21.102   -43.100 
 2420.000000   -25.762     7.189    19.668   -90.772   -24.971  -174.253   -21.258   -45.220 
 2435.000000   -25.962     5.245    19.625   -92.220   -24.960  -175.303   -21.456   -46.595 
 2455.000000   -26.078     6.351    19.598   -94.238   -24.918  -176.748   -21.625   -47.386 
 2470.000000   -25.776     7.420    19.585   -95.711   -24.914  -177.941   -21.699   -47.636 
 2490.000000   -25.670     7.243    19.553   -97.738   -24.896  -179.487   -21.734   -48.960 
 2505.000000   -25.488     7.909    19.529   -99.274   -24.874   179.308   -21.809   -49.954 
 2525.000000   -25.575     6.237    19.510  -101.328   -24.860   177.678   -21.912   -50.678 
 2540.000000   -25.388     5.841    19.485  -102.933   -24.854   176.362   -21.886   -51.799 
 2560.000000   -25.575     5.563    19.429  -104.930   -24.869   174.758   -21.939   -54.299 
 2575.000000   -25.569     4.072    19.402  -106.410   -24.874   173.696   -22.108   -55.434 
 2595.000000   -25.878     4.152    19.363  -108.401   -24.875   172.218   -22.445   -56.959 
 2610.000000   -25.866     4.926    19.344  -109.890   -24.861   171.133   -22.674   -57.552 
 2630.000000   -25.768     8.198    19.313  -111.799   -24.839   169.681   -22.820   -58.344 
 2645.000000   -25.514     5.696    19.279  -113.369   -24.828   168.511   -23.004   -59.000 
 2665.000000   -25.617     6.227    19.267  -115.372   -24.805   166.842   -23.157   -60.004 
 2680.000000   -25.348     5.606    19.244  -116.934   -24.800   165.718   -23.250   -60.645 
 2700.000000   -25.124     6.129    19.210  -118.942   -24.791   164.117   -23.313   -61.972 
 2715.000000   -25.145     5.280    19.175  -120.411   -24.779   162.908   -23.420   -63.010 
 2735.000000   -25.155     4.249    19.159  -122.503   -24.772   161.233   -23.658   -64.379 
 2750.000000   -25.180     4.364    19.124  -124.009   -24.779   160.005   -23.825   -66.434 
 2770.000000   -25.131     5.496    19.082  -125.938   -24.772   158.565   -24.052   -67.551 
 2785.000000   -25.106     5.760    19.066  -127.411   -24.760   157.416   -24.131   -68.650 
 2805.000000   -24.910     4.396    19.040  -129.421   -24.748   155.886   -24.405   -69.136 
 2820.000000   -24.655     4.865    19.014  -130.953   -24.743   154.659   -24.513   -69.752 
 2840.000000   -24.731     5.008    18.971  -132.886   -24.733   153.157   -24.608   -71.193 
 2855.000000   -24.499     4.430    18.962  -134.445   -24.733   151.976   -24.844   -71.924 
 2875.000000   -24.454     2.534    18.929  -136.475   -24.705   150.336   -24.987   -72.630 
 2890.000000   -24.469     2.075    18.897  -137.997   -24.713   149.070   -25.108   -73.485 
 2910.000000   -24.351     2.124    18.874  -139.869   -24.705   147.569   -25.138   -74.497 
 2925.000000   -24.087     1.000    18.856  -141.435   -24.699   146.402   -25.196   -74.803 
 2945.000000   -24.349     0.575    18.831  -143.454   -24.682   144.706   -25.350   -75.013 
 2960.000000   -24.021     0.718    18.799  -144.922   -24.678   143.504   -25.494   -76.497 
 2980.000000   -23.838    -0.588    18.769  -146.992   -24.668   141.867   -25.655   -77.166 
 2995.000000   -23.711    -0.539    18.752  -148.506   -24.666   140.642   -25.782   -77.930 
 3015.000000   -23.836    -0.578    18.705  -150.543   -24.670   139.143   -26.078   -78.633 
 3030.000000   -23.693    -1.898    18.676  -151.951   -24.666   137.969   -26.302   -79.396 
 3050.000000   -23.656    -1.541    18.663  -153.882   -24.653   136.351   -26.651   -78.800 
 3065.000000   -23.416    -1.824    18.639  -155.426   -24.645   135.103   -26.911   -79.825 
 3085.000000   -23.348    -1.894    18.617  -157.431   -24.645   133.531   -27.235   -80.410 
 3100.000000   -23.183    -1.871    18.592  -158.924   -24.638   132.340   -27.558   -80.451 
 3120.000000   -23.056    -2.247    18.565  -160.831   -24.628   130.724   -27.986   -79.610 
 3135.000000   -22.875    -3.362    18.552  -162.350   -24.610   129.452   -28.149   -80.077 
 3155.000000   -22.947    -3.485    18.510  -164.328   -24.633   127.856   -28.387   -82.142 
 3170.000000   -23.166    -3.434    18.461  -165.784   -24.658   126.692   -29.111   -83.860 
 3190.000000   -22.751    -3.044    18.460  -167.616   -24.632   125.386   -29.973   -79.900 
 3205.000000   -22.434    -4.005    18.461  -169.157   -24.609   124.214   -29.972   -78.369 
 3225.000000   -22.252    -4.441    18.432  -171.228   -24.594   122.529   -29.822   -80.287 
 3240.000000   -22.188    -6.235    18.405  -172.741   -24.589   121.257   -29.942   -81.105 
 3260.000000   -22.024    -7.830    18.386  -174.726   -24.572   119.537   -30.183   -80.775 
 3275.000000   -21.991    -8.886    18.366  -176.229   -24.576   118.242   -30.392   -83.072 
 3295.000000   -21.851    -9.488    18.337  -178.203   -24.574   116.678   -30.846   -83.292 
 3310.000000   -21.846   -10.284    18.313  -179.617   -24.575   115.408   -31.150   -83.358 
 3330.000000   -21.546   -12.324    18.292   178.351   -24.543   113.807   -31.124   -81.580 
 3345.000000   -21.632   -14.087    18.272   176.767   -24.551   112.409   -31.367   -84.372 
 3365.000000   -21.521   -13.497    18.239   174.971   -24.570   111.009   -31.845   -83.173 
 3380.000000   -21.353   -14.890    18.223   173.399   -24.555   109.816   -31.959   -81.417 
 3400.000000   -21.356   -16.604    18.196   171.472   -24.536   108.130   -32.121   -80.990 
