! Mini-Circuits  
! S2P DATA File Format
! Type: MMIC Amplifier
! Model: GALI-39     Reference Data:RDF-1232
! Note: All S Parameters are in dB deg format
! TEST CONDITIONS: INPUT POWER = -25dBm, Icc = 35mA, Vd = 3.80V @Temperature = -45degC
! 401 Frequency points
!
# MHz S DB R 50
!    FREQ       dB(S11)   PHS(S11)  dB(S21)   PHS(S21)  dB(S12)   PHS(S12)  dB(S22)   PHS(S22) 
   50.000000   -29.869   172.222    23.663   173.104   -25.686    -3.906   -24.240   175.296 
   56.000000   -29.557   175.558    23.651   172.406   -25.716    -4.347   -24.156   175.467 
   62.000000   -30.353   174.514    23.673   171.669   -25.702    -4.660   -24.448   175.507 
   68.000000   -31.031   176.534    23.669   170.935   -25.696    -4.986   -24.100   175.261 
   74.000000   -29.847   173.830    23.672   170.240   -25.686    -5.448   -24.293   175.487 
   80.000000   -30.232   173.852    23.662   169.536   -25.680    -5.825   -24.212   174.888 
   86.000000   -31.008   170.511    23.668   168.806   -25.702    -6.211   -24.624   174.977 
   92.000000   -31.721   173.515    23.660   168.014   -25.699    -6.601   -24.666   174.491 
   98.000000   -30.638   176.540    23.647   167.158   -25.707    -6.989   -24.852   174.475 
  104.000000   -30.975   176.892    23.639   166.551   -25.702    -7.347   -24.594   173.768 
  110.000000   -31.389   173.416    23.648   165.884   -25.690    -7.744   -24.749   173.564 
  116.000000   -31.073   176.475    23.628   165.118   -25.687    -8.103   -24.760   173.329 
  122.000000   -31.450   176.488    23.633   164.350   -25.712    -8.533   -25.137   173.190 
  128.000000   -31.092   176.046    23.617   163.563   -25.704    -8.942   -25.175   172.615 
  134.000000   -31.456   175.939    23.623   162.879   -25.706    -9.368   -25.211   171.873 
  140.000000   -32.782   177.103    23.611   162.043   -25.695    -9.797   -24.974   171.104 
  146.000000   -32.926   178.764    23.630   161.384   -25.683   -10.233   -24.970   170.557 
  152.000000   -32.692   176.908    23.615   160.596   -25.681   -10.648   -25.127   169.884 
  160.000000   -32.324   177.556    23.628   159.537   -25.702   -11.262   -25.251   169.330 
  175.000000   -32.176   176.729    23.599   157.705   -25.692   -12.184   -25.316   167.885 
  190.000000   -32.332   172.531    23.567   155.911   -25.677   -13.221   -25.362   166.151 
  205.000000   -31.056   169.369    23.545   154.075   -25.680   -14.152   -25.217   165.067 
  220.000000   -32.133   173.736    23.560   152.124   -25.678   -15.234   -24.835   163.612 
  235.000000   -31.350   166.355    23.522   150.393   -25.686   -16.230   -24.369   162.347 
  250.000000   -31.283   164.423    23.506   148.453   -25.653   -17.214   -24.044   160.783 
  265.000000   -30.007   167.002    23.471   146.560   -25.640   -18.321   -23.814   159.738 
  280.000000   -30.025   165.882    23.482   144.732   -25.643   -19.321   -23.569   158.478 
  295.000000   -29.678   165.114    23.470   142.906   -25.649   -20.344   -23.183   156.922 
  310.000000   -29.181   161.543    23.445   141.049   -25.635   -21.321   -22.846   155.439 
  325.000000   -28.222   156.836    23.420   139.211   -25.631   -22.377   -22.750   154.461 
  340.000000   -27.792   157.970    23.404   137.395   -25.621   -23.445   -22.739   153.398 
  355.000000   -27.087   157.160    23.372   135.630   -25.636   -24.428   -22.479   152.050 
  370.000000   -27.123   157.260    23.356   133.701   -25.634   -25.446   -22.157   150.285 
  390.000000   -26.624   155.143    23.312   131.347   -25.611   -26.871   -21.978   148.856 
  405.000000   -26.322   152.015    23.291   129.627   -25.613   -27.896   -21.867   147.351 
  425.000000   -26.402   152.247    23.268   127.151   -25.617   -29.302   -21.806   145.288 
  440.000000   -26.601   151.636    23.240   125.417   -25.614   -30.298   -21.539   143.455 
  460.000000   -26.289   148.432    23.205   122.954   -25.589   -31.742   -21.377   141.153 
  475.000000   -25.896   149.237    23.174   121.189   -25.567   -32.786   -21.384   139.702 
  495.000000   -26.346   148.269    23.160   118.823   -25.556   -34.193   -21.234   137.448 
  510.000000   -26.168   146.877    23.145   117.057   -25.572   -35.225   -21.175   136.053 
  530.000000   -25.603   143.699    23.089   114.689   -25.549   -36.633   -21.100   133.792 
  545.000000   -25.459   143.403    23.083   112.889   -25.562   -37.671   -21.231   132.476 
  565.000000   -25.862   140.575    23.044   110.601   -25.557   -39.058   -21.095   130.399 
  580.000000   -25.741   140.535    23.004   108.791   -25.544   -40.142   -21.208   129.365 
  600.000000   -25.217   136.747    22.978   106.477   -25.535   -41.557   -21.121   127.388 
  615.000000   -25.262   138.122    22.950   104.638   -25.535   -42.630   -20.882   125.468 
  635.000000   -25.871   135.777    22.912   102.319   -25.523   -43.993   -20.651   123.625 
  650.000000   -25.594   132.962    22.871   100.661   -25.497   -45.093   -20.691   122.341 
  670.000000   -25.485   131.585    22.860    98.246   -25.484   -46.515   -20.737   120.785 
  685.000000   -25.417   130.647    22.836    96.543   -25.484   -47.560   -20.594   119.257 
  705.000000   -25.758   128.910    22.794    94.187   -25.468   -49.009   -20.523   117.576 
  720.000000   -25.278   124.754    22.779    92.499   -25.458   -50.102   -20.766   116.424 
  740.000000   -25.317   124.074    22.742    90.104   -25.469   -51.456   -20.763   114.401 
  755.000000   -25.466   124.082    22.693    88.472   -25.451   -52.572   -20.624   112.394 
  775.000000   -25.630   123.164    22.660    86.124   -25.440   -53.970   -20.716   110.584 
  790.000000   -25.976   121.793    22.641    84.435   -25.438   -55.090   -20.637   108.759 
  810.000000   -25.807   119.422    22.607    82.056   -25.429   -56.483   -20.649   105.868 
  825.000000   -25.907   119.984    22.564    80.339   -25.412   -57.528   -20.862   104.627 
  845.000000   -25.846   116.138    22.538    78.095   -25.413   -59.001   -20.949   102.911 
  860.000000   -25.841   115.351    22.514    76.361   -25.415   -60.010   -20.915   101.248 
  880.000000   -25.898   115.392    22.475    74.033   -25.402   -61.458   -20.874    98.831 
  895.000000   -26.042   113.504    22.433    72.397   -25.387   -62.552   -20.924    97.172 
  915.000000   -25.912   111.052    22.380    70.149   -25.389   -63.986   -20.985    95.312 
  930.000000   -26.099   108.859    22.370    68.410   -25.383   -65.066   -20.760    93.513 
  950.000000   -26.276   108.365    22.326    66.141   -25.375   -66.497   -20.647    91.268 
  965.000000   -25.892   107.108    22.296    64.460   -25.355   -67.659   -20.586    89.667 
  985.000000   -25.986   104.072    22.258    62.234   -25.344   -69.040   -20.636    88.013 
 1000.000000   -26.016   103.431    22.233    60.492   -25.341   -70.146   -20.532    86.748 
 1020.000000   -25.984   101.676    22.199    58.250   -25.318   -71.626   -20.502    84.724 
 1035.000000   -26.026    98.888    22.170    56.569   -25.316   -72.691   -20.584    83.688 
 1055.000000   -25.756    95.588    22.129    54.340   -25.318   -74.129   -20.589    82.089 
 1070.000000   -25.678    94.478    22.097    52.643   -25.319   -75.177   -20.527    80.316 
 1090.000000   -25.580    94.498    22.069    50.448   -25.308   -76.634   -20.458    78.683 
 1105.000000   -25.640    93.276    22.020    48.755   -25.300   -77.775   -20.423    77.139 
 1125.000000   -25.633    89.883    21.987    46.522   -25.301   -79.143   -20.480    75.169 
 1140.000000   -25.593    88.619    21.963    44.823   -25.297   -80.281   -20.320    73.455 
 1160.000000   -25.618    88.941    21.920    42.617   -25.283   -81.701   -20.269    71.240 
 1175.000000   -25.817    87.681    21.880    40.984   -25.264   -82.819   -20.291    69.528 
 1195.000000   -25.804    84.896    21.840    38.771   -25.256   -84.241   -20.286    67.632 
 1210.000000   -25.636    83.570    21.814    37.108   -25.257   -85.291   -20.256    66.298 
 1230.000000   -25.710    84.258    21.778    34.899   -25.232   -86.813   -20.217    64.652 
 1245.000000   -25.797    82.509    21.746    33.272   -25.220   -87.945   -20.294    63.710 
 1265.000000   -25.586    78.601    21.713    31.032   -25.222   -89.368   -20.326    62.037 
 1280.000000   -25.329    77.032    21.678    29.408   -25.228   -90.443   -20.247    60.652 
 1300.000000   -25.300    77.014    21.640    27.204   -25.219   -91.891   -20.235    58.682 
 1315.000000   -25.516    75.271    21.592    25.585   -25.202   -93.019   -20.234    57.416 
 1335.000000   -25.403    72.121    21.564    23.457   -25.202   -94.412   -20.280    56.081 
 1350.000000   -25.368    71.787    21.529    21.775   -25.190   -95.536   -20.157    54.482 
 1370.000000   -25.457    72.492    21.489    19.677   -25.173   -97.059   -20.098    52.829 
 1385.000000   -25.526    71.763    21.459    18.040   -25.158   -98.223   -20.155    51.695 
 1405.000000   -25.527    69.267    21.412    15.811   -25.148   -99.713   -20.189    49.883 
 1420.000000   -25.367    68.407    21.394    14.179   -25.157  -100.772   -20.154    48.518 
 1440.000000   -25.469    69.667    21.358    11.991   -25.132  -102.289   -20.126    46.403 
 1455.000000   -25.507    67.793    21.314    10.399   -25.123  -103.420   -20.249    45.273 
 1475.000000   -25.336    63.679    21.285     8.279   -25.121  -104.851   -20.387    43.563 
 1490.000000   -25.240    64.282    21.255     6.632   -25.130  -105.956   -20.320    42.125 
 1510.000000   -25.282    64.830    21.216     4.425   -25.113  -107.488   -20.242    39.602 
 1525.000000   -25.539    63.440    21.195     2.750   -25.122  -108.564   -20.274    37.813 
 1545.000000   -25.640    62.003    21.150     0.696   -25.108  -109.997   -20.359    35.765 
 1560.000000   -25.537    60.561    21.102    -0.906   -25.093  -111.069   -20.547    34.567 
 1580.000000   -25.539    61.033    21.075    -3.033   -25.088  -112.508   -20.653    33.100 
 1595.000000   -25.660    60.015    21.049    -4.658   -25.083  -113.582   -20.617    31.606 
 1615.000000   -25.704    59.530    20.997    -6.778   -25.071  -115.150   -20.704    29.971 
 1630.000000   -25.660    57.874    20.957    -8.419   -25.061  -116.278   -20.726    29.014 
 1650.000000   -25.473    56.840    20.926   -10.535   -25.061  -117.741   -20.719    27.032 
 1665.000000   -25.817    56.621    20.887   -12.127   -25.070  -118.824   -20.665    25.328 
 1685.000000   -25.834    55.861    20.834   -14.247   -25.042  -120.295   -20.738    23.339 
 1700.000000   -25.829    55.278    20.808   -15.793   -25.028  -121.463   -20.911    22.282 
 1720.000000   -25.798    56.404    20.788   -17.965   -25.008  -122.932   -20.916    20.668 
 1735.000000   -26.071    55.301    20.770   -19.548   -25.016  -124.025   -20.920    19.331 
 1755.000000   -25.934    54.233    20.721   -21.669   -24.998  -125.581   -21.005    17.932 
 1770.000000   -25.851    52.380    20.683   -23.246   -24.982  -126.739   -21.130    17.052 
 1790.000000   -25.653    50.957    20.667   -25.413   -24.990  -128.197   -21.162    15.065 
 1805.000000   -25.906    50.053    20.621   -26.947   -24.997  -129.198   -21.228    13.164 
 1825.000000   -25.993    49.972    20.580   -29.020   -24.979  -130.750   -21.436    11.556 
 1840.000000   -25.805    50.107    20.536   -30.572   -24.968  -131.869   -21.542    10.168 
 1860.000000   -25.817    50.666    20.500   -32.680   -24.959  -133.410   -21.590     8.235 
 1875.000000   -25.926    50.791    20.473   -34.242   -24.958  -134.399   -21.545     6.722 
 1895.000000   -25.875    51.111    20.443   -36.277   -24.942  -136.010   -21.543     4.877 
 1910.000000   -25.556    49.980    20.408   -37.872   -24.910  -137.188   -21.665     3.282 
 1930.000000   -25.654    50.566    20.371   -40.006   -24.908  -138.694   -21.695     1.456 
 1945.000000   -25.506    50.714    20.353   -41.613   -24.909  -139.841   -21.728     0.039 
 1965.000000   -25.516    49.841    20.324   -43.663   -24.897  -141.323   -21.738    -2.084 
 1980.000000   -25.374    48.084    20.283   -45.265   -24.882  -142.549   -21.830    -3.132 
 2000.000000   -25.286    47.632    20.254   -47.414   -24.881  -144.016   -21.869    -4.501 
 2015.000000   -25.264    46.707    20.229   -48.898   -24.874  -145.152   -21.791    -5.812 
 2035.000000   -25.380    45.305    20.178   -51.005   -24.871  -146.734   -21.833    -7.608 
 2050.000000   -25.244    44.092    20.139   -52.628   -24.868  -147.869   -21.821    -9.180 
 2070.000000   -24.963    42.944    20.103   -54.687   -24.870  -149.384   -21.801   -11.035 
 2085.000000   -25.186    41.725    20.075   -56.328   -24.884  -150.519   -21.760   -13.041 
 2105.000000   -25.410    41.862    20.027   -58.231   -24.857  -151.961   -21.919   -14.241 
 2120.000000   -25.334    41.389    19.998   -59.800   -24.838  -153.088   -22.036   -14.663 
 2140.000000   -25.169    41.160    19.980   -61.874   -24.829  -154.613   -21.994   -15.529 
 2155.000000   -25.207    39.859    19.959   -63.443   -24.819  -155.797   -22.010   -16.689 
 2175.000000   -24.961    38.806    19.906   -65.551   -24.819  -157.411   -22.067   -18.145 
 2190.000000   -25.023    36.817    19.872   -67.054   -24.807  -158.620   -22.263   -19.310 
 2210.000000   -25.136    36.154    19.847   -69.149   -24.820  -159.975   -22.356   -20.989 
 2225.000000   -25.387    37.026    19.820   -70.651   -24.812  -161.027   -22.441   -22.318 
 2245.000000   -25.276    36.419    19.772   -72.712   -24.799  -162.584   -22.665   -23.114 
 2260.000000   -25.111    36.637    19.740   -74.201   -24.784  -163.787   -22.750   -23.798 
 2280.000000   -24.943    35.694    19.719   -76.215   -24.780  -165.268   -22.839   -25.362 
 2295.000000   -24.900    34.625    19.689   -77.814   -24.764  -166.380   -22.804   -26.613 
 2315.000000   -24.794    35.218    19.649   -79.838   -24.757  -168.100   -22.863   -28.471 
 2330.000000   -24.506    33.902    19.621   -81.375   -24.747  -169.265   -23.009   -29.150 
 2350.000000   -24.425    33.744    19.595   -83.472   -24.744  -170.824   -22.959   -31.258 
 2365.000000   -24.396    32.478    19.567   -85.021   -24.742  -172.004   -23.064   -32.607 
 2385.000000   -24.521    32.827    19.528   -87.102   -24.744  -173.565   -23.243   -34.513 
 2400.000000   -24.396    30.618    19.480   -88.626   -24.740  -174.797   -23.429   -35.888 
 2420.000000   -24.484    31.139    19.460   -90.589   -24.753  -176.105   -23.708   -37.685 
 2435.000000   -24.602    30.450    19.427   -92.060   -24.761  -177.138   -23.875   -39.138 
 2455.000000   -24.503    31.501    19.387   -94.065   -24.727  -178.611   -24.101   -39.303 
 2470.000000   -24.167    30.961    19.364   -95.566   -24.711  -179.816   -24.136   -39.327 
 2490.000000   -24.094    30.118    19.339   -97.609   -24.700   178.610   -24.221   -40.368 
 2505.000000   -23.763    30.252    19.323   -99.110   -24.693   177.453   -24.215   -41.367 
 2525.000000   -23.675    29.689    19.282  -101.198   -24.668   175.792   -24.254   -41.940 
 2540.000000   -23.582    27.796    19.256  -102.781   -24.659   174.479   -24.309   -42.633 
 2560.000000   -23.730    26.872    19.225  -104.820   -24.677   172.886   -24.300   -45.615 
 2575.000000   -23.659    25.463    19.198  -106.291   -24.683   171.785   -24.559   -46.522 
 2595.000000   -23.690    26.179    19.153  -108.310   -24.689   170.302   -24.894   -47.690 
 2610.000000   -23.680    25.497    19.129  -109.815   -24.669   169.175   -25.247   -47.361 
 2630.000000   -23.551    26.693    19.117  -111.726   -24.655   167.710   -25.463   -47.276 
 2645.000000   -23.294    24.645    19.083  -113.242   -24.647   166.623   -25.573   -48.065 
 2665.000000   -23.185    24.881    19.058  -115.260   -24.630   164.908   -25.789   -48.259 
 2680.000000   -23.069    23.695    19.024  -116.792   -24.620   163.769   -25.865   -48.610 
 2700.000000   -22.900    22.782    19.008  -118.827   -24.609   162.201   -25.972   -49.599 
 2715.000000   -22.805    22.080    18.975  -120.357   -24.609   160.994   -26.025   -50.774 
 2735.000000   -22.688    21.227    18.932  -122.390   -24.601   159.288   -26.258   -51.832 
 2750.000000   -22.657    20.402    18.903  -123.906   -24.607   158.031   -26.576   -53.270 
 2770.000000   -22.625    20.363    18.873  -125.854   -24.601   156.595   -26.751   -54.376 
 2785.000000   -22.521    19.961    18.857  -127.341   -24.595   155.445   -26.880   -55.136 
 2805.000000   -22.310    18.851    18.836  -129.341   -24.589   153.974   -27.105   -55.029 
 2820.000000   -22.191    18.062    18.809  -130.877   -24.573   152.665   -27.295   -54.713 
 2840.000000   -22.228    17.284    18.781  -132.873   -24.570   151.193   -27.446   -55.416 
 2855.000000   -21.940    16.462    18.770  -134.386   -24.571   150.028   -27.637   -56.131 
 2875.000000   -21.880    14.778    18.722  -136.406   -24.548   148.373   -27.813   -55.495 
 2890.000000   -21.882    13.745    18.692  -137.863   -24.558   147.129   -27.924   -56.066 
 2910.000000   -21.849    12.624    18.670  -139.804   -24.552   145.570   -27.952   -56.803 
 2925.000000   -21.576    12.002    18.656  -141.387   -24.550   144.430   -27.913   -57.197 
 2945.000000   -21.608    11.247    18.620  -143.458   -24.526   142.714   -27.946   -57.007 
 2960.000000   -21.447    10.331    18.590  -144.887   -24.522   141.434   -28.218   -57.319 
 2980.000000   -21.327     8.831    18.566  -146.941   -24.516   139.849   -28.285   -58.339 
 2995.000000   -21.177     8.238    18.553  -148.468   -24.517   138.613   -28.439   -58.289 
 3015.000000   -21.299     7.791    18.504  -150.519   -24.523   137.150   -28.787   -57.421 
 3030.000000   -21.196     6.603    18.479  -151.920   -24.525   135.992   -28.976   -58.004 
 3050.000000   -20.980     6.343    18.460  -153.879   -24.508   134.343   -29.197   -56.240 
 3065.000000   -20.844     5.291    18.435  -155.415   -24.498   133.067   -29.563   -55.237 
 3085.000000   -20.847     4.748    18.402  -157.430   -24.505   131.534   -29.801   -55.638 
 3100.000000   -20.680     4.160    18.396  -158.870   -24.501   130.328   -30.078   -53.859 
 3120.000000   -20.460     3.432    18.367  -160.855   -24.492   128.724   -30.305   -51.183 
 3135.000000   -20.370     2.271    18.348  -162.374   -24.471   127.420   -30.421   -50.014 
 3155.000000   -20.574     1.251    18.313  -164.343   -24.499   125.821   -30.745   -50.787 
 3170.000000   -20.656     1.057    18.272  -165.777   -24.524   124.666   -31.523   -50.864 
 3190.000000   -20.218     0.870    18.270  -167.655   -24.507   123.344   -31.810   -41.182 
 3205.000000   -20.030    -0.339    18.256  -169.197   -24.478   122.155   -31.486   -39.703 
 3225.000000   -19.954    -1.536    18.229  -171.232   -24.461   120.485   -31.389   -42.847 
 3240.000000   -19.856    -3.106    18.207  -172.732   -24.459   119.245   -31.490   -44.263 
 3260.000000   -19.603    -4.908    18.187  -174.744   -24.449   117.476   -31.464   -43.560 
 3275.000000   -19.590    -6.077    18.153  -176.263   -24.446   116.164   -31.744   -43.336 
 3295.000000   -19.619    -7.023    18.126  -178.219   -24.449   114.572   -32.005   -43.139 
 3310.000000   -19.532    -8.050    18.115  -179.647   -24.456   113.351   -32.137   -41.799 
 3330.000000   -19.236   -10.112    18.097   178.294   -24.427   111.747   -31.727   -40.895 
 3345.000000   -19.360   -11.655    18.065   176.747   -24.428   110.292   -32.034   -41.422 
 3365.000000   -19.419   -11.735    18.041   174.906   -24.454   108.934   -32.094   -38.116 
 3380.000000   -19.241   -13.243    18.030   173.354   -24.444   107.787   -31.937   -38.057 
 3400.000000   -19.129   -15.069    18.009   171.489   -24.422   106.052   -31.738   -36.626 
