! Mini-Circuits  
! S2P DATA File Format
! Type: MMIC Amplifier
! Model: GALI-39     Reference Data:RDF-1232
! Note: All S Parameters are in dB deg format
! TEST CONDITIONS: INPUT POWER = -25dBm, Icc = 35mA, Vd = 3.46V @Temperature = +85degC
! 401 Frequency points
!
# MHz S DB R 50
!    FREQ       dB(S11)   PHS(S11)  dB(S21)   PHS(S21)  dB(S12)   PHS(S12)  dB(S22)   PHS(S22) 
   50.000000   -49.725    42.755    23.095   173.291   -25.232    -3.847   -32.294   174.208 
   56.000000   -58.911   157.781    23.081   172.621   -25.208    -4.199   -32.197   174.367 
   62.000000   -55.348   -69.363    23.129   171.888   -25.223    -4.542   -32.001   174.472 
   68.000000   -50.063  -102.947    23.098   171.163   -25.239    -4.871   -32.011   174.749 
   74.000000   -47.726  -175.605    23.102   170.510   -25.258    -5.251   -31.425   175.463 
   80.000000   -47.882  -163.607    23.063   169.819   -25.229    -5.522   -31.339   174.911 
   86.000000   -61.798    74.022    23.086   169.096   -25.244    -5.979   -30.589   175.054 
   92.000000   -55.602  -152.945    23.084   168.362   -25.214    -6.317   -30.715   175.010 
   98.000000   -43.093  -153.316    23.091   167.538   -25.240    -6.688   -30.277   175.196 
  104.000000   -42.316  -159.358    23.068   166.924   -25.240    -6.933   -30.553   175.444 
  110.000000   -41.380   179.867    23.064   166.236   -25.260    -7.342   -29.877   175.245 
  116.000000   -40.689  -166.572    23.024   165.544   -25.250    -7.693   -29.880   175.988 
  122.000000   -41.230  -163.806    23.049   164.839   -25.248    -8.065   -29.160   175.196 
  128.000000   -39.889  -169.878    23.041   164.075   -25.222    -8.448   -29.338   175.439 
  134.000000   -38.647  -173.931    23.066   163.373   -25.247    -8.833   -28.970   174.768 
  140.000000   -40.128  -170.092    23.036   162.580   -25.245    -9.193   -29.266   175.416 
  146.000000   -39.006  -161.686    23.033   161.934   -25.264    -9.597   -28.525   174.637 
  152.000000   -39.673  -165.452    23.003   161.179   -25.228    -9.995   -28.666   174.688 
  160.000000   -37.918  -169.568    23.025   160.205   -25.222   -10.480   -27.883   173.813 
  175.000000   -36.315  -172.070    23.006   158.419   -25.216   -11.451   -28.019   174.221 
  190.000000   -36.813  -174.251    22.995   156.656   -25.206   -12.396   -27.894   173.989 
  205.000000   -35.916  -179.163    22.970   154.905   -25.224   -13.283   -27.517   173.852 
  220.000000   -35.712  -173.040    22.993   153.014   -25.232   -14.241   -27.227   173.758 
  235.000000   -34.830   177.247    22.945   151.360   -25.229   -15.212   -27.319   174.733 
  250.000000   -35.931  -179.979    22.914   149.493   -25.214   -16.124   -27.328   174.730 
  265.000000   -35.214  -170.009    22.888   147.695   -25.221   -17.053   -27.338   174.829 
  280.000000   -36.409  -166.853    22.879   145.913   -25.224   -18.013   -27.132   173.969 
  295.000000   -35.791  -165.639    22.852   144.195   -25.222   -18.934   -27.050   172.900 
  310.000000   -35.969  -165.592    22.833   142.420   -25.205   -19.843   -27.149   172.569 
  325.000000   -36.769  -160.960    22.792   140.652   -25.198   -20.815   -27.374   173.098 
  340.000000   -36.411  -149.125    22.794   138.948   -25.194   -21.793   -27.347   172.222 
  355.000000   -35.304  -155.911    22.768   137.188   -25.199   -22.745   -27.220   171.273 
  370.000000   -35.192  -154.311    22.745   135.344   -25.171   -23.744   -27.085   169.581 
  390.000000   -34.931  -152.650    22.716   133.097   -25.156   -24.990   -27.406   170.457 
  405.000000   -35.588  -150.890    22.714   131.407   -25.171   -25.928   -27.535   169.737 
  425.000000   -35.332  -148.732    22.691   129.040   -25.166   -27.224   -27.409   167.420 
  440.000000   -35.134  -150.529    22.641   127.340   -25.172   -28.220   -27.499   166.831 
  460.000000   -35.453  -153.865    22.610   125.041   -25.151   -29.521   -27.638   166.082 
  475.000000   -34.472  -151.647    22.582   123.383   -25.163   -30.451   -27.619   164.886 
  495.000000   -34.708  -146.504    22.552   121.063   -25.153   -31.735   -27.156   161.381 
  510.000000   -34.550  -153.198    22.513   119.408   -25.144   -32.755   -27.000   160.181 
  530.000000   -34.460  -158.141    22.462   117.130   -25.125   -34.056   -27.126   158.905 
  545.000000   -33.868  -158.030    22.465   115.361   -25.121   -35.030   -26.647   155.353 
  565.000000   -34.595  -158.398    22.431   113.186   -25.103   -36.316   -26.818   154.974 
  580.000000   -34.257  -156.494    22.398   111.430   -25.089   -37.338   -26.894   154.567 
  600.000000   -33.851  -164.525    22.381   109.163   -25.102   -38.631   -26.655   151.910 
  615.000000   -33.012  -166.767    22.361   107.465   -25.105   -39.618   -26.455   149.679 
  635.000000   -33.874  -166.765    22.312   105.240   -25.085   -40.927   -26.352   148.343 
  650.000000   -33.915  -167.421    22.271   103.621   -25.081   -41.915   -26.545   148.082 
  670.000000   -33.270  -167.000    22.245   101.328   -25.078   -43.211   -26.194   145.246 
  685.000000   -33.139  -169.422    22.209    99.708   -25.084   -44.181   -25.989   143.450 
  705.000000   -33.523  -170.947    22.155    97.457   -25.059   -45.545   -25.881   142.207 
  720.000000   -33.560  -169.531    22.149    95.816   -25.060   -46.529   -25.665   139.617 
  740.000000   -32.973  -177.037    22.113    93.577   -25.043   -47.892   -25.499   137.292 
  755.000000   -32.698  -179.688    22.078    91.954   -25.051   -48.854   -25.948   138.129 
  775.000000   -32.777  -173.191    22.045    89.688   -25.048   -50.134   -25.661   135.239 
  790.000000   -33.018  -173.934    22.012    88.091   -25.041   -51.161   -25.492   133.091 
  810.000000   -32.997   177.501    21.962    85.842   -25.029   -52.481   -25.727   131.439 
  825.000000   -32.578  -176.983    21.927    84.226   -25.011   -53.455   -25.704   130.297 
  845.000000   -32.757  -175.761    21.903    82.034   -25.016   -54.822   -25.517   128.226 
  860.000000   -32.794  -178.593    21.881    80.382   -25.005   -55.791   -25.316   126.117 
  880.000000   -32.296   176.387    21.836    78.163   -24.974   -57.167   -25.557   125.276 
  895.000000   -32.366   179.882    21.812    76.561   -24.974   -58.159   -25.676   124.314 
  915.000000   -32.215   179.244    21.768    74.420   -24.982   -59.461   -25.573   121.909 
  930.000000   -32.583   177.017    21.759    72.774   -24.979   -60.489   -25.511   120.486 
  950.000000   -32.358   172.011    21.709    70.594   -24.973   -61.770   -25.562   118.882 
  965.000000   -31.938   170.146    21.659    68.967   -24.975   -62.808   -25.624   117.608 
  985.000000   -31.908   173.801    21.636    66.831   -24.971   -64.060   -25.468   114.961 
 1000.000000   -31.753   172.264    21.602    65.219   -24.967   -65.128   -25.313   113.217 
 1020.000000   -31.549   169.352    21.547    63.075   -24.942   -66.468   -25.508   112.170 
 1035.000000   -31.555   171.928    21.513    61.503   -24.943   -67.494   -25.434   110.413 
 1055.000000   -31.416   171.668    21.488    59.356   -24.936   -68.813   -25.248   108.131 
 1070.000000   -31.194   168.396    21.466    57.696   -24.917   -69.867   -25.098   105.519 
 1090.000000   -30.789   164.469    21.427    55.586   -24.894   -71.242   -25.230   105.019 
 1105.000000   -30.688   165.731    21.387    53.950   -24.903   -72.296   -25.241   103.695 
 1125.000000   -30.807   165.376    21.367    51.761   -24.914   -73.551   -25.163   101.029 
 1140.000000   -30.826   161.554    21.342    50.159   -24.912   -74.567   -25.178    99.905 
 1160.000000   -30.467   157.929    21.291    48.078   -24.903   -75.894   -25.319    98.486 
 1175.000000   -30.393   160.666    21.240    46.575   -24.901   -76.860   -25.461    97.343 
 1195.000000   -30.274   161.812    21.210    44.423   -24.900   -78.141   -25.223    94.375 
 1210.000000   -30.142   157.363    21.177    42.806   -24.894   -79.215   -25.148    92.705 
 1230.000000   -29.689   156.779    21.127    40.728   -24.865   -80.623   -25.225    91.661 
 1245.000000   -29.521   158.784    21.081    39.208   -24.862   -81.621   -25.166    90.443 
 1265.000000   -29.398   158.629    21.058    37.051   -24.863   -82.961   -25.059    87.762 
 1280.000000   -29.381   153.853    21.040    35.451   -24.853   -84.070   -24.905    85.769 
 1300.000000   -29.015   151.111    20.989    33.372   -24.834   -85.410   -25.128    84.601 
 1315.000000   -28.954   152.859    20.950    31.843   -24.828   -86.415   -25.164    83.517 
 1335.000000   -28.945   151.109    20.928    29.720   -24.837   -87.711   -24.972    81.097 
 1350.000000   -28.821   148.238    20.900    28.147   -24.826   -88.768   -25.042    80.223 
 1370.000000   -28.518   145.431    20.850    26.149   -24.814   -90.191   -25.086    79.174 
 1385.000000   -28.337   145.516    20.813    24.565   -24.820   -91.192   -25.215    78.481 
 1405.000000   -28.229   145.596    20.770    22.435   -24.817   -92.519   -24.927    75.202 
 1420.000000   -28.107   142.266    20.742    20.901   -24.823   -93.546   -24.821    73.388 
 1440.000000   -27.735   141.646    20.698    18.817   -24.798   -94.989   -24.934    71.984 
 1455.000000   -27.666   142.432    20.648    17.307   -24.793   -96.017   -24.854    70.452 
 1475.000000   -27.654   140.117    20.621    15.257   -24.794   -97.381   -24.819    68.301 
 1490.000000   -27.432   137.259    20.601    13.677   -24.781   -98.464   -24.622    66.375 
 1510.000000   -27.150   136.334    20.558    11.565   -24.808   -99.714   -24.738    64.580 
 1525.000000   -27.417   135.447    20.524     9.954   -24.796  -100.754   -24.797    63.237 
 1545.000000   -27.406   133.129    20.471     8.018   -24.779  -102.108   -24.909    62.051 
 1560.000000   -27.112   133.445    20.426     6.559   -24.775  -103.123   -24.872    60.484 
 1580.000000   -26.564   133.506    20.403     4.463   -24.770  -104.473   -24.808    58.663 
 1595.000000   -26.748   131.216    20.381     2.914   -24.747  -105.606   -24.872    57.761 
 1615.000000   -26.628   128.797    20.326     0.929   -24.733  -107.000   -25.026    57.136 
 1630.000000   -26.541   127.890    20.294    -0.665   -24.749  -107.949   -24.961    56.020 
 1650.000000   -26.251   126.156    20.271    -2.715   -24.756  -109.278   -24.930    53.708 
 1665.000000   -26.474   125.559    20.232    -4.209   -24.751  -110.302   -25.055    53.401 
 1685.000000   -26.380   122.871    20.176    -6.197   -24.729  -111.652   -25.205    52.629 
 1700.000000   -25.984   123.275    20.143    -7.676   -24.736  -112.646   -25.174    51.195 
 1720.000000   -25.477   123.888    20.117    -9.717   -24.723  -113.957   -25.017    48.789 
 1735.000000   -25.589   122.725    20.084   -11.221   -24.711  -115.105   -24.991    48.031 
 1755.000000   -25.495   119.771    20.027   -13.227   -24.689  -116.545   -25.076    47.417 
 1770.000000   -25.225   119.533    19.991   -14.729   -24.685  -117.565   -24.951    46.144 
 1790.000000   -24.951   118.611    19.977   -16.771   -24.694  -118.988   -24.832    43.735 
 1805.000000   -25.098   117.176    19.940   -18.261   -24.674  -120.023   -24.938    43.244 
 1825.000000   -25.057   115.144    19.899   -20.241   -24.662  -121.445   -25.120    42.876 
 1840.000000   -24.679   114.326    19.865   -21.732   -24.672  -122.429   -25.155    41.760 
 1860.000000   -24.465   114.032    19.836   -23.734   -24.663  -123.801   -25.072    40.183 
 1875.000000   -24.563   112.730    19.807   -25.258   -24.658  -124.838   -25.126    40.096 
 1895.000000   -24.599   110.524    19.769   -27.173   -24.653  -126.276   -25.105    39.476 
 1910.000000   -24.206   109.008    19.728   -28.702   -24.651  -127.244   -25.104    37.465 
 1930.000000   -23.947   109.211    19.691   -30.750   -24.656  -128.653   -25.034    36.065 
 1945.000000   -23.776   107.690    19.656   -32.264   -24.629  -129.774   -25.080    35.437 
 1965.000000   -23.807   106.093    19.621   -34.186   -24.618  -131.222   -25.101    34.146 
 1980.000000   -23.572   104.788    19.581   -35.711   -24.616  -132.269   -25.002    32.509 
 2000.000000   -23.218   104.788    19.551   -37.770   -24.607  -133.703   -24.929    31.007 
 2015.000000   -23.414   102.801    19.530   -39.165   -24.598  -134.798   -24.980    30.711 
 2035.000000   -23.461   101.414    19.480   -41.172   -24.588  -136.274   -25.139    30.172 
 2050.000000   -23.238    99.936    19.458   -42.692   -24.607  -137.222   -25.138    28.759 
 2070.000000   -22.964    98.704    19.426   -44.705   -24.610  -138.646   -25.145    26.769 
 2085.000000   -23.136    97.502    19.391   -46.237   -24.608  -139.700   -25.389    26.365 
 2105.000000   -23.173    96.463    19.345   -48.062   -24.601  -140.998   -25.583    27.003 
 2120.000000   -22.902    96.251    19.308   -49.525   -24.596  -141.981   -25.485    26.034 
 2140.000000   -22.590    95.326    19.282   -51.527   -24.595  -143.370   -25.360    24.542 
 2155.000000   -22.635    93.960    19.247   -53.000   -24.579  -144.524   -25.427    23.871 
 2175.000000   -22.436    91.948    19.198   -55.005   -24.572  -146.024   -25.557    23.332 
 2190.000000   -22.298    91.305    19.157   -56.387   -24.570  -147.058   -25.617    21.769 
 2210.000000   -22.048    91.668    19.132   -58.397   -24.565  -148.442   -25.625    20.048 
 2225.000000   -22.121    91.131    19.115   -59.887   -24.554  -149.515   -25.781    20.308 
 2245.000000   -22.062    89.065    19.070   -61.780   -24.538  -150.949   -25.889    20.801 
 2260.000000   -21.866    88.668    19.051   -63.288   -24.547  -151.985   -25.903    20.471 
 2280.000000   -21.604    87.164    19.026   -65.148   -24.541  -153.317   -25.915    19.538 
 2295.000000   -21.664    85.015    18.998   -66.665   -24.522  -154.431   -25.991    19.939 
 2315.000000   -21.621    83.906    18.956   -68.593   -24.520  -155.900   -26.108    19.861 
 2330.000000   -21.277    82.592    18.921   -70.038   -24.523  -156.951   -26.035    18.660 
 2350.000000   -21.048    81.663    18.899   -72.007   -24.526  -158.343   -25.945    16.639 
 2365.000000   -21.085    80.536    18.854   -73.473   -24.510  -159.501   -26.033    16.385 
 2385.000000   -20.987    79.863    18.816   -75.466   -24.504  -161.046   -26.181    16.346 
 2400.000000   -20.754    78.205    18.769   -76.901   -24.505  -162.138   -26.207    14.958 
 2420.000000   -20.614    77.735    18.760   -78.835   -24.513  -163.481   -26.277    13.624 
 2435.000000   -20.754    76.517    18.721   -80.246   -24.509  -164.606   -26.552    13.967 
 2455.000000   -20.650    75.971    18.684   -82.193   -24.486  -166.019   -26.603    14.738 
 2470.000000   -20.388    74.588    18.672   -83.638   -24.492  -167.027   -26.520    14.615 
 2490.000000   -20.315    73.266    18.635   -85.581   -24.491  -168.444   -26.600    13.951 
 2505.000000   -20.131    72.088    18.616   -87.011   -24.480  -169.592   -26.738    14.976 
 2525.000000   -20.133    70.684    18.570   -88.987   -24.474  -170.982   -26.745    16.070 
 2540.000000   -19.953    69.314    18.547   -90.488   -24.469  -172.116   -26.662    14.494 
 2560.000000   -19.913    68.184    18.516   -92.402   -24.480  -173.603   -26.667    11.621 
 2575.000000   -19.929    66.839    18.466   -93.801   -24.491  -174.766   -26.878    11.343 
 2595.000000   -19.837    66.234    18.428   -95.684   -24.487  -176.135   -27.158    12.079 
 2610.000000   -19.700    65.495    18.396   -97.104   -24.492  -177.130   -27.215    11.718 
 2630.000000   -19.369    65.444    18.389   -98.950   -24.470  -178.526   -27.202    11.916 
 2645.000000   -19.350    63.149    18.357  -100.424   -24.457  -179.632   -27.266    13.474 
 2665.000000   -19.254    61.892    18.334  -102.325   -24.439   178.789   -27.205    14.160 
 2680.000000   -19.110    60.751    18.309  -103.815   -24.435   177.757   -27.104    13.471 
 2700.000000   -18.946    59.198    18.288  -105.769   -24.431   176.370   -27.080    12.646 
 2715.000000   -18.936    57.824    18.252  -107.160   -24.421   175.208   -27.043    13.783 
 2735.000000   -18.926    56.160    18.219  -109.133   -24.419   173.623   -27.002    13.765 
 2750.000000   -18.831    55.093    18.178  -110.611   -24.437   172.502   -27.279    11.465 
 2770.000000   -18.735    54.207    18.136  -112.468   -24.459   171.157   -27.521    10.842 
 2785.000000   -18.622    53.656    18.113  -113.796   -24.457   170.071   -27.640    11.724 
 2805.000000   -18.457    52.478    18.082  -115.646   -24.443   168.708   -27.551    13.846 
 2820.000000   -18.269    51.385    18.052  -117.093   -24.435   167.589   -27.480    12.846 
 2840.000000   -18.170    50.180    18.038  -119.022   -24.424   166.119   -27.434    12.256 
 2855.000000   -18.051    48.813    18.024  -120.495   -24.410   164.953   -27.371    14.252 
 2875.000000   -18.028    46.956    17.977  -122.422   -24.391   163.342   -27.276    14.425 
 2890.000000   -17.941    45.886    17.962  -123.855   -24.410   162.262   -27.383    13.519 
 2910.000000   -17.852    44.639    17.939  -125.712   -24.420   160.862   -27.427    13.375 
 2925.000000   -17.717    43.350    17.922  -127.184   -24.412   159.726   -27.323    14.615 
 2945.000000   -17.807    42.247    17.877  -129.117   -24.404   158.237   -27.165    15.669 
 2960.000000   -17.583    41.088    17.849  -130.493   -24.405   157.188   -27.301    14.240 
 2980.000000   -17.461    39.311    17.816  -132.465   -24.406   155.706   -27.328    13.325 
 2995.000000   -17.386    38.247    17.791  -133.909   -24.402   154.489   -27.323    13.614 
 3015.000000   -17.330    37.405    17.758  -135.852   -24.399   152.997   -27.427    13.438 
 3030.000000   -17.312    36.310    17.735  -137.214   -24.407   151.882   -27.415    15.450 
 3050.000000   -17.238    35.228    17.706  -139.009   -24.405   150.525   -27.146    16.648 
 3065.000000   -17.102    33.954    17.675  -140.475   -24.400   149.389   -27.260    15.857 
 3085.000000   -16.998    32.692    17.650  -142.387   -24.407   147.985   -27.260    15.350 
 3100.000000   -16.881    31.415    17.628  -143.810   -24.396   146.769   -27.147    16.105 
 3120.000000   -16.817    30.020    17.587  -145.677   -24.393   145.152   -27.037    16.339 
 3135.000000   -16.723    28.949    17.557  -147.070   -24.397   144.008   -27.174    15.173 
 3155.000000   -16.656    28.228    17.530  -148.872   -24.422   142.449   -27.301    15.692 
 3170.000000   -16.644    27.606    17.500  -150.245   -24.437   141.469   -27.043    18.681 
 3190.000000   -16.471    26.189    17.495  -152.055   -24.412   140.136   -26.565    20.433 
 3205.000000   -16.323    24.870    17.482  -153.483   -24.412   139.125   -26.375    20.007 
 3225.000000   -16.200    23.490    17.462  -155.454   -24.394   137.592   -26.241    18.458 
 3240.000000   -16.154    21.908    17.447  -156.924   -24.387   136.410   -26.043    18.483 
 3260.000000   -16.103    20.587    17.409  -158.771   -24.388   134.916   -25.869    18.517 
 3275.000000   -16.018    19.378    17.381  -160.216   -24.387   133.737   -25.985    17.554 
 3295.000000   -15.965    17.981    17.354  -162.112   -24.386   132.253   -25.928    17.197 
 3310.000000   -15.950    17.059    17.325  -163.497   -24.397   130.985   -25.880    17.654 
 3330.000000   -15.776    15.392    17.299  -165.355   -24.374   129.562   -25.624    17.586 
 3345.000000   -15.734    14.118    17.266  -166.831   -24.381   128.319   -25.772    16.595 
 3365.000000   -15.585    13.006    17.256  -168.599   -24.394   126.874   -25.644    16.640 
 3380.000000   -15.547    11.724    17.237  -170.086   -24.380   125.657   -25.410    16.567 
 3400.000000   -15.547    10.204    17.209  -171.923   -24.373   124.054   -25.240    16.414 
