! Mini-Circuits  
! S2P DATA File Format
! Type: MMIC Amplifier
! Model: GALI-39     Reference Data:RDF-1232
! Note: All S Parameters are in dB deg format
! TEST CONDITIONS: INPUT POWER = -25dBm, Icc = 42mA, Vd = 3.48V @Temperature = +85degC
! 401 Frequency points
!
# MHz S DB R 50
!    FREQ       dB(S11)   PHS(S11)  dB(S21)   PHS(S21)  dB(S12)   PHS(S12)  dB(S22)   PHS(S22) 
   50.000000   -27.477   171.839    23.526   173.175   -25.656    -3.874   -23.107   173.773 
   56.000000   -27.418   173.383    23.518   172.523   -25.670    -4.226   -23.061   173.472 
   62.000000   -27.474   173.783    23.532   171.778   -25.654    -4.505   -22.836   173.138 
   68.000000   -27.382   175.062    23.542   171.053   -25.673    -4.839   -22.922   172.726 
   74.000000   -26.404   172.002    23.537   170.378   -25.668    -5.229   -22.817   172.647 
   80.000000   -26.652   171.275    23.529   169.673   -25.682    -5.506   -22.832   172.029 
   86.000000   -27.284   169.533    23.513   168.989   -25.665    -5.893   -22.529   171.806 
   92.000000   -27.107   171.022    23.513   168.196   -25.678    -6.225   -22.457   171.315 
   98.000000   -26.244   172.262    23.492   167.361   -25.671    -6.596   -22.282   171.092 
  104.000000   -26.127   170.044    23.501   166.772   -25.692    -6.839   -22.333   170.736 
  110.000000   -25.834   168.073    23.499   166.076   -25.674    -7.215   -22.278   170.507 
  116.000000   -25.767   171.135    23.482   165.355   -25.688    -7.605   -22.227   170.315 
  122.000000   -25.992   170.157    23.470   164.670   -25.671    -7.935   -22.033   169.964 
  128.000000   -25.696   168.975    23.464   163.885   -25.691    -8.255   -21.890   169.483 
  134.000000   -25.583   168.863    23.463   163.213   -25.685    -8.721   -21.816   169.010 
  140.000000   -25.767   168.590    23.469   162.398   -25.697    -9.090   -21.793   168.683 
  146.000000   -25.524   167.990    23.470   161.744   -25.673    -9.494   -21.770   168.404 
  152.000000   -25.562   167.314    23.458   160.971   -25.683    -9.857   -21.686   167.881 
  160.000000   -25.742   167.102    23.451   160.023   -25.665   -10.282   -21.605   167.432 
  175.000000   -25.217   165.816    23.431   158.193   -25.673   -11.202   -21.466   166.572 
  190.000000   -25.037   163.718    23.405   156.491   -25.682   -12.109   -21.275   165.613 
  205.000000   -24.699   161.915    23.364   154.681   -25.671   -13.062   -21.097   164.825 
  220.000000   -25.202   162.602    23.388   152.806   -25.673   -13.921   -21.176   164.260 
  235.000000   -24.878   158.954    23.355   151.173   -25.673   -14.841   -21.218   163.807 
  250.000000   -25.046   157.594    23.339   149.251   -25.668   -15.797   -21.213   162.875 
  265.000000   -24.864   159.014    23.304   147.414   -25.657   -16.705   -21.133   161.938 
  280.000000   -25.335   158.486    23.293   145.660   -25.647   -17.637   -21.243   161.189 
  295.000000   -25.598   158.537    23.274   143.894   -25.644   -18.522   -21.366   160.080 
  310.000000   -25.701   156.834    23.269   142.111   -25.644   -19.436   -21.483   159.187 
  325.000000   -25.600   155.401    23.240   140.366   -25.632   -20.387   -21.440   158.070 
  340.000000   -26.078   155.184    23.212   138.603   -25.624   -21.372   -21.496   156.949 
  355.000000   -26.052   154.577    23.177   136.876   -25.612   -22.271   -21.517   155.858 
  370.000000   -26.322   155.634    23.162   135.043   -25.609   -23.204   -21.603   154.601 
  390.000000   -26.351   154.344    23.123   132.737   -25.604   -24.520   -21.561   153.125 
  405.000000   -26.239   151.068    23.097   131.110   -25.600   -25.438   -21.593   151.808 
  425.000000   -26.661   150.739    23.067   128.667   -25.595   -26.705   -21.616   149.887 
  440.000000   -26.799   149.943    23.040   126.942   -25.596   -27.609   -21.705   148.767 
  460.000000   -26.698   146.728    23.015   124.663   -25.594   -28.888   -21.750   146.980 
  475.000000   -26.500   146.695    22.981   122.942   -25.585   -29.881   -21.644   145.397 
  495.000000   -27.083   145.468    22.958   120.642   -25.561   -31.164   -21.694   143.765 
  510.000000   -27.090   144.158    22.932   118.946   -25.559   -32.097   -21.670   142.644 
  530.000000   -26.717   141.645    22.887   116.636   -25.557   -33.349   -21.683   140.647 
  545.000000   -26.856   141.673    22.862   114.928   -25.529   -34.340   -21.560   138.966 
  565.000000   -27.332   138.192    22.831   112.672   -25.532   -35.571   -21.557   137.310 
  580.000000   -27.210   138.739    22.786   110.915   -25.531   -36.581   -21.445   135.809 
  600.000000   -26.697   135.513    22.743   108.714   -25.514   -37.864   -21.309   133.703 
  615.000000   -26.800   136.086    22.723   106.976   -25.517   -38.874   -21.388   132.466 
  635.000000   -27.152   132.665    22.702   104.708   -25.508   -40.086   -21.350   130.927 
  650.000000   -26.932   130.423    22.662   103.082   -25.512   -41.058   -21.349   129.485 
  670.000000   -26.935   129.857    22.628   100.825   -25.484   -42.378   -21.292   127.777 
  685.000000   -27.043   128.997    22.596    99.167   -25.477   -43.336   -21.354   126.745 
  705.000000   -27.287   126.596    22.564    96.862   -25.473   -44.671   -21.323   125.280 
  720.000000   -27.176   123.945    22.525    95.309   -25.460   -45.656   -21.118   123.241 
  740.000000   -27.111   123.939    22.495    93.014   -25.438   -46.978   -21.138   121.509 
  755.000000   -26.844   122.191    22.461    91.393   -25.464   -47.865   -21.131   119.994 
  775.000000   -27.112   121.025    22.415    89.140   -25.440   -49.179   -21.142   118.302 
  790.000000   -27.514   119.181    22.388    87.521   -25.431   -50.222   -21.127   116.918 
  810.000000   -27.334   116.757    22.357    85.246   -25.437   -51.428   -21.264   114.779 
  825.000000   -27.693   118.019    22.326    83.586   -25.415   -52.425   -21.187   113.383 
  845.000000   -27.734   114.737    22.277    81.481   -25.400   -53.803   -21.116   111.590 
  860.000000   -27.924   114.028    22.245    79.795   -25.394   -54.750   -21.166   110.428 
  880.000000   -27.980   115.629    22.201    77.569   -25.392   -56.066   -21.157   108.326 
  895.000000   -28.183   113.353    22.164    76.005   -25.389   -57.032   -21.168   106.788 
  915.000000   -28.132   110.616    22.111    73.861   -25.374   -58.349   -21.119   104.784 
  930.000000   -28.372   108.613    22.093    72.225   -25.373   -59.340   -21.204   103.784 
  950.000000   -28.289   107.408    22.060    69.983   -25.375   -60.587   -21.256   101.900 
  965.000000   -27.915   106.990    22.031    68.398   -25.372   -61.625   -21.160   100.045 
  985.000000   -28.145   104.572    21.982    66.263   -25.347   -62.940   -21.234    98.404 
 1000.000000   -28.405   105.348    21.950    64.603   -25.331   -63.988   -21.228    97.148 
 1020.000000   -28.421   104.729    21.915    62.449   -25.334   -65.246   -21.358    95.508 
 1035.000000   -28.735   102.891    21.886    60.826   -25.321   -66.265   -21.290    93.832 
 1055.000000   -28.663   101.188    21.830    58.713   -25.305   -67.620   -21.185    91.946 
 1070.000000   -28.712   101.529    21.806    57.085   -25.298   -68.638   -21.219    90.277 
 1090.000000   -28.719   103.056    21.770    54.957   -25.295   -69.908   -21.181    88.717 
 1105.000000   -28.860   101.905    21.728    53.298   -25.292   -70.948   -21.133    87.084 
 1125.000000   -28.939    98.220    21.687    51.220   -25.287   -72.266   -21.091    84.877 
 1140.000000   -28.853    96.801    21.652    49.614   -25.290   -73.240   -21.180    83.796 
 1160.000000   -28.745    97.513    21.621    47.473   -25.284   -74.482   -21.272    81.989 
 1175.000000   -29.043    96.470    21.576    45.914   -25.280   -75.472   -21.276    80.302 
 1195.000000   -29.149    93.757    21.537    43.784   -25.254   -76.868   -21.271    78.494 
 1210.000000   -28.969    93.782    21.505    42.195   -25.250   -77.871   -21.300    77.208 
 1230.000000   -29.177    96.443    21.470    40.092   -25.241   -79.192   -21.400    75.866 
 1245.000000   -29.332    95.561    21.433    38.514   -25.225   -80.213   -21.291    74.354 
 1265.000000   -29.398    93.728    21.384    36.395   -25.213   -81.570   -21.264    72.287 
 1280.000000   -29.159    93.297    21.351    34.859   -25.211   -82.601   -21.318    71.182 
 1300.000000   -29.129    95.901    21.311    32.762   -25.211   -83.880   -21.299    68.918 
 1315.000000   -29.419    94.682    21.267    31.221   -25.197   -84.862   -21.297    67.562 
 1335.000000   -29.374    90.953    21.224    29.158   -25.180   -86.232   -21.210    65.715 
 1350.000000   -29.286    91.439    21.195    27.538   -25.177   -87.245   -21.303    64.629 
 1370.000000   -29.108    92.561    21.164    25.525   -25.178   -88.612   -21.351    63.260 
 1385.000000   -29.181    91.739    21.133    23.923   -25.172   -89.637   -21.322    61.629 
 1405.000000   -29.229    89.115    21.076    21.808   -25.152   -91.024   -21.330    59.984 
 1420.000000   -29.000    88.987    21.057    20.304   -25.154   -92.035   -21.324    58.613 
 1440.000000   -29.077    92.046    21.018    18.177   -25.147   -93.383   -21.379    56.879 
 1455.000000   -29.262    90.837    20.969    16.637   -25.134   -94.427   -21.319    55.377 
 1475.000000   -29.069    87.157    20.927    14.622   -25.125   -95.796   -21.314    53.449 
 1490.000000   -28.876    88.717    20.896    13.077   -25.123   -96.840   -21.322    52.401 
 1510.000000   -28.678    87.294    20.859    10.982   -25.125   -98.179   -21.360    50.324 
 1525.000000   -29.017    85.577    20.828     9.358   -25.126   -99.144   -21.407    48.941 
 1545.000000   -29.131    85.162    20.788     7.373   -25.122  -100.402   -21.422    47.052 
 1560.000000   -28.993    85.452    20.739     5.918   -25.102  -101.436   -21.433    45.718 
 1580.000000   -28.854    88.816    20.699     3.875   -25.081  -102.811   -21.490    44.292 
 1595.000000   -29.050    87.776    20.668     2.314   -25.085  -103.815   -21.559    43.150 
 1615.000000   -28.934    87.479    20.619     0.304   -25.079  -105.170   -21.498    41.349 
 1630.000000   -28.855    85.958    20.581    -1.238   -25.074  -106.177   -21.488    40.180 
 1650.000000   -28.558    85.335    20.539    -3.272   -25.076  -107.551   -21.571    38.551 
 1665.000000   -28.946    85.258    20.503    -4.741   -25.074  -108.481   -21.666    37.636 
 1685.000000   -28.769    84.232    20.461    -6.778   -25.060  -109.782   -21.711    36.116 
 1700.000000   -28.602    84.357    20.433    -8.260   -25.041  -110.876   -21.723    34.839 
 1720.000000   -28.369    87.231    20.400   -10.272   -25.017  -112.291   -21.803    33.608 
 1735.000000   -28.429    86.137    20.371   -11.778   -25.017  -113.293   -21.809    32.680 
 1755.000000   -28.228    85.202    20.331   -13.802   -25.004  -114.665   -21.808    31.201 
 1770.000000   -28.132    84.821    20.293   -15.342   -24.995  -115.746   -21.776    30.158 
 1790.000000   -27.910    85.876    20.249   -17.342   -24.990  -117.190   -21.781    28.454 
 1805.000000   -28.046    85.594    20.210   -18.806   -24.988  -118.101   -21.878    27.568 
 1825.000000   -28.004    84.569    20.177   -20.788   -24.981  -119.479   -21.882    25.820 
 1840.000000   -27.660    84.417    20.134   -22.285   -24.979  -120.496   -21.916    24.676 
 1860.000000   -27.598    85.550    20.091   -24.241   -24.961  -121.930   -21.978    23.604 
 1875.000000   -27.597    85.115    20.060   -25.749   -24.960  -122.910   -22.041    23.024 
 1895.000000   -27.574    83.251    20.040   -27.724   -24.961  -124.276   -22.001    21.714 
 1910.000000   -27.212    81.369    20.005   -29.256   -24.939  -125.355   -22.021    20.123 
 1930.000000   -27.183    83.131    19.953   -31.249   -24.922  -126.798   -22.156    19.421 
 1945.000000   -26.927    82.852    19.934   -32.780   -24.916  -127.865   -22.214    18.523 
 1965.000000   -26.894    81.822    19.907   -34.755   -24.910  -129.210   -22.176    16.635 
 1980.000000   -26.685    80.994    19.866   -36.230   -24.901  -130.308   -22.146    15.486 
 2000.000000   -26.449    82.509    19.822   -38.276   -24.882  -131.779   -22.200    14.335 
 2015.000000   -26.485    81.171    19.794   -39.714   -24.890  -132.747   -22.243    13.574 
 2035.000000   -26.530    80.793    19.745   -41.688   -24.888  -134.145   -22.239    11.676 
 2050.000000   -26.348    79.423    19.717   -43.169   -24.884  -135.183   -22.260    10.359 
 2070.000000   -26.034    78.895    19.670   -45.171   -24.880  -136.647   -22.355     9.032 
 2085.000000   -26.211    78.215    19.643   -46.664   -24.890  -137.624   -22.529     7.841 
 2105.000000   -26.299    77.729    19.606   -48.558   -24.879  -138.902   -22.668     6.995 
 2120.000000   -26.092    77.558    19.566   -49.994   -24.862  -139.949   -22.680     6.336 
 2140.000000   -25.908    77.609    19.532   -52.019   -24.850  -141.379   -22.783     5.993 
 2155.000000   -25.767    76.809    19.509   -53.505   -24.842  -142.477   -22.854     5.002 
 2175.000000   -25.454    75.322    19.467   -55.452   -24.843  -143.889   -22.883     3.285 
 2190.000000   -25.419    74.849    19.426   -56.907   -24.831  -144.996   -22.978     1.955 
 2210.000000   -25.216    76.742    19.386   -58.829   -24.826  -146.391   -23.071     0.738 
 2225.000000   -25.258    77.358    19.368   -60.290   -24.820  -147.325   -23.237     0.195 
 2245.000000   -25.028    76.156    19.322   -62.234   -24.815  -148.705   -23.253    -1.063 
 2260.000000   -24.862    76.004    19.298   -63.678   -24.806  -149.777   -23.321    -1.663 
 2280.000000   -24.575    75.034    19.262   -65.497   -24.791  -151.238   -23.461    -2.187 
 2295.000000   -24.601    72.663    19.232   -67.100   -24.784  -152.254   -23.559    -2.571 
 2315.000000   -24.424    72.875    19.210   -68.986   -24.778  -153.645   -23.647    -3.759 
 2330.000000   -24.135    71.297    19.178   -70.464   -24.762  -154.771   -23.663    -4.556 
 2350.000000   -23.926    71.012    19.135   -72.445   -24.751  -156.306   -23.750    -5.201 
 2365.000000   -23.888    70.157    19.111   -73.902   -24.749  -157.381   -23.847    -5.967 
 2385.000000   -23.846    69.996    19.074   -75.874   -24.749  -158.815   -23.939    -7.505 
 2400.000000   -23.594    68.467    19.032   -77.352   -24.746  -159.909   -24.019    -8.583 
 2420.000000   -23.386    68.802    19.006   -79.248   -24.744  -161.395   -24.187    -9.553 
 2435.000000   -23.424    68.505    18.961   -80.660   -24.742  -162.342   -24.432   -10.410 
 2455.000000   -23.270    68.578    18.925   -82.578   -24.732  -163.643   -24.455   -11.497 
 2470.000000   -23.044    66.992    18.908   -84.032   -24.724  -164.757   -24.469   -11.694 
 2490.000000   -22.944    65.982    18.865   -85.929   -24.718  -166.229   -24.683   -12.032 
 2505.000000   -22.637    65.384    18.846   -87.356   -24.709  -167.272   -24.865   -12.288 
 2525.000000   -22.638    64.260    18.817   -89.343   -24.701  -168.663   -24.953   -12.541 
 2540.000000   -22.537    62.578    18.792   -90.797   -24.679  -169.874   -24.953   -13.332 
 2560.000000   -22.536    61.733    18.754   -92.746   -24.690  -171.470   -25.042   -14.455 
 2575.000000   -22.498    60.610    18.717   -94.174   -24.705  -172.467   -25.257   -15.503 
 2595.000000   -22.400    60.779    18.677   -96.041   -24.711  -173.803   -25.524   -16.914 
 2610.000000   -22.205    60.197    18.648   -97.484   -24.697  -174.811   -25.683   -17.035 
 2630.000000   -21.877    60.916    18.627   -99.268   -24.675  -176.288   -25.888   -16.530 
 2645.000000   -21.639    58.723    18.595  -100.762   -24.670  -177.299   -26.063   -16.239 
 2665.000000   -21.508    58.014    18.567  -102.660   -24.652  -178.740   -26.068   -17.422 
 2680.000000   -21.424    56.506    18.541  -104.117   -24.646  -179.874   -26.034   -17.957 
 2700.000000   -21.207    55.482    18.512  -106.059   -24.634   178.615   -26.159   -17.739 
 2715.000000   -21.159    54.292    18.481  -107.484   -24.630   177.525   -26.267   -17.531 
 2735.000000   -21.131    52.518    18.455  -109.456   -24.625   176.020   -26.300   -18.480 
 2750.000000   -21.058    51.400    18.415  -110.900   -24.638   174.828   -26.508   -20.661 
 2770.000000   -20.985    51.110    18.364  -112.740   -24.641   173.342   -26.906   -20.533 
 2785.000000   -20.831    51.017    18.357  -114.129   -24.644   172.384   -27.148   -20.358 
 2805.000000   -20.625    49.710    18.332  -115.988   -24.639   171.084   -27.328   -19.731 
 2820.000000   -20.403    48.919    18.302  -117.426   -24.627   169.957   -27.338   -19.703 
 2840.000000   -20.304    48.104    18.270  -119.306   -24.600   168.468   -27.448   -19.413 
 2855.000000   -19.999    46.718    18.258  -120.780   -24.602   167.384   -27.622   -18.431 
 2875.000000   -19.949    45.111    18.209  -122.724   -24.595   165.895   -27.638   -19.986 
 2890.000000   -19.964    43.875    18.185  -124.079   -24.596   164.660   -27.789   -21.158 
 2910.000000   -19.800    43.015    18.152  -125.972   -24.598   163.244   -27.998   -20.155 
 2925.000000   -19.625    41.881    18.136  -127.458   -24.597   162.156   -28.090   -19.436 
 2945.000000   -19.712    41.013    18.106  -129.388   -24.584   160.743   -28.172   -18.757 
 2960.000000   -19.500    39.758    18.075  -130.731   -24.576   159.579   -28.322   -19.645 
 2980.000000   -19.378    38.024    18.043  -132.695   -24.571   157.956   -28.457   -18.590 
 2995.000000   -19.215    37.029    18.024  -134.152   -24.571   156.889   -28.585   -18.114 
 3015.000000   -19.222    36.483    17.974  -136.049   -24.575   155.385   -28.835   -19.690 
 3030.000000   -19.094    35.582    17.941  -137.426   -24.585   154.359   -29.137   -18.504 
 3050.000000   -18.983    34.682    17.929  -139.227   -24.582   153.025   -29.148   -16.838 
 3065.000000   -18.842    33.775    17.906  -140.714   -24.565   151.823   -29.323   -16.443 
 3085.000000   -18.850    32.218    17.872  -142.644   -24.564   150.289   -29.410   -15.188 
 3100.000000   -18.648    31.278    17.858  -144.024   -24.560   149.192   -29.465   -13.437 
 3120.000000   -18.498    29.886    17.834  -145.929   -24.560   147.634   -29.593   -14.151 
 3135.000000   -18.462    29.091    17.804  -147.314   -24.560   146.451   -29.762   -14.649 
 3155.000000   -18.427    28.528    17.758  -149.111   -24.582   144.882   -30.084   -12.919 
 3170.000000   -18.350    28.007    17.726  -150.485   -24.598   143.977   -30.244    -8.918 
 3190.000000   -17.996    26.667    17.720  -152.287   -24.580   142.721   -30.048    -5.543 
 3205.000000   -17.902    25.608    17.700  -153.733   -24.564   141.600   -29.917    -5.254 
 3225.000000   -17.797    24.183    17.675  -155.642   -24.542   140.082   -29.618    -4.790 
 3240.000000   -17.722    22.596    17.655  -157.129   -24.542   138.919   -29.511    -4.385 
 3260.000000   -17.573    21.258    17.631  -158.955   -24.542   137.442   -29.476    -3.595 
 3275.000000   -17.545    20.109    17.604  -160.420   -24.529   136.251   -29.536    -3.588 
 3295.000000   -17.538    18.859    17.574  -162.297   -24.529   134.638   -29.447    -2.047 
 3310.000000   -17.464    17.966    17.554  -163.675   -24.535   133.509   -29.442    -0.296 
 3330.000000   -17.206    16.412    17.534  -165.555   -24.522   132.065   -29.326     0.189 
 3345.000000   -17.219    15.168    17.506  -167.029   -24.524   130.801   -29.455    -0.192 
 3365.000000   -17.119    14.318    17.481  -168.783   -24.524   129.323   -29.241     1.800 
 3380.000000   -16.982    12.976    17.459  -170.274   -24.524   128.240   -29.102     2.086 
 3400.000000   -16.889    11.509    17.423  -172.092   -24.520   126.715   -29.091     2.351 
