!Mini-Circuits Laboratory
!S-Parameters
!Model:TCBT-14+
!Run/Lot/Date Code:MHU6270/NA/NA
!Fixture/SN/Due:90-4-20-188/73355/01-16-11 
!Connection:PORT<1> - pin<2>, PORT<2> - pin<1>, PORT<3> - pin<3>; 
!Unit S/N 2
!Agilent Technologies,N5230A,MY45001447,A.07.50.63
!Agilent N5230A: A.07.50.63
!Date: Friday, November 26, 2010 16:44:24
!Correction: S11(Full 3 Port(1,2,3)) 
!S12(Full 3 Port(1,2,3)) 
!S13(Full 3 Port(1,2,3)) 
!S21(Full 3 Port(1,2,3)) 
!S22(Full 3 Port(1,2,3)) 
!S23(Full 3 Port(1,2,3)) 
!S31(Full 3 Port(1,2,3)) 
!S32(Full 3 Port(1,2,3)) 
!S33(Full 3 Port(1,2,3)) 
!S3P File: Measurements: <S11,S12,S13>,
!<S21,S22,S23>,
!<S31,S32,S33>:
# Hz S  dB   R 50
300000 -1.011690e-001 -1.086608e+001 -2.166805e+001 6.385817e+001 -2.157935e+001 5.700363e+001
-2.165211e+001 6.326277e+001 -8.913702e+000 -1.196826e+002 -1.078787e+000 -2.844638e+001
-2.157184e+001 5.671782e+001 -1.112900e+000 -2.813904e+001 -7.986269e+000 -1.134656e+002
400000 -1.451947e-001 -1.425529e+001 -2.009316e+001 5.660344e+001 -1.967223e+001 4.738747e+001
-2.009496e+001 5.624780e+001 -6.979243e+000 -1.295097e+002 -1.657514e+000 -3.601222e+001
-1.966508e+001 4.726704e+001 -1.682208e+000 -3.576918e+001 -6.063299e+000 -1.207771e+002
500000 -1.803068e-001 -1.761128e+001 -1.926366e+001 5.088996e+001 -1.836795e+001 3.875406e+001
-1.925550e+001 5.053408e+001 -5.684591e+000 -1.382148e+002 -2.261121e+000 -4.280092e+001
-1.835841e+001 3.865764e+001 -2.282419e+000 -4.258278e+001 -4.774496e+000 -1.268676e+002
600000 -2.107877e-001 -2.092342e+001 -1.890400e+001 4.662626e+001 -1.744183e+001 3.095416e+001
-1.892265e+001 4.634866e+001 -4.783472e+000 -1.458642e+002 -2.884721e+000 -4.874829e+001
-1.743625e+001 3.087651e+001 -2.898574e+000 -4.856938e+001 -3.880278e+000 -1.320195e+002
700000 -2.341975e-001 -2.424323e+001 -1.894008e+001 4.389367e+001 -1.676613e+001 2.384906e+001
-1.894927e+001 4.358318e+001 -4.124475e+000 -1.527456e+002 -3.506466e+000 -5.404521e+001
-1.676820e+001 2.375221e+001 -3.516838e+000 -5.391814e+001 -3.222342e+000 -1.363992e+002
800000 -2.545770e-001 -2.760015e+001 -1.927307e+001 4.301268e+001 -1.627311e+001 1.735413e+001
-1.929001e+001 4.270800e+001 -3.629875e+000 -1.590588e+002 -4.106811e+000 -5.881235e+001
-1.626926e+001 1.723836e+001 -4.109592e+000 -5.870444e+001 -2.739597e+000 -1.401032e+002
900000 -2.736999e-001 -3.101701e+001 -1.983007e+001 4.443658e+001 -1.588859e+001 1.127410e+001
-1.985153e+001 4.410192e+001 -3.255726e+000 -1.648070e+002 -4.677864e+000 -6.315604e+001
-1.588554e+001 1.117825e+001 -4.681722e+000 -6.302591e+001 -2.367689e+000 -1.432661e+002
1000000 -2.910886e-001 -3.446655e+001 -2.050470e+001 4.879966e+001 -1.559381e+001 5.577629e+000
-2.054864e+001 4.847426e+001 -2.971543e+000 -1.701981e+002 -5.227030e+000 -6.713213e+001
-1.559593e+001 5.496073e+000 -5.224557e+000 -6.705302e+001 -2.077697e+000 -1.459464e+002
2000000 -9.455217e-001 -7.231680e+001 -1.061326e+001 1.070316e+002 -1.507618e+001 -4.222812e+001
-1.062164e+001 1.071116e+002 -2.452888e+000 1.460837e+002 -9.678705e+000 -9.994365e+001
-1.508814e+001 -4.216862e+001 -9.688745e+000 -9.990721e+001 -8.658549e-001 -1.597788e+002
3000000 -3.343354e+000 -1.091165e+002 -3.852428e+000 8.199717e+001 -1.733486e+001 -8.008479e+001
-3.845618e+000 8.207906e+001 -4.560558e+000 1.125666e+002 -1.410532e+001 -1.266028e+002
-1.733049e+001 -7.997690e+001 -1.410291e+001 -1.264828e+002 -4.167589e-001 -1.654722e+002
4000000 -6.694910e+000 -1.356009e+002 -1.676967e+000 6.081284e+001 -2.077074e+001 -1.049770e+002
-1.661633e+000 6.083877e+001 -7.773170e+000 9.188340e+001 -1.866871e+001 -1.433384e+002
-2.075856e+001 -1.048882e+002 -1.865655e+001 -1.432298e+002 -2.243149e-001 -1.691036e+002
5000000 -9.863901e+000 -1.533096e+002 -9.097074e-001 4.732567e+001 -2.413247e+001 -1.198764e+002
-9.009419e-001 4.733070e+001 -1.085394e+001 8.076373e+001 -2.267321e+001 -1.523941e+002
-2.413003e+001 -1.198845e+002 -2.266055e+001 -1.523375e+002 -1.475184e-001 -1.714093e+002
6000000 -1.258987e+001 -1.656072e+002 -5.945566e-001 3.857651e+001 -2.710423e+001 -1.293273e+002
-5.848551e-001 3.857774e+001 -1.348159e+001 7.483006e+001 -2.603884e+001 -1.573698e+002
-2.710312e+001 -1.292880e+002 -2.601910e+001 -1.572837e+002 -1.167622e-001 -1.729708e+002
7000000 -1.489697e+001 -1.748540e+002 -4.412923e-001 3.253494e+001 -2.969301e+001 -1.355780e+002
-4.303844e-001 3.254335e+001 -1.568306e+001 7.184654e+001 -2.888476e+001 -1.602637e+002
-2.969142e+001 -1.355742e+002 -2.886047e+001 -1.601484e+002 -9.467006e-002 -1.740823e+002
8000000 -1.684062e+001 1.777769e+002 -3.599013e-001 2.814229e+001 -3.196499e+001 -1.399018e+002
-3.504286e-001 2.815813e+001 -1.755873e+001 7.047614e+001 -3.133224e+001 -1.619382e+002
-3.195967e+001 -1.398348e+002 -3.131377e+001 -1.618925e+002 -9.089118e-002 -1.749290e+002
9000000 -1.848475e+001 1.716824e+002 -3.125902e-001 2.481414e+001 -3.397296e+001 -1.430285e+002
-3.026153e-001 2.481537e+001 -1.915143e+001 6.979871e+001 -3.346732e+001 -1.629231e+002
-3.397259e+001 -1.430481e+002 -3.344576e+001 -1.629588e+002 -8.604246e-002 -1.755692e+002
10000000 -1.991346e+001 1.665703e+002 -2.807912e-001 2.221748e+001 -3.578891e+001 -1.450461e+002
-2.709784e-001 2.219298e+001 -2.048997e+001 6.936596e+001 -3.534201e+001 -1.635499e+002
-3.578845e+001 -1.454666e+002 -3.531259e+001 -1.637868e+002 -8.001010e-002 -1.760632e+002
20000000 -2.776548e+001 1.390634e+002 -1.899117e-001 1.086750e+001 -4.752399e+001 -1.514591e+002
-1.810143e-001 1.085684e+001 -2.783402e+001 7.360062e+001 -4.750851e+001 -1.632943e+002
-4.755093e+001 -1.514258e+002 -4.747045e+001 -1.632514e+002 -6.146472e-002 -1.785753e+002
30000000 -3.119068e+001 1.274104e+002 -1.690452e-001 7.151083e+000 -5.428515e+001 -1.488502e+002
-1.604441e-001 7.148582e+000 -3.081063e+001 7.457816e+001 -5.463457e+001 -1.616176e+002
-5.433325e+001 -1.485280e+002 -5.456916e+001 -1.611977e+002 -5.906681e-002 -1.796315e+002
40000000 -3.317160e+001 1.204785e+002 -1.602019e-001 5.233054e+000 -5.891485e+001 -1.434592e+002
-1.517455e-001 5.245399e+000 -3.252479e+001 7.471854e+001 -5.971793e+001 -1.606851e+002
-5.901956e+001 -1.430876e+002 -5.975933e+001 -1.604868e+002 -5.425937e-002 1.796444e+002
50000000 -3.438105e+001 1.147729e+002 -1.552256e-001 4.077642e+000 -6.226815e+001 -1.343394e+002
-1.480877e-001 4.075450e+000 -3.352315e+001 7.378472e+001 -6.447495e+001 -1.601778e+002
-6.230426e+001 -1.354033e+002 -6.424866e+001 -1.618070e+002 -4.949724e-002 1.791014e+002
60000000 -3.532653e+001 1.101316e+002 -1.501398e-001 3.263567e+000 -6.460355e+001 -1.274468e+002
-1.417494e-001 3.267077e+000 -3.412679e+001 7.251473e+001 -6.776871e+001 -1.667664e+002
-6.467966e+001 -1.260574e+002 -6.851774e+001 -1.685939e+002 -4.645727e-002 1.786033e+002
70000000 -3.600142e+001 1.065005e+002 -1.473564e-001 2.666327e+000 -6.556270e+001 -1.184274e+002
-1.433339e-001 2.680579e+000 -3.466461e+001 7.186927e+001 -7.231437e+001 -1.744230e+002
-6.610423e+001 -1.178514e+002 -7.249374e+001 -1.767838e+002 -4.422572e-002 1.781529e+002
80000000 -3.647423e+001 1.036488e+002 -1.468082e-001 2.222947e+000 -6.741438e+001 -1.103757e+002
-1.409691e-001 2.206308e+000 -3.490511e+001 7.036642e+001 -7.376864e+001 1.576967e+002
-6.689502e+001 -1.120689e+002 -7.603696e+001 1.585047e+002 -4.359189e-002 1.777334e+002
90000000 -3.689048e+001 1.015498e+002 -1.464029e-001 1.841158e+000 -6.780954e+001 -1.039266e+002
-1.397873e-001 1.827720e+000 -3.510738e+001 6.912626e+001 -7.519803e+001 1.331594e+002
-6.736578e+001 -1.051998e+002 -7.602625e+001 1.393164e+002 -4.299052e-002 1.773451e+002
100000000 -3.720936e+001 1.001763e+002 -1.457268e-001 1.517049e+000 -6.755741e+001 -9.982605e+001
-1.378998e-001 1.519699e+000 -3.521696e+001 6.804445e+001 -7.495061e+001 1.120410e+002
-6.747752e+001 -9.748341e+001 -7.498917e+001 1.034824e+002 -4.322483e-002 1.769626e+002
120000000 -3.711399e+001 9.850438e+001 -1.442681e-001 9.927043e-001 -6.785793e+001 -9.502455e+001
-1.364809e-001 1.024038e+000 -3.481643e+001 6.600587e+001 -7.242908e+001 8.623558e+001
-6.758093e+001 -9.446638e+001 -7.202098e+001 9.257925e+001 -3.837958e-002 1.762336e+002
140000000 -3.762642e+001 9.252631e+001 -1.433069e-001 6.256125e-001 -6.696481e+001 -9.137009e+001
-1.388740e-001 6.262200e-001 -3.510096e+001 5.879270e+001 -6.927538e+001 8.161172e+001
-6.676113e+001 -9.211589e+001 -6.982862e+001 8.215644e+001 -3.866170e-002 1.755369e+002
160000000 -3.779914e+001 8.918099e+001 -1.478584e-001 2.908087e-001 -6.630209e+001 -9.198196e+001
-1.386390e-001 2.797906e-001 -3.500837e+001 5.357748e+001 -6.723267e+001 8.536769e+001
-6.627988e+001 -8.790401e+001 -6.786603e+001 8.021688e+001 -4.266582e-002 1.747993e+002
180000000 -3.681110e+001 9.619208e+001 -1.482046e-001 -2.138318e-003 -6.573657e+001 -9.206225e+001
-1.397503e-001 1.398999e-002 -3.414516e+001 6.069552e+001 -6.639277e+001 8.432579e+001
-6.565945e+001 -9.276698e+001 -6.634268e+001 8.033529e+001 -4.147148e-002 1.741148e+002
200000000 -3.652536e+001 9.428917e+001 -1.487387e-001 -2.466901e-001 -6.529907e+001 -9.306071e+001
-1.401957e-001 -2.466430e-001 -3.393630e+001 6.223555e+001 -6.492513e+001 8.235300e+001
-6.546173e+001 -9.378985e+001 -6.486741e+001 8.392222e+001 -4.039028e-002 1.734198e+002
220000000 -3.633374e+001 8.865644e+001 -1.508513e-001 -4.773086e-001 -6.486488e+001 -9.396868e+001
-1.434278e-001 -4.716187e-001 -3.359759e+001 6.073853e+001 -6.411330e+001 8.200138e+001
-6.487234e+001 -9.457567e+001 -6.434793e+001 8.251068e+001 -4.338975e-002 1.727334e+002
240000000 -3.594795e+001 8.675207e+001 -1.520153e-001 -6.903428e-001 -6.427898e+001 -9.427077e+001
-1.447186e-001 -6.690475e-001 -3.327213e+001 6.170077e+001 -6.348756e+001 8.311464e+001
-6.422283e+001 -9.649770e+001 -6.335477e+001 8.497372e+001 -4.541876e-002 1.720855e+002
260000000 -3.540485e+001 8.706437e+001 -1.533934e-001 -8.901157e-001 -6.388731e+001 -9.969579e+001
-1.462402e-001 -8.598512e-001 -3.295471e+001 6.349336e+001 -6.271038e+001 8.373611e+001
-6.381812e+001 -9.715231e+001 -6.254384e+001 8.348173e+001 -4.455522e-002 1.714433e+002
280000000 -3.490975e+001 8.622844e+001 -1.555110e-001 -1.055812e+000 -6.321293e+001 -9.971507e+001
-1.469468e-001 -1.045200e+000 -3.270927e+001 6.484995e+001 -6.183325e+001 8.437114e+001
-6.319029e+001 -9.753950e+001 -6.182716e+001 8.545720e+001 -4.501294e-002 1.707669e+002
300000000 -3.455211e+001 8.521146e+001 -1.556462e-001 -1.232145e+000 -6.283826e+001 -1.004911e+002
-1.483237e-001 -1.217071e+000 -3.242552e+001 6.491086e+001 -6.117065e+001 8.632048e+001
-6.263747e+001 -1.023267e+002 -6.114965e+001 8.586592e+001 -4.455628e-002 1.700976e+002
320000000 -3.438426e+001 8.425383e+001 -1.573173e-001 -1.391004e+000 -6.240540e+001 -1.029055e+002
-1.499690e-001 -1.394815e+000 -3.230727e+001 6.512086e+001 -6.037831e+001 8.740871e+001
-6.260064e+001 -1.039009e+002 -6.049550e+001 8.709708e+001 -4.342431e-002 1.694617e+002
340000000 -3.417971e+001 8.274229e+001 -1.582674e-001 -1.549777e+000 -6.198809e+001 -1.047803e+002
-1.502670e-001 -1.549341e+000 -3.218571e+001 6.533875e+001 -6.009351e+001 8.703710e+001
-6.189086e+001 -1.058781e+002 -5.991796e+001 8.706976e+001 -4.284296e-002 1.688115e+002
360000000 -3.382286e+001 8.150568e+001 -1.598182e-001 -1.713816e+000 -6.170042e+001 -1.041786e+002
-1.503184e-001 -1.706313e+000 -3.193105e+001 6.511041e+001 -5.944376e+001 8.666035e+001
-6.142357e+001 -1.078719e+002 -5.914055e+001 8.791968e+001 -4.394674e-002 1.681635e+002
380000000 -3.348186e+001 8.163730e+001 -1.618794e-001 -1.872761e+000 -6.088162e+001 -1.087863e+002
-1.529372e-001 -1.860703e+000 -3.166141e+001 6.461405e+001 -5.897391e+001 8.893211e+001
-6.097750e+001 -1.082352e+002 -5.886014e+001 8.810159e+001 -4.362618e-002 1.675318e+002
400000000 -3.311387e+001 8.258199e+001 -1.641849e-001 -2.024441e+000 -6.046707e+001 -1.110356e+002
-1.550661e-001 -2.009800e+000 -3.140928e+001 6.444523e+001 -5.840040e+001 8.822249e+001
-6.067558e+001 -1.112851e+002 -5.854235e+001 8.806728e+001 -4.341053e-002 1.668819e+002
420000000 -3.292859e+001 8.338103e+001 -1.663915e-001 -2.159359e+000 -6.023543e+001 -1.106907e+002
-1.567742e-001 -2.149930e+000 -3.118977e+001 6.456684e+001 -5.776596e+001 8.990847e+001
-6.020729e+001 -1.105652e+002 -5.788300e+001 8.915826e+001 -4.370604e-002 1.662142e+002
440000000 -3.282843e+001 8.415781e+001 -1.672594e-001 -2.291312e+000 -5.988108e+001 -1.131410e+002
-1.580812e-001 -2.280796e+000 -3.106335e+001 6.312316e+001 -5.732893e+001 8.963910e+001
-5.973623e+001 -1.123290e+002 -5.743643e+001 8.986832e+001 -4.183175e-002 1.655668e+002
460000000 -3.280132e+001 8.538771e+001 -1.683426e-001 -2.438101e+000 -5.960179e+001 -1.139393e+002
-1.597600e-001 -2.425627e+000 -3.101307e+001 6.190471e+001 -5.700351e+001 9.006876e+001
-5.948694e+001 -1.137055e+002 -5.704358e+001 8.984334e+001 -4.177240e-002 1.649350e+002
480000000 -3.247339e+001 8.494467e+001 -1.723845e-001 -2.577851e+000 -5.880486e+001 -1.163895e+002
-1.645551e-001 -2.574464e+000 -3.079263e+001 6.100253e+001 -5.650388e+001 9.040231e+001
-5.877743e+001 -1.162460e+002 -5.670243e+001 9.132292e+001 -4.198638e-002 1.643027e+002
500000000 -3.210378e+001 8.446411e+001 -1.763648e-001 -2.725523e+000 -5.865637e+001 -1.173411e+002
-1.678526e-001 -2.709506e+000 -3.056178e+001 5.969773e+001 -5.618633e+001 9.070272e+001
-5.877625e+001 -1.179631e+002 -5.616185e+001 9.114533e+001 -4.025348e-002 1.636566e+002
520000000 -3.187029e+001 8.419722e+001 -1.790197e-001 -2.859576e+000 -5.828512e+001 -1.182687e+002
-1.728429e-001 -2.834893e+000 -3.031937e+001 5.860862e+001 -5.582683e+001 9.149110e+001
-5.806388e+001 -1.193071e+002 -5.579465e+001 9.105824e+001 -3.782595e-002 1.630314e+002
540000000 -3.179814e+001 8.356153e+001 -1.862411e-001 -2.954708e+000 -5.793687e+001 -1.224884e+002
-1.787539e-001 -2.936958e+000 -3.026551e+001 5.730075e+001 -5.529310e+001 9.176747e+001
-5.793670e+001 -1.211724e+002 -5.542294e+001 9.135510e+001 -3.813986e-002 1.623909e+002
560000000 -3.183587e+001 8.303960e+001 -1.896057e-001 -3.046373e+000 -5.761434e+001 -1.222748e+002
-1.805115e-001 -3.028562e+000 -3.034961e+001 5.609341e+001 -5.493648e+001 9.154100e+001
-5.763151e+001 -1.211167e+002 -5.488804e+001 9.148247e+001 -3.672397e-002 1.617385e+002
580000000 -3.189433e+001 8.391876e+001 -1.864508e-001 -3.148580e+000 -5.742256e+001 -1.225241e+002
-1.774344e-001 -3.140571e+000 -3.028968e+001 5.538626e+001 -5.466391e+001 9.111991e+001
-5.746440e+001 -1.230834e+002 -5.482035e+001 9.101737e+001 -3.666974e-002 1.611154e+002
600000000 -3.171490e+001 8.516928e+001 -1.841734e-001 -3.266322e+000 -5.697812e+001 -1.233840e+002
-1.766954e-001 -3.259417e+000 -3.010905e+001 5.515832e+001 -5.442153e+001 9.197919e+001
-5.699645e+001 -1.246208e+002 -5.449048e+001 9.097598e+001 -3.780867e-002 1.604650e+002
620000000 -3.142881e+001 8.617433e+001 -1.840172e-001 -3.397755e+000 -5.672072e+001 -1.251618e+002
-1.769701e-001 -3.393368e+000 -2.992712e+001 5.525870e+001 -5.423795e+001 9.257017e+001
-5.669611e+001 -1.256672e+002 -5.420659e+001 9.266757e+001 -3.661221e-002 1.598014e+002
640000000 -3.128632e+001 8.628874e+001 -1.832643e-001 -3.531047e+000 -5.637405e+001 -1.272716e+002
-1.771040e-001 -3.517756e+000 -2.975565e+001 5.488323e+001 -5.395185e+001 9.269723e+001
-5.645475e+001 -1.257032e+002 -5.390683e+001 9.349713e+001 -3.364497e-002 1.591737e+002
660000000 -3.123706e+001 8.701934e+001 -1.850032e-001 -3.662724e+000 -5.616613e+001 -1.282712e+002
-1.784440e-001 -3.645758e+000 -2.971504e+001 5.392968e+001 -5.353590e+001 9.344772e+001
-5.602082e+001 -1.275164e+002 -5.355076e+001 9.409943e+001 -3.324629e-002 1.585444e+002
680000000 -3.117797e+001 8.741183e+001 -1.870972e-001 -3.794941e+000 -5.584095e+001 -1.300712e+002
-1.805854e-001 -3.788267e+000 -2.957103e+001 5.239341e+001 -5.319780e+001 9.511066e+001
-5.577186e+001 -1.291128e+002 -5.323586e+001 9.477840e+001 -3.083695e-002 1.578978e+002
700000000 -3.105149e+001 8.689000e+001 -1.898484e-001 -3.927600e+000 -5.540097e+001 -1.304941e+002
-1.813631e-001 -3.911098e+000 -2.934622e+001 5.086101e+001 -5.295796e+001 9.445686e+001
-5.547427e+001 -1.306739e+002 -5.292494e+001 9.461691e+001 -2.882703e-002 1.572478e+002
720000000 -3.082987e+001 8.710751e+001 -1.939663e-001 -4.055930e+000 -5.509935e+001 -1.313640e+002
-1.859839e-001 -4.042987e+000 -2.897744e+001 4.960502e+001 -5.264010e+001 9.451803e+001
-5.511093e+001 -1.312708e+002 -5.265944e+001 9.603082e+001 -2.863115e-002 1.566328e+002
740000000 -3.062804e+001 8.673766e+001 -1.980977e-001 -4.169331e+000 -5.477127e+001 -1.323071e+002
-1.912464e-001 -4.163619e+000 -2.864579e+001 4.832841e+001 -5.236331e+001 9.651114e+001
-5.493006e+001 -1.320216e+002 -5.238449e+001 9.545387e+001 -2.891158e-002 1.559946e+002
760000000 -3.051090e+001 8.625510e+001 -2.047139e-001 -4.282101e+000 -5.458386e+001 -1.339522e+002
-1.966196e-001 -4.265868e+000 -2.845464e+001 4.727756e+001 -5.215143e+001 9.602973e+001
-5.452799e+001 -1.337607e+002 -5.215143e+001 9.660126e+001 -3.037111e-002 1.553375e+002
780000000 -3.054932e+001 8.619747e+001 -2.103791e-001 -4.380982e+000 -5.412872e+001 -1.350767e+002
-2.018764e-001 -4.370920e+000 -2.830699e+001 4.560364e+001 -5.180880e+001 9.703580e+001
-5.415469e+001 -1.348647e+002 -5.182239e+001 9.658425e+001 -2.726030e-002 1.546967e+002
800000000 -3.071865e+001 8.560593e+001 -2.153145e-001 -4.462847e+000 -5.388873e+001 -1.362815e+002
-2.074585e-001 -4.461431e+000 -2.825261e+001 4.379285e+001 -5.147036e+001 9.778130e+001
-5.387228e+001 -1.365626e+002 -5.153154e+001 9.701431e+001 -2.758402e-002 1.540523e+002
820000000 -3.085005e+001 8.439418e+001 -2.184589e-001 -4.544961e+000 -5.375269e+001 -1.372348e+002
-2.108836e-001 -4.535495e+000 -2.822065e+001 4.262599e+001 -5.123636e+001 9.804456e+001
-5.364753e+001 -1.375672e+002 -5.123960e+001 9.715538e+001 -2.691507e-002 1.533982e+002
840000000 -3.102210e+001 8.384326e+001 -2.188452e-001 -4.614725e+000 -5.349274e+001 -1.383974e+002
-2.113230e-001 -4.604245e+000 -2.828214e+001 4.147633e+001 -5.099326e+001 9.802901e+001
-5.342802e+001 -1.387036e+002 -5.104646e+001 9.749199e+001 -2.519115e-002 1.527565e+002
860000000 -3.128705e+001 8.449931e+001 -2.164406e-001 -4.686800e+000 -5.320372e+001 -1.395561e+002
-2.104823e-001 -4.673836e+000 -2.832741e+001 4.048530e+001 -5.069792e+001 9.829295e+001
-5.333186e+001 -1.396032e+002 -5.074696e+001 9.867082e+001 -2.350726e-002 1.521266e+002
880000000 -3.158223e+001 8.626746e+001 -2.155600e-001 -4.778435e+000 -5.293697e+001 -1.402701e+002
-2.081642e-001 -4.765472e+000 -2.842618e+001 3.895938e+001 -5.046381e+001 9.857555e+001
-5.282666e+001 -1.400464e+002 -5.048662e+001 9.852615e+001 -2.536372e-002 1.514729e+002
900000000 -3.185775e+001 8.875433e+001 -2.136098e-001 -4.879564e+000 -5.272289e+001 -1.410178e+002
-2.054337e-001 -4.871589e+000 -2.838007e+001 3.756684e+001 -5.022284e+001 9.904469e+001
-5.267884e+001 -1.405929e+002 -5.017854e+001 9.899090e+001 -2.030880e-002 1.508256e+002
920000000 -3.174262e+001 9.101695e+001 -2.115713e-001 -4.986313e+000 -5.240900e+001 -1.414584e+002
-2.037700e-001 -4.983499e+000 -2.818744e+001 3.673943e+001 -5.004052e+001 9.974741e+001
-5.245168e+001 -1.420280e+002 -4.996003e+001 9.975964e+001 -2.077424e-002 1.501716e+002
940000000 -3.153943e+001 9.227735e+001 -2.117005e-001 -5.107654e+000 -5.203932e+001 -1.421129e+002
-2.035983e-001 -5.095914e+000 -2.791449e+001 3.722063e+001 -4.969392e+001 1.001949e+002
-5.221276e+001 -1.431869e+002 -4.970925e+001 1.006272e+002 -2.048567e-002 1.495278e+002
960000000 -3.133239e+001 9.200117e+001 -2.129387e-001 -5.216471e+000 -5.182422e+001 -1.432784e+002
-2.041016e-001 -5.206702e+000 -2.774019e+001 3.826760e+001 -4.938505e+001 1.011371e+002
-5.190387e+001 -1.436014e+002 -4.940281e+001 1.006635e+002 -1.900470e-002 1.488694e+002
980000000 -3.136133e+001 9.315083e+001 -2.114252e-001 -5.328202e+000 -5.175545e+001 -1.444010e+002
