!Mini-Circuits Laboratory
!S-Parameters
!Model:TCBT-14+
!Run/Lot/Date Code:MHU6270/NA/NA
!Fixture/SN/Due:90-4-20-188/73355/01-16-11 
!Connection:PORT<1> - pin<2>, PORT<2> - pin<1>, PORT<3> - pin<3>; 
!Unit S/N 1
!Agilent Technologies,N5230A,MY45001447,A.07.50.63
!Agilent N5230A: A.07.50.63
!Date: Friday, November 26, 2010 16:43:24
!Correction: S11(Full 3 Port(1,2,3)) 
!S12(Full 3 Port(1,2,3)) 
!S13(Full 3 Port(1,2,3)) 
!S21(Full 3 Port(1,2,3)) 
!S22(Full 3 Port(1,2,3)) 
!S23(Full 3 Port(1,2,3)) 
!S31(Full 3 Port(1,2,3)) 
!S32(Full 3 Port(1,2,3)) 
!S33(Full 3 Port(1,2,3)) 
!S3P File: Measurements: <S11,S12,S13>,
!<S21,S22,S23>,
!<S31,S32,S33>:
# Hz S  dB   R 50
300000 -1.002091e-001 -1.066682e+001 -2.197718e+001 6.292174e+001 -2.157026e+001 5.725671e+001
-2.193444e+001 6.260342e+001 -8.596401e+000 -1.213615e+002 -9.468671e-001 -2.820540e+001
-2.159043e+001 5.712690e+001 -9.801127e-001 -2.790090e+001 -8.099370e+000 -1.147875e+002
400000 -1.402196e-001 -1.400660e+001 -2.041045e+001 5.562512e+001 -1.966348e+001 4.775804e+001
-2.039731e+001 5.524876e+001 -6.640711e+000 -1.307030e+002 -1.512488e+000 -3.571788e+001
-1.967834e+001 4.766267e+001 -1.536844e+000 -3.545621e+001 -6.156288e+000 -1.216515e+002
500000 -1.730407e-001 -1.729999e+001 -1.960807e+001 4.949298e+001 -1.836865e+001 3.923518e+001
-1.959374e+001 4.919382e+001 -5.328526e+000 -1.391336e+002 -2.104607e+000 -4.248114e+001
-1.835952e+001 3.912671e+001 -2.123454e+000 -4.223561e+001 -4.853494e+000 -1.274921e+002
600000 -1.983260e-001 -2.055187e+001 -1.930788e+001 4.485936e+001 -1.742185e+001 3.147062e+001
-1.931567e+001 4.459558e+001 -4.415242e+000 -1.466337e+002 -2.717038e+000 -4.842455e+001
-1.741780e+001 3.138517e+001 -2.726701e+000 -4.822903e+001 -3.948799e+000 -1.324725e+002
700000 -2.192208e-001 -2.382952e+001 -1.943131e+001 4.166529e+001 -1.673251e+001 2.437621e+001
-1.943109e+001 4.142025e+001 -3.743758e+000 -1.534234e+002 -3.324333e+000 -5.372480e+001
-1.673862e+001 2.429519e+001 -3.333194e+000 -5.357276e+001 -3.280044e+000 -1.367343e+002
800000 -2.333856e-001 -2.713451e+001 -1.990308e+001 4.043035e+001 -1.622486e+001 1.790116e+001
-1.990238e+001 4.016031e+001 -3.237869e+000 -1.596603e+002 -3.912985e+000 -5.851350e+001
-1.622320e+001 1.778793e+001 -3.917134e+000 -5.835779e+001 -2.789075e+000 -1.403718e+002
900000 -2.463478e-001 -3.049169e+001 -2.067212e+001 4.160716e+001 -1.582952e+001 1.184452e+001
-2.067518e+001 4.135612e+001 -2.852121e+000 -1.654227e+002 -4.476066e+000 -6.285340e+001
-1.582905e+001 1.173193e+001 -4.477809e+000 -6.272355e+001 -2.413250e+000 -1.434558e+002
1000000 -2.594047e-001 -3.391012e+001 -2.164560e+001 4.632957e+001 -1.552148e+001 6.126628e+000
-2.165248e+001 4.611345e+001 -2.554013e+000 -1.707974e+002 -5.014245e+000 -6.690398e+001
-1.553231e+001 6.045002e+000 -5.010081e+000 -6.676305e+001 -2.119306e+000 -1.461175e+002
2000000 -8.461943e-001 -7.178874e+001 -1.048996e+001 1.121961e+002 -1.491291e+001 -4.214293e+001
-1.049849e+001 1.122246e+002 -1.952953e+000 1.446872e+002 -9.395128e+000 -1.003266e+002
-1.492127e+001 -4.207623e+001 -9.398049e+000 -1.002817e+002 -8.878401e-001 -1.597488e+002
3000000 -3.285984e+000 -1.090717e+002 -3.619218e+000 8.391664e+001 -1.718193e+001 -8.086034e+001
-3.618711e+000 8.394344e+001 -4.111377e+000 1.099234e+002 -1.386756e+001 -1.278660e+002
-1.717453e+001 -8.074389e+001 -1.385804e+001 -1.277701e+002 -4.203402e-001 -1.654163e+002
4000000 -6.743970e+000 -1.355589e+002 -1.512577e+000 6.158982e+001 -2.069782e+001 -1.060311e+002
-1.501691e+000 6.160488e+001 -7.444333e+000 8.852741e+001 -1.852929e+001 -1.449095e+002
-2.068378e+001 -1.059317e+002 -1.851140e+001 -1.448278e+002 -2.220892e-001 -1.690800e+002
5000000 -9.999722e+000 -1.530377e+002 -8.015204e-001 4.771249e+001 -2.411841e+001 -1.209281e+002
-7.955495e-001 4.771131e+001 -1.062770e+001 7.708669e+001 -2.260468e+001 -1.539208e+002
-2.410723e+001 -1.209525e+002 -2.259054e+001 -1.538634e+002 -1.463204e-001 -1.714142e+002
6000000 -1.279396e+001 -1.651041e+002 -5.197988e-001 3.880599e+001 -2.711873e+001 -1.302847e+002
-5.112351e-001 3.880552e+001 -1.332955e+001 7.095287e+001 -2.601737e+001 -1.587502e+002
-2.710479e+001 -1.302464e+002 -2.598551e+001 -1.587307e+002 -1.159921e-001 -1.729708e+002
7000000 -1.516173e+001 -1.741813e+002 -3.851206e-001 3.269064e+001 -2.971168e+001 -1.365072e+002
-3.762357e-001 3.268979e+001 -1.559255e+001 6.773791e+001 -2.887684e+001 -1.616013e+002
-2.971564e+001 -1.363695e+002 -2.886127e+001 -1.615162e+002 -9.352318e-002 -1.740876e+002
8000000 -1.715804e+001 1.785615e+002 -3.163885e-001 2.825606e+001 -3.201161e+001 -1.407847e+002
-3.067627e-001 2.826480e+001 -1.752943e+001 6.616513e+001 -3.134614e+001 -1.631350e+002
-3.200359e+001 -1.408053e+002 -3.132395e+001 -1.631260e+002 -9.036921e-002 -1.749229e+002
9000000 -1.886255e+001 1.726150e+002 -2.766573e-001 2.489063e+001 -3.403645e+001 -1.438119e+002
-2.683992e-001 2.489054e+001 -1.917917e+001 6.532416e+001 -3.350710e+001 -1.641973e+002
-3.402700e+001 -1.438333e+002 -3.347875e+001 -1.640944e+002 -8.516086e-002 -1.755629e+002
10000000 -2.033524e+001 1.676676e+002 -2.497690e-001 2.224972e+001 -3.586494e+001 -1.464143e+002
-2.401683e-001 2.225145e+001 -2.056927e+001 6.473721e+001 -3.538929e+001 -1.647447e+002
-3.578886e+001 -1.460623e+002 -3.541071e+001 -1.647104e+002 -8.150645e-002 -1.760756e+002
20000000 -2.844562e+001 1.401164e+002 -1.841454e-001 1.087183e+001 -4.764644e+001 -1.518292e+002
-1.769365e-001 1.085921e+001 -2.823404e+001 6.912698e+001 -4.757841e+001 -1.637892e+002
-4.761938e+001 -1.518148e+002 -4.753447e+001 -1.639530e+002 -6.195892e-002 -1.785671e+002
30000000 -3.193713e+001 1.279968e+002 -1.703005e-001 7.139037e+000 -5.442295e+001 -1.489640e+002
-1.613352e-001 7.136259e+000 -3.125859e+001 7.051142e+001 -5.456073e+001 -1.614685e+002
-5.437741e+001 -1.497292e+002 -5.469146e+001 -1.616926e+002 -5.904103e-002 -1.796286e+002
40000000 -3.390962e+001 1.205851e+002 -1.634740e-001 5.217781e+000 -5.899580e+001 -1.433718e+002
-1.543207e-001 5.235781e+000 -3.295454e+001 7.095129e+001 -5.995467e+001 -1.614469e+002
-5.904615e+001 -1.431908e+002 -5.980229e+001 -1.606574e+002 -5.363017e-002 1.796407e+002
50000000 -3.508092e+001 1.142264e+002 -1.589871e-001 4.061450e+000 -6.245815e+001 -1.339720e+002
-1.507312e-001 4.060845e+000 -3.391882e+001 7.009568e+001 -6.432660e+001 -1.619387e+002
-6.225221e+001 -1.351826e+002 -6.452782e+001 -1.629394e+002 -4.883297e-002 1.790973e+002
60000000 -3.598240e+001 1.092376e+002 -1.544704e-001 3.249487e+000 -6.491560e+001 -1.253219e+002
-1.454864e-001 3.258151e+000 -3.446414e+001 6.903834e+001 -6.857603e+001 -1.688649e+002
-6.456770e+001 -1.256102e+002 -6.811890e+001 -1.682081e+002 -4.592123e-002 1.786025e+002
70000000 -3.661673e+001 1.052260e+002 -1.515809e-001 2.652027e+000 -6.616695e+001 -1.187115e+002
-1.466135e-001 2.669633e+000 -3.496262e+001 6.850281e+001 -7.122138e+001 1.787444e+002
-6.639451e+001 -1.210898e+002 -7.149615e+001 -1.757192e+002 -4.379029e-002 1.781410e+002
80000000 -3.704759e+001 1.022290e+002 -1.515749e-001 2.203272e+000 -6.689382e+001 -1.112537e+002
-1.455182e-001 2.198293e+000 -3.515314e+001 6.701261e+001 -7.576974e+001 1.594181e+002
-6.722175e+001 -1.094295e+002 -7.398447e+001 1.585106e+002 -4.423215e-002 1.777341e+002
90000000 -3.742443e+001 1.001512e+002 -1.518973e-001 1.829684e+000 -6.760820e+001 -1.080548e+002
-1.440824e-001 1.815208e+000 -3.532218e+001 6.589973e+001 -7.563312e+001 1.298929e+002
-6.715018e+001 -1.058988e+002 -7.742744e+001 1.371068e+002 -4.310526e-002 1.773444e+002
100000000 -3.772332e+001 9.852760e+001 -1.505639e-001 1.502285e+000 -6.768539e+001 -1.006345e+002
-1.428372e-001 1.506065e+000 -3.538052e+001 6.480396e+001 -7.552753e+001 1.091516e+002
-6.741868e+001 -1.012747e+002 -7.508668e+001 1.082651e+002 -4.321856e-002 1.769573e+002
120000000 -3.754927e+001 9.689973e+001 -1.497784e-001 9.721923e-001 -6.698707e+001 -9.205003e+001
-1.407418e-001 1.004926e+000 -3.493179e+001 6.319773e+001 -7.224322e+001 9.822882e+001
-6.734699e+001 -9.256768e+001 -7.170810e+001 9.143832e+001 -3.843264e-002 1.762303e+002
140000000 -3.800382e+001 9.062627e+001 -1.490440e-001 6.091942e-001 -6.758664e+001 -9.525879e+001
-1.440920e-001 6.122746e-001 -3.514381e+001 5.602573e+001 -6.942640e+001 8.840636e+001
-6.745238e+001 -9.558171e+001 -6.950864e+001 8.752433e+001 -3.900266e-002 1.755294e+002
160000000 -3.811643e+001 8.701739e+001 -1.537151e-001 2.674874e-001 -6.670942e+001 -9.111551e+001
-1.432419e-001 2.610942e-001 -3.497977e+001 5.110773e+001 -6.760635e+001 8.407896e+001
-6.655329e+001 -9.004650e+001 -6.751266e+001 8.531161e+001 -4.331812e-002 1.747956e+002
180000000 -3.706834e+001 9.453120e+001 -1.536995e-001 -2.147495e-002 -6.592237e+001 -9.288831e+001
-1.452917e-001 -6.977660e-003 -3.415705e+001 5.843042e+001 -6.619424e+001 8.474454e+001
-6.598666e+001 -9.211912e+001 -6.647272e+001 8.304992e+001 -4.101416e-002 1.741055e+002
200000000 -3.675700e+001 9.271738e+001 -1.538411e-001 -2.769585e-001 -6.604892e+001 -9.446568e+001
-1.460740e-001 -2.670964e-001 -3.394798e+001 6.008425e+001 -6.485069e+001 8.377843e+001
-6.545116e+001 -9.403835e+001 -6.521889e+001 8.562811e+001 -4.043393e-002 1.734089e+002
220000000 -3.653911e+001 8.716378e+001 -1.560775e-001 -5.023018e-001 -6.506350e+001 -9.607440e+001
-1.488805e-001 -4.982575e-001 -3.357188e+001 5.864141e+001 -6.421267e+001 8.421867e+001
-6.482138e+001 -9.492734e+001 -6.414587e+001 8.410261e+001 -4.341672e-002 1.727258e+002
240000000 -3.612715e+001 8.540996e+001 -1.568151e-001 -7.122205e-001 -6.447561e+001 -9.694652e+001
-1.497661e-001 -6.958911e-001 -3.326137e+001 5.960692e+001 -6.341044e+001 8.308168e+001
-6.441673e+001 -9.728169e+001 -6.332019e+001 8.474677e+001 -4.446564e-002 1.720776e+002
260000000 -3.555996e+001 8.566964e+001 -1.591755e-001 -9.148635e-001 -6.393587e+001 -9.782574e+001
-1.514054e-001 -8.880382e-001 -3.294919e+001 6.159257e+001 -6.237037e+001 8.513746e+001
-6.361782e+001 -9.972424e+001 -6.236471e+001 8.562440e+001 -4.394826e-002 1.714421e+002
280000000 -3.504103e+001 8.494179e+001 -1.607382e-001 -1.086948e+000 -6.314162e+001 -1.005714e+002
-1.517103e-001 -1.066572e+000 -3.270722e+001 6.286169e+001 -6.189894e+001 8.431954e+001
-6.297391e+001 -1.000881e+002 -6.195242e+001 8.544008e+001 -4.485584e-002 1.707613e+002
300000000 -3.466464e+001 8.400391e+001 -1.611724e-001 -1.259233e+000 -6.271601e+001 -1.002507e+002
-1.539616e-001 -1.242412e+000 -3.240270e+001 6.314999e+001 -6.113632e+001 8.565486e+001
-6.274494e+001 -1.021397e+002 -6.132889e+001 8.520628e+001 -4.439393e-002 1.700879e+002
320000000 -3.446995e+001 8.302673e+001 -1.625267e-001 -1.419709e+000 -6.209775e+001 -1.035221e+002
-1.545483e-001 -1.422533e+000 -3.227729e+001 6.350063e+001 -6.076057e+001 8.677718e+001
-6.221369e+001 -1.029343e+002 -6.045431e+001 8.609971e+001 -4.394177e-002 1.694459e+002
340000000 -3.428108e+001 8.153863e+001 -1.640610e-001 -1.586788e+000 -6.159081e+001 -1.068987e+002
-1.557382e-001 -1.576913e+000 -3.217140e+001 6.380995e+001 -5.976723e+001 8.713875e+001
-6.161698e+001 -1.051817e+002 -6.009103e+001 8.834886e+001 -4.350887e-002 1.687908e+002
360000000 -3.393910e+001 8.021460e+001 -1.657724e-001 -1.739893e+000 -6.134971e+001 -1.084794e+002
-1.547187e-001 -1.734716e+000 -3.192101e+001 6.355738e+001 -5.924269e+001 8.936642e+001
-6.120282e+001 -1.066766e+002 -5.938743e+001 8.962224e+001 -4.445167e-002 1.681456e+002
380000000 -3.361408e+001 8.060540e+001 -1.663096e-001 -1.902405e+000 -6.102983e+001 -1.080896e+002
-1.588812e-001 -1.889621e+000 -3.169926e+001 6.319049e+001 -5.872386e+001 8.949490e+001
-6.095966e+001 -1.090043e+002 -5.881498e+001 8.857552e+001 -4.377880e-002 1.675099e+002
400000000 -3.327029e+001 8.169509e+001 -1.690948e-001 -2.055568e+000 -6.048780e+001 -1.104510e+002
-1.598695e-001 -2.041725e+000 -3.143635e+001 6.299358e+001 -5.829719e+001 8.928146e+001
-6.047715e+001 -1.100047e+002 -5.835418e+001 8.944490e+001 -4.364136e-002 1.668563e+002
420000000 -3.307574e+001 8.277640e+001 -1.705594e-001 -2.188076e+000 -5.999858e+001 -1.123433e+002
-1.609762e-001 -2.176131e+000 -3.122198e+001 6.308480e+001 -5.794484e+001 8.923869e+001
-6.022219e+001 -1.108845e+002 -5.798748e+001 8.976286e+001 -4.382411e-002 1.661946e+002
440000000 -3.300698e+001 8.371665e+001 -1.712526e-001 -2.325032e+000 -5.947844e+001 -1.130019e+002
-1.619422e-001 -2.306625e+000 -3.111135e+001 6.176229e+001 -5.740656e+001 9.092513e+001
-5.956814e+001 -1.137863e+002 -5.751633e+001 9.020864e+001 -4.200692e-002 1.655482e+002
460000000 -3.298777e+001 8.525573e+001 -1.716540e-001 -2.463561e+000 -5.933633e+001 -1.142435e+002
-1.628650e-001 -2.450098e+000 -3.105867e+001 6.065392e+001 -5.697835e+001 9.056905e+001
-5.918113e+001 -1.150025e+002 -5.689565e+001 9.081182e+001 -4.191408e-002 1.649140e+002
480000000 -3.270267e+001 8.502841e+001 -1.747122e-001 -2.608064e+000 -5.879565e+001 -1.162268e+002
-1.660623e-001 -2.595665e+000 -3.088565e+001 6.001170e+001 -5.648919e+001 9.121564e+001
-5.896492e+001 -1.157244e+002 -5.652824e+001 9.132140e+001 -4.172183e-002 1.642833e+002
500000000 -3.235276e+001 8.517780e+001 -1.758946e-001 -2.740216e+000 -5.852863e+001 -1.173915e+002
-1.678484e-001 -2.727779e+000 -3.070354e+001 5.911780e+001 -5.613689e+001 9.197616e+001
-5.848585e+001 -1.169850e+002 -5.618937e+001 9.133440e+001 -4.032373e-002 1.636381e+002
520000000 -3.211107e+001 8.576692e+001 -1.765526e-001 -2.883442e+000 -5.812763e+001 -1.199006e+002
-1.705207e-001 -2.852319e+000 -3.049390e+001 5.870419e+001 -5.572984e+001 9.136493e+001
-5.809997e+001 -1.195000e+002 -5.588310e+001 9.256725e+001 -3.786064e-002 1.630146e+002
540000000 -3.194161e+001 8.613430e+001 -1.795259e-001 -3.005579e+000 -5.765868e+001 -1.207248e+002
-1.719236e-001 -2.982730e+000 -3.038689e+001 5.840094e+001 -5.554511e+001 9.267123e+001
-5.770229e+001 -1.215077e+002 -5.549562e+001 9.310484e+001 -3.783408e-002 1.623686e+002
560000000 -3.175330e+001 8.582233e+001 -1.823161e-001 -3.135588e+000 -5.733579e+001 -1.220970e+002
-1.733723e-001 -3.114815e+000 -3.031963e+001 5.769517e+001 -5.512029e+001 9.305548e+001
-5.744147e+001 -1.224605e+002 -5.515572e+001 9.349517e+001 -3.601515e-002 1.617175e+002
580000000 -3.165604e+001 8.597041e+001 -1.833401e-001 -3.255740e+000 -5.704479e+001 -1.238546e+002
-1.738390e-001 -3.247709e+000 -3.012298e+001 5.659203e+001 -5.471809e+001 9.284985e+001
-5.703745e+001 -1.237482e+002 -5.479033e+001 9.287534e+001 -3.648752e-002 1.610997e+002
600000000 -3.142345e+001 8.623083e+001 -1.829478e-001 -3.387966e+000 -5.673834e+001 -1.251390e+002
-1.757836e-001 -3.370308e+000 -2.987533e+001 5.591808e+001 -5.457203e+001 9.294324e+001
-5.671537e+001 -1.244948e+002 -5.449278e+001 9.403119e+001 -3.747484e-002 1.604443e+002
620000000 -3.116440e+001 8.648177e+001 -1.856884e-001 -3.515707e+000 -5.640720e+001 -1.271561e+002
-1.780287e-001 -3.509813e+000 -2.967065e+001 5.573995e+001 -5.410607e+001 9.421789e+001
-5.644438e+001 -1.268357e+002 -5.416532e+001 9.449146e+001 -3.576325e-002 1.597793e+002
640000000 -3.102762e+001 8.609925e+001 -1.866255e-001 -3.652824e+000 -5.614396e+001 -1.277473e+002
-1.805192e-001 -3.627202e+000 -2.952421e+001 5.513135e+001 -5.373872e+001 9.403289e+001
-5.616219e+001 -1.285237e+002 -5.376329e+001 9.422780e+001 -3.360542e-002 1.591519e+002
660000000 -3.101707e+001 8.656152e+001 -1.885663e-001 -3.781742e+000 -5.579987e+001 -1.291799e+002
-1.827273e-001 -3.755891e+000 -2.950107e+001 5.404184e+001 -5.354287e+001 9.446055e+001
-5.581163e+001 -1.285007e+002 -5.355616e+001 9.460878e+001 -3.274619e-002 1.585198e+002
680000000 -3.100248e+001 8.690311e+001 -1.915606e-001 -3.902559e+000 -5.556252e+001 -1.300793e+002
-1.847283e-001 -3.896207e+000 -2.937414e+001 5.238610e+001 -5.319866e+001 9.585448e+001
-5.559691e+001 -1.305262e+002 -5.312962e+001 9.561029e+001 -3.096544e-002 1.578733e+002
700000000 -3.088801e+001 8.654172e+001 -1.938488e-001 -4.034173e+000 -5.536911e+001 -1.313670e+002
-1.855151e-001 -4.021918e+000 -2.915576e+001 5.066794e+001 -5.280456e+001 9.558172e+001
-5.533155e+001 -1.316260e+002 -5.288875e+001 9.623955e+001 -2.960963e-002 1.572281e+002
720000000 -3.065812e+001 8.676018e+001 -1.973792e-001 -4.164375e+000 -5.501903e+001 -1.326458e+002
-1.899918e-001 -4.151839e+000 -2.879776e+001 4.941322e+001 -5.257856e+001 9.675661e+001
-5.497057e+001 -1.325034e+002 -5.259936e+001 9.670253e+001 -2.789246e-002 1.566077e+002
740000000 -3.045695e+001 8.640807e+001 -2.023934e-001 -4.278452e+000 -5.464875e+001 -1.326628e+002
-1.950248e-001 -4.266360e+000 -2.846062e+001 4.818365e+001 -5.220553e+001 9.731918e+001
-5.470188e+001 -1.331746e+002 -5.237144e+001 9.686309e+001 -2.809866e-002 1.559663e+002
760000000 -3.033792e+001 8.589899e+001 -2.090965e-001 -4.399684e+000 -5.431267e+001 -1.342200e+002
-2.001193e-001 -4.381116e+000 -2.827018e+001 4.727329e+001 -5.194010e+001 9.733978e+001
-5.434468e+001 -1.340762e+002 -5.207741e+001 9.782109e+001 -3.035798e-002 1.553114e+002
780000000 -3.036340e+001 8.578460e+001 -2.139683e-001 -4.495216e+000 -5.407549e+001 -1.350160e+002
-2.057758e-001 -4.483014e+000 -2.811615e+001 4.568867e+001 -5.169238e+001 9.822141e+001
-5.401120e+001 -1.358644e+002 -5.178088e+001 9.795396e+001 -2.723288e-002 1.546758e+002
800000000 -3.053408e+001 8.514256e+001 -2.197006e-001 -4.578634e+000 -5.371093e+001 -1.362673e+002
-2.124051e-001 -4.578528e+000 -2.805955e+001 4.385529e+001 -5.143929e+001 9.856592e+001
-5.375288e+001 -1.361153e+002 -5.144117e+001 9.823368e+001 -2.873374e-002 1.540235e+002
820000000 -3.067394e+001 8.391648e+001 -2.235412e-001 -4.662317e+000 -5.352575e+001 -1.377634e+002
-2.161374e-001 -4.656160e+000 -2.803118e+001 4.251045e+001 -5.113751e+001 9.867656e+001
-5.354232e+001 -1.382035e+002 -5.104549e+001 9.832776e+001 -2.664283e-002 1.533737e+002
840000000 -3.087264e+001 8.337992e+001 -2.245608e-001 -4.738913e+000 -5.324365e+001 -1.394019e+002
-2.180036e-001 -4.723994e+000 -2.807693e+001 4.116140e+001 -5.088700e+001 9.874624e+001
-5.330798e+001 -1.390534e+002 -5.081538e+001 9.895870e+001 -2.452998e-002 1.527283e+002
860000000 -3.113789e+001 8.406494e+001 -2.226237e-001 -4.811056e+000 -5.303408e+001 -1.395857e+002
-2.165516e-001 -4.790453e+000 -2.811100e+001 4.005283e+001 -5.054647e+001 9.911677e+001
-5.302930e+001 -1.401361e+002 -5.055045e+001 9.926588e+001 -2.326061e-002 1.520981e+002
880000000 -3.143489e+001 8.575708e+001 -2.204067e-001 -4.899529e+000 -5.270915e+001 -1.418984e+002
-2.133118e-001 -4.881392e+000 -2.820791e+001 3.856909e+001 -5.030774e+001 1.000292e+002
-5.269757e+001 -1.416931e+002 -5.032410e+001 9.935635e+001 -2.421201e-002 1.514390e+002
900000000 -3.171461e+001 8.832317e+001 -2.194595e-001 -4.998401e+000 -5.247190e+001 -1.417422e+002
-2.102798e-001 -4.985287e+000 -2.817353e+001 3.720211e+001 -4.994398e+001 1.000059e+002
-5.243024e+001 -1.420505e+002 -5.000882e+001 1.003840e+002 -2.072569e-002 1.507909e+002
920000000 -3.161182e+001 9.054935e+001 -2.161357e-001 -5.107332e+000 -5.215122e+001 -1.432346e+002
-2.084045e-001 -5.099224e+000 -2.800029e+001 3.638687e+001 -4.978139e+001 1.011957e+002
-5.220601e+001 -1.418987e+002 -4.972776e+001 1.003393e+002 -2.048409e-002 1.501466e+002
940000000 -3.141173e+001 9.182280e+001 -2.160555e-001 -5.224008e+000 -5.196950e+001 -1.433523e+002
-2.074365e-001 -5.213225e+000 -2.774720e+001 3.691144e+001 -4.960788e+001 1.009107e+002
-5.199928e+001 -1.431791e+002 -4.952288e+001 1.010930e+002 -1.982005e-002 1.494978e+002
960000000 -3.122416e+001 9.165482e+001 -2.167852e-001 -5.337110e+000 -5.165773e+001 -1.443216e+002
-2.073243e-001 -5.332305e+000 -2.759338e+001 3.792141e+001 -4.924575e+001 1.008629e+002
-5.173308e+001 -1.444914e+002 -4.925689e+001 1.015739e+002 -2.004622e-002 1.488309e+002
980000000 -3.125211e+001 9.291261e+001 -2.148366e-001 -5.442381e+000 -5.142688e+001 -1.448986e+002
