#  HZ   S   DB   R     50.00 
! Rohde & Schwarz ZVA24 2Ports - Version 3.90 - 1145.1110k24 SN: 100222
! Date: 2019-05-03 14:58:19
! Measurements: S11 S21 S12 S22 
! 
 1.000000000000000E7    -1.129802846995752E1  -8.499339595258975E1  -1.838193300108043E1  -3.011419793901989E1  -2.375448107349700E1   1.031095350221342E2   7.031390466978785   1.487788810587713E1  
 2.300300300300300E7     1.521352493776300  -4.529941877499086E1  -2.016231158899835E1  -3.961568836064402E1  -3.154977608901574E1   1.279700852985584E2   1.227016538625512   2.161584608965876  
 3.600600600600600E7     4.328325066379078   8.199397729104415  -3.682207807368955E1   1.351918142656284E2  -4.608817513926528E1   4.667462953420749E1   1.623910256251088   2.036491786115496E-1  
 4.900900900900901E7    -2.016043714636949  -6.135191074389780  -3.255198453725978E1   1.041617445597233E2  -3.219656828757724E1   2.944286574993516E1  -1.914087440600533  -4.905910286843623  
 6.201201201201201E7    -4.021245582438745E-1  -3.682963326838319  -3.843916734724768E1   1.059541982416651E2  -3.231763531790200E1   9.641506012042990E1  -8.109041180336467E-1  -4.322495116517110  
 7.501501501501501E7     5.554975053267840E-1  -1.265228296732613E1  -3.055313874935979E1   1.599377886844425E2  -3.713799469723855E1   6.571491434994375E1   2.076416885319946  -1.717672460607078E1  
 8.801801801801802E7    -1.441327244623759E-1  -2.230719912945380E1  -4.539434397204989E1  -1.035462031054968E2  -3.682255271512665E1   1.791157340954815E2  -3.398108809194119E-1  -3.520642471670989  
 1.010210210210210E8    -5.509855760787408E-1  -1.414171333830867E1  -4.585099243506261E1   1.371414191390143E2  -3.578514835285655E1  -3.527870076064109  -1.248397545282154  -6.282506758503246  
 1.140240240240240E8     1.325654959072778  -8.970575225750048  -4.421610354631110E1   1.365356002311899E2  -3.989531967182704E1   7.148236449831812E1  -5.168955654533700E-1  -1.602338387476449E1  
 1.270270270270270E8     8.367387824618280E-2  -9.891395363263186  -4.412815706451009E1   7.047737771552787E1  -4.048207062251784E1  -1.647238853668077E2  -2.672046026273049E-1  -1.776796248781081E1  
 1.400300300300300E8     8.147032029742514E-1  -1.724691227725792E1  -5.020087779465962E1  -9.702488534156942E1  -4.831542013225388E1   5.034383494612069E1  -1.015141007649327E-1  -1.460373422361800E1  
 1.530330330330330E8    -1.202818460363592E-2  -1.385450097264302E1  -4.069197866986120E1   1.000862083806127E2  -5.119506399294202E1  -9.978934850205607E1   3.997871330686394E-2  -1.828041259496759E1  
 1.660360360360360E8    -3.186383324139874E-1  -1.975515026475055E1  -3.983322341560869E1   8.939411979716940E1  -3.822491629121510E1   9.994467498037929E1   1.606629435513076E-1  -1.472292876837376E1  
 1.790390390390391E8    -1.180612294573358E-1  -2.462595233164687E1  -3.743647673709640E1   5.597184833199608E1  -4.323463712110117E1   8.946125044651039E1   4.439321285081914E-1  -2.143984943053588E1  
 1.920420420420421E8     7.593536886441348E-1  -3.046999890781746E1  -5.881290919630454E1  -1.589521927815125E2  -4.739876792188290E1  -2.124935018899227E1  -3.637292148787003E-1  -2.192758717758016E1  
 2.050450450450451E8     3.308331783729155E-1  -2.661058176970770E1  -3.627847149088677E1   5.292311817722669E1  -3.864263658544532E1   6.989225961079434E1   3.097900498377936E-1  -2.617470234410397E1  
 2.180480480480481E8    -4.867991898327135E-1  -3.167174584508491E1  -5.150395293714978E1   2.486405390760269E-1  -4.594043599890976E1   9.425193857603149E1   1.098858113802224E-1  -2.519074931198739E1  
 2.310510510510511E8    -6.802198906185981E-1  -2.969755808211308E1  -4.442708731125600E1   5.057681563493541E1  -6.736371308599045E1   8.420665438972064E1  -8.530763549374701E-2  -3.016032360973458E1  
 2.440540540540541E8     2.552555943360295E-1  -3.598079759156907E1  -4.681304667226875E1   7.101870124930957E1  -4.403845079070162E1   2.214822509552026E1   2.188485088509491E-3  -3.065066752190668E1  
 2.570570570570571E8     1.290176643462983E-1  -3.483911946430278E1  -4.647516410853624E1   8.754497773812304E1  -4.097153266493735E1   3.661771399322465E1  -3.563286890786199E-1  -3.237051983746338E1  
 2.700600600600600E8    -6.141803211705228E-2  -3.385062881015018E1  -4.314310148668579E1   7.056291329239380E1  -4.596242716803462E1   5.548609123339400E1   1.511378362219492E-1  -3.885034425817214E1  
 2.830630630630631E8     1.535449076664040E-2  -3.491598137024693E1  -4.195921033918016E1   6.435345684140017E1  -4.024387162830924E1   5.634762741185281E1  -6.594243763870557E-2  -3.897312572239244E1  
 2.960660660660661E8     9.365888882151260E-2  -3.991264266859299E1  -5.079497850421283E1   1.272358557064883E1  -3.884730108981363E1   4.420533889043468E1  -1.796666055259932E-1  -3.718884724561199E1  
 3.090690690690691E8    -2.372915777961089E-1  -4.292493492761230E1  -4.453232304125094E1   3.654183226823207E1  -4.048679199365452E1   5.286113318339397E1  -1.587394682329488E-1  -3.976404029756252E1  
 3.220720720720721E8    -2.277105738189309E-1  -4.271336564238585E1  -4.347708410380684E1   8.012916429701743E1  -5.034115208444768E1   7.841955796067033E1  -3.790663936230073E-1  -4.269673885396300E1  
 3.350750750750751E8    -2.460124606803680E-1  -4.409046507603701E1  -4.109945691942441E1   1.507398361126388E1  -3.771163156337775E1   6.263016284841248E1   3.135126507023886E-2  -4.371709506905325E1  
 3.480780780780781E8    -6.524567045590789E-2  -4.303884611290626E1  -4.073456773376844E1   4.867357366135665E1  -3.986476302628625E1   2.594839119495513E1   2.945314594539183E-1  -4.567341200145582E1  
 3.610810810810811E8    -4.858434753396514E-1  -4.716998042359290E1  -3.831663402264474E1   4.517331945537232E1  -3.821738847712282E1   1.059917061442237E1  -1.258165068667434E-1  -4.762188266430209E1  
 3.740840840840841E8    -4.913459444586917E-1  -5.013836374010676E1  -4.153094148278522E1   4.609446520975387E1  -3.839532258008371E1   4.058578577477158E1  -2.402526446571864E-1  -4.851091302552021E1  
 3.870870870870871E8    -8.836122472582746E-2  -5.098117027123303E1  -3.911407092655503E1   3.136135701757951E1  -3.899529460855054E1   1.307479265147081E1  -1.996058728145629E-1  -5.082846993509211E1  
 4.000900900900901E8    -2.244566891201925E-1  -5.246344245403749E1  -3.665479572086367E1   2.314107405357897E1  -4.045314668148390E1   6.435812507437341E1  -5.296532628042892E-1  -5.258363734504933E1  
 4.130930930930931E8     5.883292180797173E-2  -5.373333507092810E1  -3.561321540131370E1   2.478754339400109E1  -3.765489055374322E1   3.861574880323306E1  -1.237770592584724E-1  -5.523533351272260E1  
 4.260960960960961E8    -8.420359962283494E-2  -5.361175737278931E1  -3.942195977860752E1   2.843078910901141E1  -4.017109030469498E1   5.889775546728874E1  -9.774238212549787E-2  -5.844854493173040E1  
 4.390990990990991E8     8.871585095855689E-2  -5.635753010881894E1  -3.858076329172560E1   3.599530675941080E1  -3.844983360872929E1   2.761984672098605E1  -1.942091532434604E-1  -5.844539950918750E1  
 4.521021021021021E8    -1.116124442888018E-1  -5.923338540483756E1  -3.832961370440677E1   3.057557546932653E1  -3.709626551518850E1   4.358961485372602E1   1.691402557821346E-1  -5.947369563973306E1  
 4.651051051051051E8    -1.303441638046985E-1  -6.076903373840356E1  -4.089471287755732E1   1.532016789901744E1  -3.744560233087157E1   3.803896033219449E1  -1.462978575594446E-1  -6.176411030541424E1  
 4.781081081081081E8    -2.838799675250790E-1  -6.354883439925793E1  -3.882951611271555E1   2.216655367943389E1  -3.780284267397409E1   2.320866143145665E1  -1.095882568103205E-1  -6.332836785806043E1  
 4.911111111111111E8    -3.564053552055875E-1  -6.597792242218719E1  -3.925136901481089E1   2.175821007525155E1  -3.630687320546691E1   2.708996661081225E1  -2.084973782883029E-1  -6.574737380074868E1  
 5.041141141141141E8     3.331976112949011E-2  -6.670917115297068E1  -3.523418073823563E1   1.765216143716292E1  -3.647208459718910E1   2.556392023206015E1  -1.295411826587653E-1  -6.780548680067572E1  
 5.171171171171171E8    -1.624615157261484E-1  -7.137181398568720E1  -3.607845558329667E1   3.422644468837721E1  -3.706727311832461E1   3.054598958840233E1  -1.465249407765509E-1  -6.730582391817063E1  
 5.301201201201201E8     7.075751363951052E-2  -7.142168403779743E1  -3.582281198707798E1   1.047170893792620E1  -3.779396853493356E1   2.319752523489828E1   3.808535744659154E-4  -6.931146373352142E1  
 5.431231231231232E8    -2.623128836113391E-1  -7.341885964800665E1  -3.938259403730498E1  -7.089268581542110  -3.789454505933669E1   1.033030704319202E1   5.085150144696606E-2  -7.251340526748025E1  
 5.561261261261262E8    -2.045367150140407E-1  -7.520277022297776E1  -3.533765903700699E1   6.784613937039306E-2  -3.758471128387681E1   1.547664666238999E1   1.897371375667586E-1  -7.496145198006451E1  
 5.691291291291292E8    -1.582763424618538E-1  -7.633639479136404E1  -3.559756308755114E1  -5.223978518470526  -3.729085703671751E1   1.699542683077867E1   1.348230406171944E-1  -7.748319027874763E1  
 5.821321321321322E8    -5.076272536257284E-2  -7.592202719643242E1  -3.660445916762824E1   1.160980856612027E1  -3.571798191349099E1   1.986756777702860  -8.888531554234387E-2  -7.824238150219712E1  
 5.951351351351352E8     8.221808425633261E-2  -7.749914147872406E1  -3.415775035950112E1   5.898425759174073  -3.505530547379196E1   1.251935107383434E1  -1.162008801537150E-2  -7.961008752577737E1  
 6.081381381381382E8    -7.328678318285219E-3  -7.910801069681322E1  -3.531891787287222E1   4.569239948605211  -3.629191486232811E1   6.203776276652509  -1.259729180096146E-1  -8.342795774055199E1  
 6.211411411411412E8     9.894512988365239E-2  -8.238702261398295E1  -3.470549193523084E1   3.707077696931039  -3.616368274938042E1   8.728958568824112  -6.421315809936503E-3  -8.391203484914448E1  
 6.341441441441442E8    -9.581201523951748E-2  -8.439070597811933E1  -3.423794007334006E1  -2.107991435601023  -3.533360804584405E1   5.832718043077468  -7.440421129802315E-2  -8.424573124062138E1  
 6.471471471471472E8    -3.052114603471780E-1  -8.570780338473794E1  -3.384563505520108E1   1.044996409479585E1  -3.468484583166001E1   1.039772007859459E1  -1.221166186244305E-1  -8.532570546294805E1  
 6.601501501501502E8    -2.807825417323575E-2  -8.773866794980413E1  -3.434996790090757E1  -7.247583955212753  -3.401787955307905E1   6.730299065111344  -1.699837445292978E-1  -8.686196428880264E1  
 6.731531531531532E8    -2.394971861955567E-1  -8.999529232607360E1  -3.390037609532197E1  -1.156418829948497E1  -3.448164663451392E1   6.934446776523163  -3.265816978847894E-1  -8.910499403676894E1  
 6.861561561561562E8    -1.398303282648450E-3  -9.068998624105754E1  -3.454170095678831E1  -9.470456489338673  -3.483571003871845E1  -1.828158555658381  -2.153109863283546E-1  -9.125510873705284E1  
 6.991591591591592E8     8.093350743673379E-2  -9.384128284099876E1  -3.225034854502069E1  -1.168182967284829E1  -3.315208441058540E1  -5.377082497372859  -1.529439884724579E-1  -9.480024723462368E1  
 7.121621621621622E8     7.303089306680231E-2  -9.539109846458176E1  -3.389893050979630E1  -1.863128875219392  -3.313083303600882E1  -4.408719500766535  -3.705078745543376E-2  -9.556442156909331E1  
 7.251651651651652E8    -1.825219352072831E-1  -9.523157030831098E1  -3.409006663621809E1  -2.757342209950561  -3.386895392195415E1  -5.804020581385038  -1.559609679646960E-1  -9.754700466832063E1  
 7.381681681681682E8    -4.304759195446395E-2  -9.699844012712683E1  -3.277063219878510E1  -1.652677194225353E1  -3.321363718219862E1  -1.072925378820813E1  -1.656053849016126E-1  -9.920327422981545E1  
 7.511711711711712E8    -1.745697432989621E-1  -9.966063816732958E1  -3.223257685295795E1  -1.349211856787794E1  -3.413421053218488E1  -1.343423556781327E1  -1.917631017112287E-1  -1.000942198071935E2  
 7.641741741741742E8    -2.588627713030878E-1  -1.010686886901737E2  -3.233216700250765E1  -1.876011032473570E1  -3.336976557732163E1  -1.820463402321580E1  -1.959810600129646E-1  -1.014304560478023E2  
 7.771771771771772E8    -1.084629038503572E-1  -1.011708526918577E2  -3.314602830512410E1  -1.754889700302745E1  -3.327157502618514E1  -2.075402843613300E1  -6.598393367902118E-2  -1.046409177899215E2  
 7.901801801801802E8    -2.632826432707159E-1  -1.032677376549509E2  -3.229148710931020E1  -1.468623169708390E1  -3.326799119348475E1  -1.926114231057997E1  -3.530560714136350E-1  -1.068026444045493E2  
 8.031831831831832E8    -1.569018603476381E-1  -1.056741235302440E2  -3.293645943880632E1  -2.153522553472804E1  -3.197406898780647E1  -2.380159726765443E1  -3.318807506080001E-1  -1.078821707418942E2  
 8.161861861861862E8    -7.214401528657778E-2  -1.082204987787062E2  -3.255685917305181E1  -1.630824128385428E1  -3.338154610519207E1  -1.899572484421732E1  -3.154305020321122E-1  -1.094661781081239E2  
 8.291891891891892E8    -2.863500149065710E-1  -1.087928583569999E2  -3.261213412853151E1  -2.097358288610315E1  -3.218223023306121E1  -2.452364265682686E1  -2.680399321018280E-1  -1.101731433864767E2  
 8.421921921921922E8    -2.129836740390779E-1  -1.109246612558218E2  -3.144867476066862E1  -1.942948147082062E1  -3.134386300953856E1  -2.228285141606561E1  -1.838700311651511E-1  -1.120987781011451E2  
 8.551951951951952E8    -6.967083516576679E-2  -1.128318531851751E2  -3.181271475769041E1  -2.600077657883362E1  -3.211530792024962E1  -2.113900153603336E1  -2.312128503037751E-1  -1.136754525574469E2  
 8.681981981981982E8    -8.796492107241807E-2  -1.156814725327418E2  -3.130416393822170E1  -3.041191118825248E1  -3.110307661366995E1  -2.405675137230826E1  -2.423486444580614E-1  -1.157019306426509E2  
 8.812012012012012E8    -5.423648139561588E-2  -1.164623100807619E2  -3.069059828866441E1  -2.809098408596070E1  -3.205381494825845E1  -2.737866742320095E1  -2.450278980931743E-1  -1.181218805032122E2  
 8.942042042042042E8    -8.179438913763641E-2  -1.188820702963238E2  -3.156762419094013E1  -3.084912461264802E1  -3.214252819152492E1  -2.100863870796631E1  -2.252806044168095E-1  -1.196735432150310E2  
 9.072072072072072E8    -1.297602220918210E-1  -1.199813974262293E2  -3.107661331222331E1  -3.569862560667129E1  -3.141910038421969E1  -3.192305585469640E1  -1.944434744890591E-1  -1.219325911128384E2  
 9.202102102102102E8    -2.327856748119220E-1  -1.207520748283949E2  -3.040886706984608E1  -3.126962995682610E1  -3.084414151815890E1  -3.422761864399670E1  -1.195865002583547E-1  -1.232294951790642E2  
 9.332132132132132E8    -2.584838533820978E-1  -1.223458008158768E2  -3.215125339991020E1  -3.846411463203631E1  -3.081327514047712E1  -3.639791076759214E1  -1.043864117971651E-1  -1.243083182791610E2  
 9.462162162162162E8    -3.353739332483252E-1  -1.240882400734958E2  -3.135864108320039E1  -3.368343817960719E1  -3.056878254256294E1  -3.639568997705432E1  -2.282321272601340E-1  -1.265866984586403E2  
 9.592192192192192E8    -2.297347978511992E-1  -1.251170215520006E2  -3.079967255961273E1  -3.948383592936779E1  -2.988630969784512E1  -4.038248353613032E1  -1.880666863867042E-1  -1.272935072008680E2  
 9.722222222222222E8    -2.226762059091439E-1  -1.270089949549668E2  -3.060089338836412E1  -3.976652629775170E1  -3.019957656588500E1  -3.718436027679053E1  -1.886108078351072E-1  -1.295009393413037E2  
 9.852252252252252E8    -1.414006438905372E-1  -1.288522482456932E2  -2.905673114614564E1  -4.144473979803362E1  -3.006172340441825E1  -4.113283199663116E1  -2.007357167848027E-1  -1.320645651951695E2  
 9.982282282282282E8    -1.814770832335099E-1  -1.308321523668248E2  -3.020903837541542E1  -4.579007944573061E1  -2.994990746968020E1  -4.405503387386722E1  -1.316313810014533E-1  -1.338704700788755E2  
 1.011231231231231E9    -2.327067934716671E-1  -1.326699026831097E2  -2.993543036407130E1  -4.907356797522900E1  -3.017739515538573E1  -4.730032697584564E1  -3.340893816864956E-1  -1.342028550407707E2  
 1.024234234234234E9    -1.766526096234775E-1  -1.346137878687879E2  -2.928579531939061E1  -5.009230015491825E1  -2.948851212686603E1  -4.540648173456397E1  -2.649901131046357E-1  -1.359064325288362E2  
 1.037237237237237E9    -1.973439035251628E-1  -1.359419371784863E2  -2.998510760996032E1  -4.662278912005340E1  -2.986263119128790E1  -4.989968904102592E1  -3.183579725585078E-1  -1.381951948464921E2  
 1.050240240240240E9    -2.479304512649528E-1  -1.379625537346979E2  -2.848023991821179E1  -4.815230146810136E1  -2.986243732081067E1  -4.838965617731175E1  -3.168147606671828E-1  -1.402467811075821E2  
 1.063243243243243E9    -1.716831214095453E-1  -1.389780803369848E2  -2.940300216456448E1  -4.804012022263206E1  -2.957858943326199E1  -5.280014348570140E1  -2.002604839700843E-1  -1.410429985802566E2  
 1.076246246246246E9    -1.939827059652107E-1  -1.406532609250062E2  -2.885271758950381E1  -5.459393853043306E1  -2.914042162655857E1  -5.305833916115822E1  -1.659438291789271E-1  -1.440795621999729E2  
 1.089249249249249E9    -1.953916195016578E-1  -1.425980214332756E2  -2.855951576294896E1  -5.833166952417707E1  -2.902941285999402E1  -5.633740615068614E1  -2.733295818733374E-1  -1.464655418211917E2  
 1.102252252252252E9    -1.073992987977163E-1  -1.435282580768185E2  -2.843304190153675E1  -5.440960950688996E1  -2.863529353141196E1  -5.814870485697460E1  -1.830202515457028E-1  -1.473582095783162E2  
 1.115255255255255E9    -8.793541904789455E-2  -1.457016385506223E2  -2.879655721809315E1  -5.712357360885848E1  -2.850121213994104E1  -5.767667784839306E1  -1.886054363798591E-1  -1.495292515088110E2  
 1.128258258258258E9    -1.922060408735413E-1  -1.475720463859772E2  -2.865930904933384E1  -5.688528025855484E1  -2.832571620111545E1  -6.152367283788982E1  -2.238423418487650E-1  -1.504069876712048E2  
 1.141261261261261E9    -1.669665526589390E-1  -1.488566859837142E2  -2.848076184039216E1  -6.411326836660300E1  -2.812580618236855E1  -6.305673707047143E1  -3.393743193016088E-1  -1.520293718466298E2  
 1.154264264264264E9    -2.068152369451434E-1  -1.507242032525874E2  -2.846257557339715E1  -6.388508222476428E1  -2.824273605973525E1  -6.295652235291161E1  -3.016478842640058E-1  -1.548016360746335E2  
 1.167267267267267E9    -1.959020708004656E-1  -1.527693543945157E2  -2.799011632476951E1  -6.371097958638645E1  -2.831539572526607E1  -6.594920259627251E1  -2.960572666743451E-1  -1.564601390285375E2  
 1.180270270270270E9    -1.336327445400486E-1  -1.537094643655216E2  -2.847714409556929E1  -6.688060308238180E1  -2.831332403606359E1  -6.845678614842950E1  -3.385959256852329E-1  -1.585096724068208E2  
 1.193273273273273E9    -2.007682477226174E-1  -1.554412092494408E2  -2.770509571590800E1  -7.025036724072936E1  -2.807800886798291E1  -6.959667986985215E1  -3.792631646461843E-1  -1.594545516837551E2  
 1.206276276276276E9    -1.529879061179290E-1  -1.576627282447577E2  -2.763651247936832E1  -7.167879855448226E1  -2.778110086905496E1  -7.141179456506976E1  -3.435673777011286E-1  -1.611230700138569E2  
 1.219279279279279E9    -2.306005288978797E-1  -1.599084599167595E2  -2.726462764794617E1  -7.421194706565400E1  -2.739987579032835E1  -7.158828738708046E1  -2.413265403408719E-1  -1.626441842102221E2  
 1.232282282282282E9    -1.387022483630359E-1  -1.616122913037941E2  -2.737785851203677E1  -7.518611602786203E1  -2.757325658384106E1  -7.443240918668369E1  -2.379350408954597E-1  -1.646362221020455E2  
 1.245285285285285E9    -1.469974400002426E-1  -1.630101128026026E2  -2.738829115691985E1  -7.418216244066095E1  -2.759417609811954E1  -7.686933100018109E1  -3.292384750176308E-1  -1.664272120257174E2  
 1.258288288288288E9    -1.087785479457572E-1  -1.636410416218160E2  -2.751935432218789E1  -7.516005080031860E1  -2.745355591152827E1  -8.002491446077001E1  -2.387057509440342E-1  -1.682658931660448E2  
