#  HZ   S   DB   R     50.00 
! Rohde & Schwarz ZVA24 2Ports - Version 3.90 - 1145.1110k24 SN: 100222
! Date: 2019-05-03 15:00:00
! Measurements: S11 S21 S12 S22 
! 
 1.000000000000000E7    -9.810533153767702  -4.693940158356105E1  -2.117908304331611E1   3.353714820439992E1  -1.580847305770092E1  -3.967209014823813E1   2.198252828484380E-1  -2.322920535458429E1  
 2.300300300300300E7    -6.038344752851065E-1   4.235918231379992  -3.196781666147575E1  -6.478877638331488E1  -3.140510940205570E1  -1.425080346078313E1  -8.554268546846631E-1   1.746355369482795E1  
 3.600600600600600E7     4.790771490577478  -1.040186692881995  -3.097379693240802E1   5.992673006855884E1  -3.195739191242917E1   6.533174302647927E1  -2.253847287585558   1.081564457249467E1  
 4.900900900900901E7     1.455351505762399  -8.463580863795182E-1  -5.516768936717875E1   1.166369428156226E1  -3.487599649773351E1  -1.289071231896553E2  -3.349924961409470   6.962772870641473  
 6.201201201201201E7     3.884883894010616E-1  -1.188285366081651E1  -3.213831238827998E1   1.275214533983964E2  -3.484238837857002E1  -3.562094806621057E1   1.465745782765207E-1  -1.077226422461377E1  
 7.501501501501501E7     2.265379674477344  -6.304281305691509  -3.749314906005802E1   4.134016417290895E1  -5.412889973724557E1   9.538568230792075E1  -2.726838499501498E-1  -1.120463259386115E1  
 8.801801801801802E7     3.111919775219159E-1  -1.871182384681487E1  -3.934392685364100E1   1.122055011760568E2  -3.919278646455636E1  -5.846049774712107E1   4.175493552157990E-1  -6.221047419762972  
 1.010210210210210E8     5.423687836690161E-1  -1.374191241048734E1  -3.043040510083336E1   1.614423669638410E2  -3.584879127908408E1  -1.349437646252403E2  -5.509663098177672E-2  -6.035072468692714  
 1.140240240240240E8     1.822020773961646  -1.089671356265278E1  -3.423460989379230E1   3.653976747345739E1  -4.112272996901474E1  -1.213749834362190E2  -7.282035394776677E-1  -9.513027625124382  
 1.270270270270270E8     3.467977994478216E-1  -1.814123988199932E1  -4.290208674757999E1   3.948947798334098E1  -4.168847416638293E1   2.414133973370274E1  -2.840533067649508E-1  -1.432189670317738E1  
 1.400300300300300E8    -5.768537821072470E-2  -1.703182500749326E1  -4.049312413999049E1   8.085147061756729E1  -4.918517862345752E1  -1.587141604250642E2   2.829097982831709E-1  -1.386052454306084E1  
 1.530330330330330E8     3.875923711432620E-3  -1.867300520916339E1  -4.644925074199696E1   3.939816238019751E1  -4.439640110232589E1   7.316239777783527E1   2.329010776155657E-1  -1.639426831985724E1  
 1.660360360360360E8     6.924717802781080E-2  -1.903487197601873E1  -4.455885426349769E1  -1.572654559619772E1  -4.313314041493012E1  -9.274272477190209E1  -9.654950546598079E-2  -1.528753444517958E1  
 1.790390390390391E8    -1.673259298562284E-1  -2.272424502582591E1  -4.108590704448340E1   5.254358378930306E1  -4.300976603480287E1   9.548371492284377E1   2.917944508422929E-1  -1.636730185299298E1  
 1.920420420420421E8     1.332816723654854E-1  -2.467168669911910E1  -4.799066754456344E1   1.683907395952298E2  -5.127370577647977E1   1.151675071420106E2   4.425702379485167E-1  -2.236617593887943E1  
 2.050450450450451E8     7.045713530188192E-1  -2.598083701150917E1  -3.470736137811282E1   7.173852212530494E1  -4.635170480204395E1   5.350135740349771E1  -2.217638078755049E-1  -2.169845462511132E1  
 2.180480480480481E8     9.281417901408881E-2  -2.907861423821037E1  -5.230215345799643E1   1.635091532029200E2  -4.155258523256243E1   8.162592378457271E1   1.992076564883800E-2  -2.624587136965944E1  
 2.310510510510511E8     8.923957408161756E-2  -3.361389788848113E1  -4.283711516643182E1   3.294682728210743E1  -4.200294731817766E1   7.066422991004619E1  -3.921661926967374E-1  -2.374713493835515E1  
 2.440540540540541E8    -1.402445283003301E-1  -3.387935722690273E1  -6.158134117013382E1  -1.183822126559558E2  -4.096435873151924E1   6.171207957300206E1  -6.071686485768461E-2  -2.814415646789757E1  
 2.570570570570571E8     4.700267492786522E-1  -3.136896134217556E1  -5.138628944202032E1   9.838323019303779E1  -4.349212857205216E1   2.161525894687222E1  -3.245669421109944E-1  -3.230548603814421E1  
 2.700600600600600E8    -8.178389742314887E-2  -3.271270248640651E1  -5.000108515172914E1   3.599331224042059E1  -4.895619915168942E1   1.233002081203974E2  -1.977742182071123E-2  -3.271578638122462E1  
 2.830630630630631E8     4.674734781945408E-2  -3.683052439296617E1  -4.552180481933133E1   5.021468140521107E1  -5.014845462562481E1  -2.258757811618095E1   5.397547120141258E-2  -3.569151991857071E1  
 2.960660660660661E8     1.596843269755473E-2  -3.911401547924906E1  -4.527728496710056E1  -6.030847723049872  -4.230304360192360E1   5.840901596686948E1  -1.444742343944642E-1  -3.431225419161813E1  
 3.090690690690691E8     2.729170121899306E-1  -4.257543874247921E1  -4.513662593409353E1   1.886073647261554E1  -4.584875561197259E1   5.828562356711546E1  -2.883356109464429E-1  -3.654350664459690E1  
 3.220720720720721E8     2.319264004088287E-2  -4.298759200688892E1  -4.477502395694784E1   6.717123645806319E1  -4.325460321999287E1   5.177485208309415E1  -4.247113171923708E-1  -3.930575559204728E1  
 3.350750750750751E8    -1.216352104218426E-1  -4.176397528938453E1  -4.750100143209775E1   7.575727997917970E1  -4.388788716795315E1   2.189547294518252E1  -1.855644418778629E-1  -4.047501956794741E1  
 3.480780780780781E8    -1.258402555666890E-1  -4.318537290501716E1  -4.747030147755723E1   2.636582841664720E1  -4.083168657301225E1   5.539426173550714E1   3.209054786527850E-1  -4.208658147484843E1  
 3.610810810810811E8    -5.485012600597744E-1  -4.745761028134623E1  -4.156569674570877E1   7.576170055664480E1  -4.136403976352137E1   6.095930045087373E1  -1.704865815123514E-1  -4.430447121657698E1  
 3.740840840840841E8    -2.205421934499522E-1  -5.077835212637924E1  -4.798255909717145E1   8.589666994305947  -4.011809824935763E1   4.050437656511664E1  -1.142813922630495E-1  -4.469788498947435E1  
 3.870870870870871E8    -1.079144670145344E-1  -5.242047057562163E1  -3.958606945362319E1   3.916142917850396E1  -4.128399652373263E1   5.424571935501747E1  -1.344225569613213E-1  -4.681110679183134E1  
 4.000900900900901E8    -2.820261096687249E-1  -5.157419900305855E1  -4.178236000688062E1   4.083771987385794E1  -4.472862112784680E1   1.397178913046076E1  -3.208961938108146E-1  -4.767524929471188E1  
 4.130930930930931E8     1.531891833937018E-1  -5.139429987338522E1  -4.397727221493963E1   1.292005266618021  -3.947913368722703E1   3.534709882383541E1  -3.769790702320638E-1  -4.993771481467572E1  
 4.260960960960961E8    -3.181668189887491E-1  -5.446885719578794E1  -4.503582247348577E1   4.024596245402505E1  -4.049725488397530E1   4.866350121117895E1  -1.209352872496148E-1  -5.211533426385707E1  
 4.390990990990991E8     8.834705436701124E-2  -5.697480297467845E1  -4.449969252496408E1   1.900254058276929E1  -4.273197889404436E1   4.230902510169351E1  -3.443129527638497E-1  -5.243483481107773E1  
 4.521021021021021E8    -1.901235434537866E-1  -5.865096333317151E1  -4.755340204967602E1   7.265331261051552  -4.124341903125294E1   2.748454946856403E1  -1.117357308370595E-1  -5.348530315417433E1  
 4.651051051051051E8    -3.087791836906499E-1  -6.215637239443056E1  -4.124201756162567E1   6.839765687046253E1  -4.576591357226671E1   8.723036349804847   4.792680188658087E-2  -5.608170319482017E1  
 4.781081081081081E8    -1.434492124353063E-1  -6.451086890245726E1  -4.236741847791982E1   3.381448179112082E1  -4.129026846747888E1   3.690855515689920E1   1.694448109692088E-2  -5.712130587487028E1  
 4.911111111111111E8    -3.792307792650225E-1  -6.522577860150419E1  -4.269587085385535E1   3.517606994493576E1  -3.936719069361649E1   3.894512383203169E1  -2.122647103023436E-1  -5.857347078001332E1  
 5.041141141141141E8    -1.377595104804848E-1  -6.839966927238329E1  -4.031134911057139E1   7.813252637364735  -4.050476869091501E1   1.527285226364832E1  -1.257388060503980E-1  -6.067793713535583E1  
 5.171171171171171E8    -1.196013511468897E-2  -7.144334900399298E1  -4.217889591120365E1   2.861782824543864E1  -4.354779036924891E1   4.274277619314279E1  -1.343807544887403E-1  -6.188435904480743E1  
 5.301201201201201E8    -6.111257678328524E-2  -7.239498258554163E1  -4.367548112375868E1   5.195313083397714E1  -4.248584455222948E1   3.230198520758132   4.428176935622249E-3  -6.289124470982773E1  
 5.431231231231232E8    -8.033301006458608E-3  -7.292470961169708E1  -4.146230475917243E1   1.153801498978443E1  -3.989823011188868E1   4.143185011741242E1  -1.255278811471656E-1  -6.514025404633790E1  
 5.561261261261262E8    -1.238855338137337E-1  -7.482503798772757E1  -4.794435823246901E1  -1.741491741013797E1  -3.696658766350771E1   6.817580232791165   1.263964532271216E-1  -6.680666267397461E1  
 5.691291291291292E8    -2.716189297858770E-1  -7.650235362101535E1  -3.608412041748272E1   3.695701058276836E1  -3.772379758719675E1   1.354314778224262E1   8.912496803756516E-2  -7.009326646182693E1  
 5.821321321321322E8    -1.141960691398102E-1  -7.657551805124062E1  -3.877825296711109E1   1.327824684087717E1  -4.127597224086643E1   3.137582826025952E1   3.445487706860802E-2  -7.016817111734420E1  
 5.951351351351352E8    -1.063113678693081E-1  -7.915491946547368E1  -3.888328800170166E1   2.723905657554828E1  -4.163943297747188E1  -2.298616939424867  -1.207309675496716E-1  -7.217562631212418E1  
 6.081381381381382E8     1.199908681332487E-1  -8.202281777758252E1  -4.019990612645486E1   2.390461949616206E1  -4.145953427467742E1   7.341032429788417  -6.730823121915622E-2  -7.399073410098154E1  
 6.211411411411412E8    -1.128560107822449E-1  -8.409117270221937E1  -3.869046160374651E1   2.650675700625939E1  -3.972353696385016E1   1.157549505487614E1  -1.499385494029401E-2  -7.532183138261462E1  
 6.341441441441442E8    -2.417022837239244E-1  -8.514683662281165E1  -3.981840538482407E1   1.727454137314454E1  -4.043255709066175E1  -6.583482207954957E-1  -1.384933516776651E-1  -7.594350103267175E1  
 6.471471471471472E8    -1.641728588491174E-1  -8.748329872297889E1  -4.114545764073503E1   1.028056570766057E1  -4.032514240309499E1   6.838023695122555   5.563560366051665E-2  -7.661239556640551E1  
 6.601501501501502E8    -2.126509275785291E-1  -8.856440902151192E1  -4.095174662680527E1  -6.451121683645730  -4.104792512865786E1  -1.582294301584106E1  -1.690056958790569E-1  -7.896147430789213E1  
 6.731531531531532E8    -1.994093735964852E-1  -9.135542911416042E1  -3.747115091155721E1   9.651443746157865  -3.928469611371100E1  -2.682304571326912  -8.074891042128325E-2  -8.055840418189771E1  
 6.861561561561562E8    -1.412941095265083E-1  -9.312804578785588E1  -3.821062429093283E1   8.400446088297537  -3.999172509729235E1  -1.356827710147130  -2.075290347988107E-1  -8.129721459297804E1  
 6.991591591591592E8    -9.766936283272470E-2  -9.445373345922091E1  -3.689812985327127E1  -1.896264260846625  -3.845454488031211E1   1.065726152436385E1  -5.378873842463611E-2  -8.359365267057164E1  
 7.121621621621622E8     7.212851696565151E-2  -9.624328199430632E1  -3.683263106072352E1   1.169006279125048E1  -3.755323495589729E1   7.865857076125044  -1.565690996948371E-1  -8.603086485258902E1  
 7.251651651651652E8    -8.038755742799858E-2  -9.734367779735020E1  -4.019315648503928E1  -9.273129096239989E-1  -3.689774685263564E1   4.400303038149458  -1.757705972371594E-1  -8.832576199271173E1  
 7.381681681681682E8     8.563782393930746E-3  -9.994275204669131E1  -3.617632455592117E1  -1.004629988803380E1  -3.874021365621785E1   1.750850066625796  -8.387198077301439E-2  -8.936643156181737E1  
 7.511711711711712E8    -1.738245419709366E-1  -1.018798638279313E2  -3.813775532866033E1  -1.270356768476181E1  -3.832092950175101E1  -1.894184926010740  -1.169630564738852E-1  -8.967855715063267E1  
 7.641741741741742E8    -2.989765246478430E-1  -1.032354154407778E2  -3.849813769269073E1  -2.766359488925681E1  -3.647029755723075E1  -5.726733757612216  -5.925254972689409E-2  -9.157587876161600E1  
 7.771771771771772E8    -4.098102075809951E-1  -1.033133132591360E2  -3.866950705690589E1  -7.768236031222566  -3.503160575409746E1   2.205521721511738  -2.484501319408223E-2  -9.422537781959923E1  
 7.901801801801802E8    -1.709178754153103E-1  -1.054758651466026E2  -3.725424024662581E1  -2.076958266656678E1  -3.648750888780418E1  -1.661280540563910E1  -1.968925155514416E-1  -9.519887710485891E1  
 8.031831831831832E8     2.448976571417118E-2  -1.092779918275778E2  -3.698039486413754E1  -3.191815776544004E1  -3.597146735139238E1  -3.035711839878536E1  -2.161312820483489E-1  -9.687374283983402E1  
 8.161861861861862E8    -1.887416042425938E-1  -1.109191379783770E2  -3.794597106791945E1  -2.675874830807199E1  -3.592451550736448E1  -1.784019934102322E1  -3.295831023114211E-1  -9.864912727508572E1  
 8.291891891891892E8    -3.178189277446650E-1  -1.124947936422942E2  -3.580606175113835E1  -1.359031501617272E1  -3.940259007484266E1  -1.202300462162477E1  -3.475717961316631E-1  -9.874443647557202E1  
 8.421921921921922E8    -1.446780517713686E-1  -1.141314370530159E2  -3.628901719159691E1  -2.118768097918505E1  -3.565912862162767E1  -1.758867045459952E1  -1.186396447747371E-1  -1.001500667432691E2  
 8.551951951951952E8    -5.920935175672158E-2  -1.161592456743941E2  -3.623280668784985E1  -1.501688439484932E1  -3.656420683220451E1  -1.511550097257502E1  -2.303676436378753E-1  -1.022819772196102E2  
 8.681981981981982E8    -3.680175560254733E-2  -1.174884416246708E2  -3.594610896926423E1  -2.451340177347401E1  -3.584936438710351E1  -2.075710140824116E1  -2.381625220457085E-1  -1.034147547543164E2  
 8.812012012012012E8    -1.084190829009724E-1  -1.200484404968113E2  -3.650925792799716E1  -2.086422047840270E1  -3.603289619280227E1  -2.389595887497210E1  -2.054105214647508E-1  -1.045298279388167E2  
 8.942042042042042E8     6.641553087291899E-2  -1.216989890212083E2  -3.542088482172750E1  -2.761680936079299E1  -3.625808887461529E1  -3.665168580386268E1  -1.908205004232473E-1  -1.080995265448048E2  
 9.072072072072072E8    -1.542988699239373E-1  -1.235193514323081E2  -3.590989620809735E1  -3.074324263817222E1  -3.477457127612671E1  -3.167245918981007E1  -1.137118427441660E-1  -1.098166405899680E2  
 9.202102102102102E8    -3.428942635412288E-1  -1.249747274095644E2  -3.537265344536801E1  -2.736865130449193E1  -3.545392903690019E1  -3.962305847838731E1  -5.130126480139562E-2  -1.095950653841254E2  
 9.332132132132132E8    -3.194926491786010E-1  -1.271709768521394E2  -3.607447637437604E1  -2.395400219520987E1  -3.604773233159079E1  -3.206691004856418E1  -1.962472703465863E-1  -1.110906418878626E2  
 9.462162162162162E8    -2.454459277935925E-1  -1.277485312924476E2  -3.445124197866259E1  -4.082421942328010E1  -3.481332514503879E1  -3.875631266420995E1  -1.602541578463903E-1  -1.124436190973864E2  
 9.592192192192192E8    -3.196741340589863E-1  -1.298142907112054E2  -3.535550942010666E1  -2.761137315169195E1  -3.364160202467102E1  -3.011154290269798E1  -2.376508924491066E-2  -1.138227117318816E2  
 9.722222222222222E8    -2.524137036540446E-1  -1.319428462377948E2  -3.446723161452777E1  -3.530086429408333E1  -3.378011423084888E1  -3.136237941488637E1  -1.845973203989885E-2  -1.157958867053521E2  
 9.852252252252252E8    -2.116400901196971E-1  -1.337941412646107E2  -3.392849151340026E1  -3.279285682191159E1  -3.426181479440601E1  -3.525042401905689E1  -7.451558649447931E-2  -1.178911810612501E2  
 9.982282282282282E8    -2.163886799371486E-1  -1.355417274089362E2  -3.436114130456846E1  -4.097644459659019E1  -3.436135366832146E1  -4.017411670203607E1  -9.635785835244363E-2  -1.199623905758397E2  
 1.011231231231231E9    -2.836287060661941E-1  -1.375330774065165E2  -3.461120872003080E1  -4.049779284539022E1  -3.330622341562494E1  -3.948585398301422E1  -1.811005538698934E-1  -1.200494999572300E2  
 1.024234234234234E9    -1.021311799638882E-1  -1.390831096087697E2  -3.304867841958261E1  -4.385283661477826E1  -3.442261576377671E1  -3.305156229070921E1  -2.104182228872945E-1  -1.207706105178396E2  
 1.037237237237237E9    -3.221305637211487E-1  -1.415596023037075E2  -3.467903928933963E1  -3.947335854651630E1  -3.346691298083500E1  -3.803964146543704E1  -1.056045479531102E-1  -1.237157671703621E2  
 1.050240240240240E9    -2.799438653113636E-1  -1.428719199030946E2  -3.422037719693955E1  -3.940807593404708E1  -3.536394769031264E1  -4.101874735030612E1  -1.809863206220242E-1  -1.250142433185777E2  
 1.063243243243243E9    -2.283538646093246E-1  -1.442297319255908E2  -3.370640192850728E1  -4.342683874704142E1  -3.356396576143804E1  -4.544999556913376E1  -5.238722741972773E-2  -1.255669720627144E2  
 1.076246246246246E9    -1.887244649107053E-1  -1.468608534014479E2  -3.345363102280166E1  -4.907191070926810E1  -3.394967353390489E1  -5.017243847824652E1  -1.346181588510581E-1  -1.278128552614981E2  
 1.089249249249249E9    -2.299562951659489E-1  -1.481843299424134E2  -3.345784850217165E1  -5.088782645647562E1  -3.266951818282126E1  -4.867529632614250E1  -8.291950950701366E-2  -1.306336320176337E2  
 1.102252252252252E9    -1.374077188126585E-1  -1.497985444106244E2  -3.305971514682754E1  -5.331631751490641E1  -3.300784863135161E1  -5.232346694898498E1  -5.222088501193881E-2  -1.320013874692388E2  
 1.115255255255255E9    -1.476633588958522E-1  -1.514589188524980E2  -3.368996870052526E1  -4.744610639677213E1  -3.248108712869091E1  -5.252407536850471E1  -1.390611632373999E-2  -1.329418603907375E2  
 1.128258258258258E9    -1.609500480165974E-1  -1.536545143222706E2  -3.329184910599847E1  -5.401115025107645E1  -3.303452094175741E1  -6.049496156459340E1  -5.627510687418733E-2  -1.340692958924906E2  
 1.141261261261261E9    -2.134373630465943E-1  -1.556516393881624E2  -3.260426440046808E1  -5.691546306993271E1  -3.246729503270371E1  -5.908095700406005E1  -1.288099080354381E-1  -1.355902789852999E2  
 1.154264264264264E9    -2.746973574106473E-1  -1.579915045650492E2  -3.241493820332070E1  -6.000107863154994E1  -3.220893658181186E1  -5.840866882208142E1  -1.020246873260523E-1  -1.375039840582938E2  
 1.167267267267267E9    -1.916594661794613E-1  -1.595206188672433E2  -3.137834330826562E1  -5.698453409634466E1  -3.192513176961366E1  -5.906577717585404E1  -1.101845640888686E-1  -1.394284151930442E2  
 1.180270270270270E9    -2.422771342192014E-1  -1.615736619550570E2  -3.151231389296574E1  -5.903237932530882E1  -3.286726493975301E1  -5.642737416097675E1  -3.283492536398886E-1  -1.407388423473429E2  
 1.193273273273273E9    -2.688010624663002E-1  -1.631676277675812E2  -3.172322449945906E1  -6.724804773587860E1  -3.219707020570337E1  -6.258178665114227E1  -3.282466624553939E-1  -1.420322176329024E2  
 1.206276276276276E9    -8.791952258878942E-2  -1.653465347544559E2  -3.182781953061017E1  -6.556368991722079E1  -3.256882315724007E1  -6.785037585337892E1  -1.653872682755003E-1  -1.434531380056517E2  
 1.219279279279279E9    -1.350624464426707E-1  -1.681502322477558E2  -3.176239494153843E1  -6.966871498108880E1  -3.183363765989379E1  -7.073441992483703E1  -8.673639827136893E-2  -1.452307842601158E2  
 1.232282282282282E9    -1.318362852807310E-1  -1.692703479418930E2  -3.202951719548804E1  -6.548810316639842E1  -3.096197690224600E1  -6.519144864516416E1  -7.563023160178227E-2  -1.465198943533177E2  
 1.245285285285285E9    -1.055466995335462E-1  -1.711996734604794E2  -3.139985628760202E1  -7.405417424383410E1  -3.178117340506521E1  -7.542611327541832E1  -9.239469135916416E-2  -1.482315973187855E2  
 1.258288288288288E9    -7.412404228376902E-2  -1.722161435870544E2  -3.036196898311074E1  -6.869556549983930E1  -3.120778167323350E1  -7.564384861169673E1  -1.121856410431176E-1  -1.496378534989472E2  
