CITIFILE A.01.01
#Momentum: B.11.40.482 (*) built: Dec  2 2014 
#Momentum Date and Time: Tue Sep 11 14:38:03 2018

NAME PortSet1

CONSTANT NBR_OF_PORTS 18

VAR freq MAG 2

DATA GAMMA_1[1] RI
DATA Z0_1[1,1] RI
DATA LAMBADAI_1[1,1] RI

VAR_LIST_BEGIN
	 42083139.73
	 1e+10
VAR_LIST_END

BEGIN
	 0 ,	 0 
	 0 ,	 0 
END
BEGIN
	 50 ,	 0 
	 50 ,	 0 
END
BEGIN
	 0 ,	 0 
	 0 ,	 0 
END
CITIFILE A.01.01
NAME PortSet2

VAR freq MAG 2

DATA GAMMA_2[1] RI
DATA Z0_2[1,1] RI
DATA LAMBADAI_2[1,1] RI

VAR_LIST_BEGIN
	 42083139.73
	 1e+10
VAR_LIST_END

BEGIN
	 0 ,	 0 
	 0 ,	 0 
END
BEGIN
	 50 ,	 0 
	 50 ,	 0 
END
BEGIN
	 0 ,	 0 
	 0 ,	 0 
END
CITIFILE A.01.01
NAME PortSet3

VAR freq MAG 2

DATA GAMMA_3[1] RI
DATA Z0_3[1,1] RI
DATA LAMBADAI_3[1,1] RI

VAR_LIST_BEGIN
	 42083139.73
	 1e+10
VAR_LIST_END

BEGIN
	 0 ,	 0 
	 0 ,	 0 
END
BEGIN
	 50 ,	 0 
	 50 ,	 0 
END
BEGIN
	 0 ,	 0 
	 0 ,	 0 
END
CITIFILE A.01.01
NAME PortSet4

VAR freq MAG 2

DATA GAMMA_4[1] RI
DATA Z0_4[1,1] RI
DATA LAMBADAI_4[1,1] RI

VAR_LIST_BEGIN
	 42083139.73
	 1e+10
VAR_LIST_END

BEGIN
	 0 ,	 0 
	 0 ,	 0 
END
BEGIN
	 50 ,	 0 
	 50 ,	 0 
END
BEGIN
	 0 ,	 0 
	 0 ,	 0 
END
CITIFILE A.01.01
NAME PortSet5

VAR freq MAG 2

DATA GAMMA_5[1] RI
DATA Z0_5[1,1] RI
DATA LAMBADAI_5[1,1] RI

VAR_LIST_BEGIN
	 42083139.73
	 1e+10
VAR_LIST_END

BEGIN
	 0 ,	 0 
	 0 ,	 0 
END
BEGIN
	 50 ,	 0 
	 50 ,	 0 
END
BEGIN
	 0 ,	 0 
	 0 ,	 0 
END
CITIFILE A.01.01
NAME PortSet6

VAR freq MAG 2

DATA GAMMA_6[1] RI
DATA Z0_6[1,1] RI
DATA LAMBADAI_6[1,1] RI

VAR_LIST_BEGIN
	 42083139.73
	 1e+10
VAR_LIST_END

BEGIN
	 0 ,	 0 
	 0 ,	 0 
END
BEGIN
	 50 ,	 0 
	 50 ,	 0 
END
BEGIN
	 0 ,	 0 
	 0 ,	 0 
END
CITIFILE A.01.01
NAME PortSet7

VAR freq MAG 2

DATA GAMMA_7[1] RI
DATA Z0_7[1,1] RI
DATA LAMBADAI_7[1,1] RI

VAR_LIST_BEGIN
	 42083139.73
	 1e+10
VAR_LIST_END

BEGIN
	 0 ,	 0 
	 0 ,	 0 
END
BEGIN
	 50 ,	 0 
	 50 ,	 0 
END
BEGIN
	 0 ,	 0 
	 0 ,	 0 
END
CITIFILE A.01.01
NAME PortSet8

VAR freq MAG 2

DATA GAMMA_8[1] RI
DATA Z0_8[1,1] RI
DATA LAMBADAI_8[1,1] RI

VAR_LIST_BEGIN
	 42083139.73
	 1e+10
VAR_LIST_END

BEGIN
	 0 ,	 0 
	 0 ,	 0 
END
BEGIN
	 50 ,	 0 
	 50 ,	 0 
END
BEGIN
	 0 ,	 0 
	 0 ,	 0 
END
CITIFILE A.01.01
NAME PortSet9

VAR freq MAG 2

DATA GAMMA_9[1] RI
DATA Z0_9[1,1] RI
DATA LAMBADAI_9[1,1] RI

VAR_LIST_BEGIN
	 42083139.73
	 1e+10
VAR_LIST_END

BEGIN
	 0 ,	 0 
	 0 ,	 0 
END
BEGIN
	 50 ,	 0 
	 50 ,	 0 
END
BEGIN
	 0 ,	 0 
	 0 ,	 0 
END
CITIFILE A.01.01
NAME PortSet10

VAR freq MAG 2

DATA GAMMA_10[1] RI
DATA Z0_10[1,1] RI
DATA LAMBADAI_10[1,1] RI

VAR_LIST_BEGIN
	 42083139.73
	 1e+10
VAR_LIST_END

BEGIN
	 0 ,	 0 
	 0 ,	 0 
END
BEGIN
	 50 ,	 0 
	 50 ,	 0 
END
BEGIN
	 0 ,	 0 
	 0 ,	 0 
END
CITIFILE A.01.01
NAME PortSet11

VAR freq MAG 2

DATA GAMMA_11[1] RI
DATA Z0_11[1,1] RI
DATA LAMBADAI_11[1,1] RI

VAR_LIST_BEGIN
	 42083139.73
	 1e+10
VAR_LIST_END

BEGIN
	 0 ,	 0 
	 0 ,	 0 
END
BEGIN
	 50 ,	 0 
	 50 ,	 0 
END
BEGIN
	 0 ,	 0 
	 0 ,	 0 
END
CITIFILE A.01.01
NAME PortSet12

VAR freq MAG 2

DATA GAMMA_12[1] RI
DATA Z0_12[1,1] RI
DATA LAMBADAI_12[1,1] RI

VAR_LIST_BEGIN
	 42083139.73
	 1e+10
VAR_LIST_END

BEGIN
	 0 ,	 0 
	 0 ,	 0 
END
BEGIN
	 50 ,	 0 
	 50 ,	 0 
END
BEGIN
	 0 ,	 0 
	 0 ,	 0 
END
CITIFILE A.01.01
NAME PortSet13/TwoP0_Dsolver_data/first_odd_mode_is_1/most_even_mode_is_1/PMLG4/LS0

VAR freq MAG 15

DATA GAMMA_13[1] RI
DATA Z0_13[1,1] RI
DATA LAMBADAI_13[1,1] RI
DATA Zcir_13[1,1] RI
DATA Ycir_13[1,1] RI

VAR_LIST_BEGIN
	 42083139.73
	 42503971.13
	 42924802.52
	 43345633.92
	 84583520.45
	 169167040.9
	 269166719.6
	 399501678
	 621511002.1
	 1017977692
	 1658674737
	 2645208471
	 4194861973
	 6690868970
	 1e+10
VAR_LIST_END

BEGIN
	 0.006374713313,	 1.490584463
	 0.00643863774,	 1.505449524
	 0.006502563897,	 1.520314181
	 0.006566491779,	 1.53517844
	 0.01283731733,	 2.990248582
	 0.02572323772,	 5.969160975
	 0.04098009016,	 9.485614023
	 0.06088666224,	 14.06344341
	 0.09482991833,	 21.85219526
	 0.1555123671,	 35.74366698
	 0.2536827172,	 58.16363252
	 0.4050082882,	 92.64562337
	 0.6430295383,	 146.760011
	 1.02724672684299078717629072344 ,	 233.877034287736137230240274221 
	 1.53854156153933341322215255786 ,	 349.403593885115242301253601909 
END
BEGIN
	 56.5344594726738520762410189491 ,	 0.24177881078570237494140826584 
	 56.5359909945723728696975740604 ,	 0.241798568951038184149382459509 
	 56.5375075503451043346103688236 ,	 0.241818134371403065108196983601 
	 56.5390094426617650924526969902 ,	 0.241837510313120424010335796083 
	 56.6422133180915707839631068055 ,	 0.243169038012137711524118799389 
	 56.7498074474088696206308668479 ,	 0.244555627093177657682687708984 
	 56.822237980207624730155657744 ,	 0.245485993985515654758344794573 
	 56.8840262575182009641139302403 ,	 0.246275799428956609915530862054 
	 56.9533888678022464091554866172 ,	 0.24715577181813949692035237149 
	 57.0310772412209914250524889212 ,	 0.248129381063618287273087048561 
	 57.1081906874389346739917527884 ,	 0.249079685635656439268714734681 
	 57.1822451825906981071057089139 ,	 0.249977057552841219756345481073 
	 57.2562658336784053858536935877 ,	 0.250867611812420843175885920573 
	 57.3341526826808731698292831425 ,	 0.251822746104658712340551574016 
	 57.4085512126096233487260178663 ,	 0.252780981204242027882145293916 
END
BEGIN
	 0.006374713313,	 1.490584463
	 0.00643863774,	 1.505449524
	 0.006502563897,	 1.520314181
	 0.006566491779,	 1.53517844
	 0.01283731733,	 2.990248582
	 0.02572323772,	 5.969160975
	 0.04098009016,	 9.485614023
	 0.06088666224,	 14.06344341
	 0.09482991833,	 21.85219526
	 0.1555123671,	 35.74366698
	 0.2536827172,	 58.16363252
	 0.4050082882,	 92.64562337
	 0.6430295383,	 146.760011
	 1.02724672684299078717629072344 ,	 233.877034287736108808530843817 
	 1.53854156153933341322215255786 ,	 349.403593885115242301253601909 
END
BEGIN
	 -2.03692842421725e-09 ,	 8.4597815151698e-10 
	 -2.0575286094034e-09 ,	 8.45978152517604e-10 
	 -2.07986621219951e-09 ,	 8.45978153527223e-10 
	 -2.10007935867729e-09 ,	 8.45978154722078e-10 
	 -4.79048295866716e-09 ,	 8.45978370391273e-10 
	 -8.27632210941703e-09 ,	 8.45978838137504e-10 
	 -1.31427512926538e-08 ,	 8.45979874270704e-10 
	 -1.93099802901081e-08 ,	 8.45981828208525e-10 
	 -2.91228730419507e-08 ,	 8.45986640087475e-10 
	 -4.28542213867789e-08 ,	 8.45999572265469e-10 
	 -4.86213420636261e-08 ,	 8.46031353342056e-10 
	 7.72015686795191e-09 ,	 8.46104509527838e-10 
	 3.62874734899377e-07 ,	 8.46273851182838e-10 
	 2.0270583878379e-06 ,	 8.4667421463812e-10 
	 7.58826483474029e-06 ,	 8.47426183834977e-10 
END
BEGIN
	 0.08495727165,	 3.75638489e-08
	 0.08580688252,	 3.756181359e-08
	 0.08665649344,	 3.755979833e-08
	 0.08750610436,	 3.755780273e-08
	 0.1707604222,	 3.742105886e-08
	 0.3415185212,	 3.727930228e-08
	 0.5433848858,	 3.718435908e-08
	 0.8064636149,	 3.710369939e-08
	 1.25452318444513011286289838608 ,	 3.70135791655958258465552112269e-08 
	 2.05450004510685779735013056779 ,	 3.69133607502763439171996880193e-08 
	 3.34691834048184633232381202106 ,	 3.68151120982257638707542098458e-08 
	 5.33648145036574739208390383283 ,	 3.672298370300158742318645381e-08 
	 8.46173426908322490191949327709 ,	 3.66354157673014779428131851638e-08 
	 13.4992859670336908806120845838 ,	 3.65532214591866431646522978948e-08 
	 20.1919294868994860792099643731 ,	 3.64909104998974612810143738646e-08 
END
CITIFILE A.01.01
NAME PortSet14/TwoP0_Dsolver_data/first_odd_mode_is_1/most_even_mode_is_1/PMLG4/LS0

VAR freq MAG 15

DATA GAMMA_14[1] RI
DATA Z0_14[1,1] RI
DATA LAMBADAI_14[1,1] RI
DATA Zcir_14[1,1] RI
DATA Ycir_14[1,1] RI

VAR_LIST_BEGIN
	 42083139.73
	 42503971.13
	 42924802.52
	 43345633.92
	 84416211.94
	 168832423.9
	 267697144.3
	 395902575.1
	 613882773.2
	 1002746943
	 1629395405
	 2590738351
	 4095295577
	 6509722363
	 1e+10
VAR_LIST_END

BEGIN
	 0.00677811985,	 1.534840661
	 0.006846094883,	 1.550145705
	 0.006914071804,	 1.565450319
	 0.006982050617,	 1.58075451
	 0.01362336563,	 3.072766459
	 0.02729984983,	 6.133504751
	 0.04334141552,	 9.712466953
	 0.0641670224,	 14.34803952
	 0.09961391466,	 22.22034706
	 0.1629244105,	 36.24586784
	 0.2650779365,	 58.81859041
	 0.422016378,	 93.4086536
	 0.6681190197,	 147.4997351
	 1.06437816331506174272192311037 ,	 234.278847987038091105205239728 
	 1.6405847638763577656106917857 ,	 359.819641790769821909634629264 
END
BEGIN
	 36.1713884552408799777367676143 ,	 0.159741238245334093992511270699 
	 36.1724002959781145705164817628 ,	 0.159754698740006112478440059022 
	 36.1734022514028410455466655549 ,	 0.159768028132434902754965833083 
	 36.1743945131194450937073270325 ,	 0.159781228424733551252145957733 
	 36.2423813535387253637054527644 ,	 0.160685866981586517043822937012 
	 36.3134765697774071213643765077 ,	 0.16163125296753988457965078851 
	 36.3609734137825455491110915318 ,	 0.162261320056239749520798909543 
	 36.4014189837742137001441733446 ,	 0.162795952844895341904418728518 
	 36.4468694860729627293949306477 ,	 0.163393717826202877763108745057 
	 36.497806651931504973163100658 ,	 0.164059095207481964173723554268 
	 36.5482169171384967398807930294 ,	 0.164714132054669587512663042617 
	 36.596334783139646162908320548 ,	 0.165342676586544667927114460326 
	 36.6440219337176529279531678185 ,	 0.165985288351411158780379651034 
	 36.6937733829761754122955608182 ,	 0.166707712891554477030453540465 
	 36.7454138001446324324206216261 ,	 0.167536518999128414275645582165 
END
BEGIN
	 0.00677811985,	 1.534840661
	 0.006846094883,	 1.550145705
	 0.006914071804,	 1.565450319
	 0.006982050617,	 1.58075451
	 0.01362336563,	 3.072766459
	 0.02729984983,	 6.133504751
	 0.04334141552,	 9.712466953
	 0.0641670224,	 14.34803952
	 0.09961391466,	 22.22034706
	 0.1629244105,	 36.24586784
	 0.2650779365,	 58.81859041
	 0.422016378,	 93.4086536
	 0.6681190197,	 147.4997351
	 1.06437816331506174272192311037 ,	 234.278847987038091105205239728 
	 1.64058476387635798765529671073 ,	 359.819641790769878753053490072 
END
BEGIN
	 -8.87020361415441e-09 ,	 5.57337564322193e-10 
	 -8.95984811138343e-09 ,	 5.57337565361064e-10 
	 -9.05178317858139e-09 ,	 5.57337566413198e-10 
	 -9.14146780755382e-09 ,	 5.57337567463697e-10 
	 -1.83954118649927e-08 ,	 5.57337750132502e-10 
	 -3.61027729335259e-08 ,	 5.57338169957083e-10 
	 -5.74715747596322e-08 ,	 5.57339044807666e-10 
	 -8.52022518033416e-08 ,	 5.57340677203606e-10 
	 -1.32111994458756e-07 ,	 5.57344673605422e-10 
	 -2.14072388444314e-07 ,	 5.5735538384287e-10 
	 -3.37494930426063e-07 ,	 5.57381620035121e-10 
	 -4.8880734787593e-07 ,	 5.57441783605067e-10 
	 -5.7878452215665e-07 ,	 5.57580448209342e-10 
	 -1.05667924729658e-07 ,	 5.57906544082671e-10 
	 2.74936613270382e-06 ,	 5.58581491338346e-10 
END
BEGIN
	 0.1411884522,	 6.045382742e-08
	 0.142600385,	 6.045044506e-08
	 0.1440123178,	 6.044709603e-08
	 0.1454242504,	 6.044377968e-08
	 0.2832192844,	 6.02172133e-08
	 0.5664315399,	 5.998167273e-08
	 0.8980955582,	 5.982514739e-08
	 1.32815418413754615656330315687 ,	 5.96924372209388031729134253475e-08 
	 2.0592764264429446185999950103 ,	 5.95440626374068183603892388638e-08 
	 3.36336643576994998028339978191 ,	 5.9379098418396506878065240799e-08 
	 5.46464607915800471005240979139 ,	 5.92181791228919757549610275883e-08 
	 8.68852513415626503956445958465 ,	 5.90689153189841248040247128747e-08 
	 13.737393786110835947056330042 ,	 5.89299118529799593206431706886e-08 
	 21.8552340815194021672596136341 ,	 5.88045688422902814879087405892e-08 
	 33.639024728598400315604521893 ,	 5.87103173112414353392629119167e-08 
END
CITIFILE A.01.01
NAME PortSet15/TwoP0_Dsolver_data/first_odd_mode_is_1/most_even_mode_is_1/PMLG4/LS0

VAR freq MAG 15

DATA GAMMA_14[1] RI
DATA Z0_14[1,1] RI
DATA LAMBADAI_14[1,1] RI
DATA Zcir_14[1,1] RI
DATA Ycir_14[1,1] RI

VAR_LIST_BEGIN
	 42083139.73
	 42503971.13
	 42924802.52
	 43345633.92
	 84416211.94
	 168832423.9
	 267697144.3
	 395902575.1
	 613882773.2
	 1002746943
	 1629395405
	 2590738351
	 4095295577
	 6509722363
	 1e+10
VAR_LIST_END

BEGIN
	 0.00677811985,	 1.534840661
	 0.006846094883,	 1.550145705
	 0.006914071804,	 1.565450319
	 0.006982050617,	 1.58075451
	 0.01362336563,	 3.072766459
	 0.02729984983,	 6.133504751
	 0.04334141552,	 9.712466953
	 0.0641670224,	 14.34803952
	 0.09961391466,	 22.22034706
	 0.1629244105,	 36.24586784
	 0.2650779365,	 58.81859041
	 0.422016378,	 93.4086536
	 0.6681190197,	 147.4997351
	 1.06437816331506174272192311037 ,	 234.278847987038091105205239728 
	 1.6405847638763577656106917857 ,	 359.819641790769821909634629264 
END
BEGIN
	 36.1713884552408799777367676143 ,	 0.159741238245334093992511270699 
	 36.1724002959781145705164817628 ,	 0.159754698740006112478440059022 
	 36.1734022514028410455466655549 ,	 0.159768028132434902754965833083 
	 36.1743945131194450937073270325 ,	 0.159781228424733551252145957733 
	 36.2423813535387253637054527644 ,	 0.160685866981586517043822937012 
	 36.3134765697774071213643765077 ,	 0.16163125296753988457965078851 
	 36.3609734137825455491110915318 ,	 0.162261320056239749520798909543 
	 36.4014189837742137001441733446 ,	 0.162795952844895341904418728518 
	 36.4468694860729627293949306477 ,	 0.163393717826202877763108745057 
	 36.497806651931504973163100658 ,	 0.164059095207481964173723554268 
	 36.5482169171384967398807930294 ,	 0.164714132054669587512663042617 
	 36.596334783139646162908320548 ,	 0.165342676586544667927114460326 
	 36.6440219337176529279531678185 ,	 0.165985288351411158780379651034 
	 36.6937733829761754122955608182 ,	 0.166707712891554477030453540465 
	 36.7454138001446324324206216261 ,	 0.167536518999128414275645582165 
END
BEGIN
	 0.00677811985,	 1.534840661
	 0.006846094883,	 1.550145705
	 0.006914071804,	 1.565450319
	 0.006982050617,	 1.58075451
	 0.01362336563,	 3.072766459
	 0.02729984983,	 6.133504751
	 0.04334141552,	 9.712466953
	 0.0641670224,	 14.34803952
	 0.09961391466,	 22.22034706
	 0.1629244105,	 36.24586784
	 0.2650779365,	 58.81859041
	 0.422016378,	 93.4086536
	 0.6681190197,	 147.4997351
	 1.06437816331506174272192311037 ,	 234.278847987038091105205239728 
	 1.64058476387635798765529671073 ,	 359.819641790769878753053490072 
END
BEGIN
	 -8.87020361415441e-09 ,	 5.57337564322193e-10 
	 -8.95984811138343e-09 ,	 5.57337565361064e-10 
	 -9.05178317858139e-09 ,	 5.57337566413198e-10 
	 -9.14146780755382e-09 ,	 5.57337567463697e-10 
	 -1.83954118649927e-08 ,	 5.57337750132502e-10 
	 -3.61027729335259e-08 ,	 5.57338169957083e-10 
	 -5.74715747596322e-08 ,	 5.57339044807666e-10 
	 -8.52022518033416e-08 ,	 5.57340677203606e-10 
	 -1.32111994458756e-07 ,	 5.57344673605422e-10 
	 -2.14072388444314e-07 ,	 5.5735538384287e-10 
	 -3.37494930426063e-07 ,	 5.57381620035121e-10 
	 -4.8880734787593e-07 ,	 5.57441783605067e-10 
	 -5.7878452215665e-07 ,	 5.57580448209342e-10 
	 -1.05667924729658e-07 ,	 5.57906544082671e-10 
	 2.74936613270382e-06 ,	 5.58581491338346e-10 
END
BEGIN
	 0.1411884522,	 6.045382742e-08
	 0.142600385,	 6.045044506e-08
	 0.1440123178,	 6.044709603e-08
	 0.1454242504,	 6.044377968e-08
	 0.2832192844,	 6.02172133e-08
	 0.5664315399,	 5.998167273e-08
	 0.8980955582,	 5.982514739e-08
	 1.32815418413754615656330315687 ,	 5.96924372209388031729134253475e-08 
	 2.0592764264429446185999950103 ,	 5.95440626374068183603892388638e-08 
	 3.36336643576994998028339978191 ,	 5.9379098418396506878065240799e-08 
	 5.46464607915800471005240979139 ,	 5.92181791228919757549610275883e-08 
	 8.68852513415626503956445958465 ,	 5.90689153189841248040247128747e-08 
	 13.737393786110835947056330042 ,	 5.89299118529799593206431706886e-08 
	 21.8552340815194021672596136341 ,	 5.88045688422902814879087405892e-08 
	 33.639024728598400315604521893 ,	 5.87103173112414353392629119167e-08 
END
CITIFILE A.01.01
NAME PortSet16/TwoP0_Dsolver_data/first_odd_mode_is_1/most_even_mode_is_1/PMLG4/LS0

VAR freq MAG 15

DATA GAMMA_16[1] RI
DATA Z0_16[1,1] RI
DATA LAMBADAI_16[1,1] RI
DATA Zcir_16[1,1] RI
DATA Ycir_16[1,1] RI

VAR_LIST_BEGIN
	 42083139.73
	 42503971.13
	 42924802.52
	 43345633.92
	 83970685.39
	 167941370.8
	 265571170.2
	 391483787.8
	 604900506.8
	 985126603
	 1596338559
	 2530577216
	 3986665209
	 6312391226
	 1e+10
VAR_LIST_END

BEGIN
	 0.007226458836,	 1.584218655
	 0.00729893576,	 1.600014612
	 0.007371414753,	 1.615810113
	 0.007443895821,	 1.631605162
	 0.01444840164,	 3.154728134
	 0.02895481767,	 6.296704278
	 0.04584735602,	 9.943853115
	 0.06765903458,	 14.64182326
	 0.1046716594,	 22.59515833
	 0.1707017369,	 36.7464044
	 0.2770093084,	 59.46554522
	 0.439816529,	 94.15563392
	 0.6942943222,	 148.1887113
	 1.10273022870677150919505038473 ,	 234.501049168450464321722392924 
	 1.75577436488582105944544764498 ,	 371.552532624382592985057272017 
END
BEGIN
	 20.4986039409050704307446721941 ,	 0.093507851556689919325648929771 
	 20.4991962163069239011292665964 ,	 0.0935159757524684775997769747846 
	 20.4997827068534554939560621278 ,	 0.0935240208734876843355010578307 
	 20.5003635239755972463626676472 ,	 0.0935319881246165496513356174546 
	 20.5398445373436437932923581684 ,	 0.0940737816960744571703756378156 
	 20.5814604308231601237366703572 ,	 0.094644896274735323959959032436 
	 20.6090942327601602812592318514 ,	 0.0950237139530922952923575053319 
	 20.6325538953998268709710828261 ,	 0.0953448291368647060650687308225 
	 20.6588955343512772344638506183 ,	 0.0957049393816692683945035469151 
	 20.6884045722985483450884203194 ,	 0.0961088986877553091980885824341 
	 20.7174876580940683368226018501 ,	 0.0965115847407757299070141243647 
	 20.7450401556729246976829017513 ,	 0.0969064274379627249578206260594 
	 20.7721597064527045972681662533 ,	 0.0973245352387876044852887957859 
	 20.8006556172788954484076384688 ,	 0.0978163177627643237732613101798 
	 20.8346342694961315089585696114 ,	 0.0984550066147284047568533082995 
END
BEGIN
	 0.007226458836,	 1.584218655
	 0.00729893576,	 1.600014612
	 0.007371414753,	 1.615810113
	 0.007443895821,	 1.631605162
	 0.01444840164,	 3.154728134
	 0.02895481767,	 6.296704278
	 0.04584735602,	 9.943853115
	 0.06765903458,	 14.64182326
	 0.1046716594,	 22.59515833
	 0.1707017369,	 36.7464044
	 0.2770093084,	 59.46554522
	 0.439816529,	 94.15563392
	 0.6942943222,	 148.1887113
	 1.10273022870677150919505038473 ,	 234.501049168450492743431823328 
	 1.75577436488582083740084271994 ,	 371.552532624382536141638411209 
END
BEGIN
	 -1.21180207740068e-08 ,	 3.26009168249011e-10 
	 -1.22404974605686e-08 ,	 3.26009169202548e-10 
	 -1.23644513453226e-08 ,	 3.26009170175528e-10 
	 -1.24869675446025e-08 ,	 3.26009171136144e-10 
	 -2.4638918396107e-08 ,	 3.26009312965905e-10 
	 -4.90778810466764e-08 ,	 3.26009667800905e-10 
	 -7.79697298413685e-08 ,	 3.26010369830006e-10 
	 -1.15360401414626e-07 ,	 3.26011668336346e-10 
	 -1.78860099109106e-07 ,	 3.26014835856454e-10 
	 -2.91623410768674e-07 ,	 3.26023330302578e-10 
	 -4.70038823224828e-07 ,	 3.26044154298069e-10 
	 -7.2877469603147e-07 ,	 3.26091875021268e-10 
	 -1.07480826528478e-06 ,	 3.26201568805611e-10 
	 -1.37343605990936e-06 ,	 3.26457773031183e-10 
	 -7.7059118581968e-07 ,	 3.27043339551854e-10 
END
BEGIN
	 0.2656192386,	 1.101071166e-07
	 0.2682754838,	 1.101007537e-07
	 0.2709317285,	 1.100944535e-07
	 0.2735879728,	 1.100882147e-07
	 0.530006211,	 1.096654003e-07
	 1.05999257441816729929939810972 ,	 1.09222423133040575924973709931e-07 
	 1.6761525098749996409708273859 ,	 1.08929914501961375141120356297e-07 
	 2.47076202745963025009245939145 ,	 1.08682745782192438769553593896e-07 
	 3.81750908376514885844699165318 ,	 1.08406783741908991337507019159e-07 
	 6.21682934664416908532302841195 ,	 1.08100528539559925933246080799e-07 
	 10.0743068170899654489858221496 ,	 1.07804086249010717372078167232e-07 
	 15.9740466362521171816979403957 ,	 1.07533614657786971435103780519e-07 
	 25.1836773853028894620820210548 ,	 1.07289048686061738045380547363e-07 
	 39.9436892265145147007388004567 ,	 1.07079272175072481692854973329e-07 
	 63.4944069873668084369455755223 ,	 1.06921663775667408452751646133e-07 
END
CITIFILE A.01.01
NAME PortSet17/TwoP0_Dsolver_data/first_odd_mode_is_1/most_even_mode_is_1/PMLG4/LS0

